!
! C:\data\Siglent F603FE cal kit tests\avg 16 100hz ifbw\kirkby short.S1P
!
! Touchstone 1.1 file saved by VNA.EXE V1.60 (www.ke5fx.com/gpib/readme.htm)
! 26/07/2020 12:23:25 p.m.
!
!    Source: HEWLETT PACKARD,8753C,0,4.12
!  Min freq: 3.000000E+006 Hz
!  Max freq: 6.000000E+009 Hz
!    Points: 201
!    Params: S11
!
!!!!!
# GHZ S DB R 50
0.0030000000000000 -22.811507 -56.199753 
0.0329850000000000 -5.715437 96.493061 
0.0629700000000000 -6.023524 29.910200 
0.0929550000000000 -6.045179 -37.647064 
0.1229400000000000 -6.146583 -106.513689 
0.1529250000000000 -6.329453 -174.505387 
0.1829100000000000 -6.151083 118.588083 
0.2128950000000000 -6.159505 50.228550 
0.2428800000000000 -6.216753 -17.604107 
0.2728650000000000 -6.262519 -85.552890 
0.3028500000000000 -6.214997 -153.708435 
0.3328350000000000 -6.238416 137.809286 
0.3628200000000000 -6.322015 69.608586 
0.3928050000000000 -6.372513 1.201833 
0.4227900000000000 -6.433241 -66.035273 
0.4527750000000000 -6.392671 -133.424096 
0.4827600000000000 -6.250432 158.146243 
0.5127450000000000 -6.118375 89.076894 
0.5427300000000001 -6.247963 19.742806 
0.5727150000000000 -6.372174 -49.185413 
0.6027000000000000 -6.524677 -117.029952 
0.6326850000000001 -6.638019 175.608349 
0.6626700000000000 -6.652561 107.849192 
0.6926550000000000 -6.537978 39.850242 
0.7226400000000000 -6.545458 -28.365424 
0.7526250000000000 -6.531344 -97.006790 
0.7826100000000000 -6.552791 -165.612973 
0.8125950000000000 -6.693700 126.362021 
0.8425800000000000 -6.732139 58.229377 
0.8725650000000000 -6.759977 -9.538694 
0.9025500000000000 -6.780214 -76.835314 
0.9325350000000000 -6.724280 -144.824687 
0.9625200000000000 -6.550705 146.780566 
0.9925050000000000 -6.549297 77.803354 
1.0224899999999999 -6.642667 8.753302 
1.0524750000000000 -6.713798 -59.746565 
1.0824600000000000 -6.835887 -127.762626 
1.1124449999999999 -6.888954 164.035761 
1.1424300000000001 -6.963087 95.990235 
1.1724150000000000 -7.056418 28.511569 
1.2023999999999999 -7.080472 -38.893970 
1.2323850000000001 -6.972306 -106.738671 
1.2623700000000000 -6.906092 -175.124609 
1.2923549999999999 -6.944439 116.761609 
1.3223400000000001 -6.904455 48.551655 
1.3523250000000000 -6.873579 -19.501887 
1.3823099999999999 -6.846313 -87.826597 
1.4122950000000001 -6.891681 -156.298344 
1.4422800000000000 -6.883182 135.071000 
1.4722649999999999 -6.920857 67.172458 
1.5022500000000001 -6.888737 -1.176867 
1.5322350000000000 -6.936996 -69.973394 
1.5622199999999999 -7.025313 -137.931373 
1.5922050000000001 -7.084753 154.259638 
1.6221900000000000 -7.068483 86.442867 
1.6521749999999999 -7.083999 18.530566 
1.6821600000000001 -6.988570 -49.378779 
1.7121450000000000 -6.932558 -117.682924 
1.7421300000000000 -6.889128 174.313252 
1.7721150000000001 -6.859025 105.987986 
1.8021000000000000 -6.857689 37.179895 
1.8320850000000000 -6.881506 -30.997200 
1.8620699999999999 -6.891938 -99.127688 
1.8920550000000000 -6.897273 -167.762180 
1.9220400000000000 -6.974060 123.760974 
1.9520249999999999 -7.031382 56.096367 
1.9820100000000000 -7.023478 -12.176725 
2.0119950000000002 -7.049452 -80.530240 
2.0419800000000001 -7.100433 -148.378492 
2.0719650000000001 -7.127983 143.460627 
2.1019500000000000 -7.156652 75.565006 
2.1319349999999999 -7.147028 7.948243 
2.1619199999999998 -7.056873 -60.085044 
2.1919050000000002 -7.014126 -128.794213 
2.2218900000000001 -7.060289 163.046658 
2.2518750000000001 -7.077576 94.935183 
2.2818600000000000 -7.069172 26.461821 
2.3118449999999999 -7.107226 -41.493494 
2.3418299999999999 -7.132186 -109.505849 
2.3718149999999998 -7.143980 -177.832430 
2.4018000000000002 -7.144628 114.534540 
2.4317850000000001 -7.052766 46.729630 
2.4617700000000000 -6.985204 -22.111993 
2.4917549999999999 -7.000827 -90.681198 
2.5217399999999999 -7.025225 -159.026052 
2.5517249999999998 -7.019143 132.227644 
2.5817100000000002 -7.137899 63.919626 
2.6116950000000001 -7.201097 -3.919069 
2.6416800000000000 -7.138529 -72.125391 
2.6716650000000000 -7.210987 -140.288144 
2.7016499999999999 -7.269301 151.733705 
2.7316349999999998 -7.253743 83.823385 
2.7616200000000002 -7.164246 15.705932 
2.7916050000000001 -7.246719 -52.745102 
2.8215900000000000 -7.199264 -121.172575 
2.8515750000000000 -7.298507 170.009501 
2.8815599999999999 -7.349594 103.093279 
2.9115449999999998 -7.203629 34.624819 
2.9415300000000002 -7.207849 -34.432330 
2.9715150000000001 -7.368687 -102.435777 
3.0015000000000001 -7.414380 -170.238661 
3.0314850000000000 -7.360286 121.984402 
3.0614699999999999 -8.072795 56.340645 
3.0914549999999998 -8.161505 -12.245858 
3.1214400000000002 -8.298485 -80.104983 
3.1514250000000001 -8.357837 -146.478123 
3.1814100000000001 -8.241053 145.899754 
3.2113950000000000 -8.145994 77.241070 
3.2413799999999999 -8.216695 9.244300 
3.2713649999999999 -8.282940 -58.375552 
3.3013499999999998 -8.130198 -126.194875 
3.3313350000000002 -8.082072 165.117426 
3.3613200000000001 -8.171458 96.419344 
3.3913050000000000 -8.166464 28.167035 
3.4212899999999999 -8.343674 -39.258542 
3.4512749999999999 -8.232194 -106.658628 
3.4812599999999998 -8.164184 -175.474622 
3.5112450000000002 -8.299973 115.936773 
3.5412300000000001 -8.342981 48.866940 
3.5712150000000000 -8.326062 -19.305971 
3.6012000000000000 -8.300685 -87.175288 
3.6311849999999999 -8.367800 -155.078608 
3.6611699999999998 -8.424924 137.192193 
3.6911550000000002 -8.399407 69.672709 
3.7211400000000001 -8.364177 2.116516 
3.7511250000000000 -8.233122 -65.383355 
3.7811100000000000 -8.155751 -134.462471 
3.8110949999999999 -8.226262 157.215769 
3.8410799999999998 -8.269678 88.889932 
3.8710650000000002 -8.301297 20.506017 
3.9010500000000001 -8.406364 -46.972573 
3.9310350000000001 -8.400730 -114.834897 
3.9610200000000000 -8.437841 177.490991 
3.9910049999999999 -8.474309 110.135279 
4.0209900000000003 -8.387314 43.376128 
4.0509750000000002 -8.281412 -24.828053 
4.0809600000000001 -8.210477 -92.673872 
4.1109450000000001 -8.136953 -160.748071 
4.1409300000000000 -8.179196 130.717522 
4.1709149999999999 -8.078562 64.527135 
4.2008999999999999 -8.342177 -6.110637 
4.2308849999999998 -8.170775 -72.026828 
4.2608699999999997 -7.883836 -139.961376 
4.2908549999999996 -7.745872 151.244520 
4.3208399999999996 -7.750607 82.264621 
4.3508250000000004 -7.720883 13.186207 
4.3808100000000003 -7.846459 -53.020501 
4.4107950000000002 -7.686872 -120.953586 
4.4407800000000002 -7.578199 170.666307 
4.4707650000000001 -7.467907 101.723129 
4.5007500000000000 -7.385665 33.525491 
4.5307350000000000 -7.318858 -34.128183 
4.5607199999999999 -7.175733 -103.300901 
4.5907049999999998 -7.157165 -172.685877 
4.6206899999999997 -7.113380 118.294581 
4.6506749999999997 -7.198240 49.652166 
4.6806599999999996 -7.269123 -19.697828 
4.7106450000000004 -7.264077 -87.784058 
4.7406300000000003 -7.434758 -156.421521 
4.7706150000000003 -7.564591 136.748945 
4.8006000000000002 -7.339827 68.612077 
4.8305850000000001 -7.344193 -0.346182 
4.8605700000000001 -7.508613 -68.354278 
4.8905550000000000 -7.343491 -135.837992 
4.9205399999999999 -7.286272 154.804690 
4.9505249999999998 -7.204899 86.992687 
4.9805099999999998 -7.128037 17.449999 
5.0104949999999997 -7.361902 -51.585250 
5.0404799999999996 -7.325841 -120.147903 
5.0704650000000004 -7.406437 170.694798 
5.1004500000000004 -7.540963 101.687401 
5.1304350000000003 -7.882509 33.978500 
5.1604200000000002 -8.031055 -32.797602 
5.1904050000000002 -8.021213 -99.695032 
5.2203900000000001 -8.061525 -165.948200 
5.2503750000000000 -7.813919 126.694928 
5.2803599999999999 -7.696746 58.277177 
5.3103449999999999 -7.455299 -9.770212 
5.3403299999999998 -7.312413 -78.533298 
5.3703149999999997 -7.094967 -149.336918 
5.4002999999999997 -7.406349 140.872214 
5.4302849999999996 -7.401378 72.532871 
5.4602700000000004 -7.545721 3.021334 
5.4902550000000003 -7.758843 -65.849487 
5.5202400000000003 -8.035199 -133.303394 
5.5502250000000002 -8.290739 159.456980 
5.5802100000000001 -8.274697 94.506140 
5.6101950000000000 -7.973268 25.158943 
5.6401800000000000 -8.001190 -43.406361 
5.6701649999999999 -8.046071 -110.892479 
5.7001499999999998 -7.769341 -178.952075 
5.7301349999999998 -7.682853 111.983839 
5.7601199999999997 -7.624555 42.551409 
5.7901049999999996 -7.784549 -26.584207 
5.8200900000000004 -7.819811 -93.980334 
5.8500750000000004 -7.716436 -164.225693 
5.8800600000000003 -8.033545 126.655614 
5.9100450000000002 -8.332644 58.772491 
5.9400300000000001 -8.405110 -8.668317 
5.9700150000000001 -8.584155 -75.134854 
6.0000000000000000 -8.490582 -141.975636 
