!
! C:\data\Siglent F603FE cal kit tests\avg 16 100hz ifbw\kirkby load.S1P
!
! Touchstone 1.1 file saved by VNA.EXE V1.60 (www.ke5fx.com/gpib/readme.htm)
! 26/07/2020 12:25:19 p.m.
!
!    Source: HEWLETT PACKARD,8753C,0,4.12
!  Min freq: 3.000000E+006 Hz
!  Max freq: 6.000000E+009 Hz
!    Points: 201
!    Params: S11
!
!!!!!
# GHZ S DB R 50
0.0030000000000000 -37.070011 33.711152 
0.0329850000000000 -41.120270 114.635341 
0.0629700000000000 -43.045891 -5.229202 
0.0929550000000000 -41.490516 -112.244110 
0.1229400000000000 -39.680723 146.721878 
0.1529250000000000 -38.430209 49.015076 
0.1829100000000000 -37.864766 -46.575995 
0.2128950000000000 -38.183843 -140.303695 
0.2428800000000000 -39.439723 128.111767 
0.2728650000000000 -42.032523 39.807782 
0.3028500000000000 -46.633074 -38.833341 
0.3328350000000000 -52.115326 -75.044797 
0.3628200000000000 -47.488624 -109.936950 
0.3928050000000000 -43.714540 172.769739 
0.4227900000000000 -42.205314 86.234297 
0.4527750000000000 -42.508757 -2.592047 
0.4827600000000000 -44.819634 -93.054054 
0.5127450000000000 -51.223582 171.853729 
0.5427300000000001 -58.802785 -68.075925 
0.5727150000000000 -46.204502 -173.253646 
0.6027000000000000 -41.810810 97.689381 
0.6326850000000001 -39.543876 11.977972 
0.6626700000000000 -38.550584 -79.224247 
0.6926550000000000 -39.517658 -162.151064 
0.7226400000000000 -41.227422 121.162626 
0.7526250000000000 -43.379779 57.216808 
0.7826100000000000 -43.667341 4.329827 
0.8125950000000000 -41.686140 -57.349684 
0.8425800000000000 -39.904824 -131.155420 
0.8725650000000000 -39.185492 149.333163 
0.9025500000000000 -39.660211 67.464814 
0.9325350000000000 -41.590355 -14.427761 
0.9625200000000000 -45.966689 -92.093863 
0.9925050000000000 -56.260633 -116.841111 
1.0224899999999999 -46.328095 -119.556356 
1.0524750000000000 -40.576718 163.529230 
1.0824600000000000 -37.618996 80.360797 
1.1124449999999999 -36.304175 -4.847405 
1.1424300000000001 -36.711977 -84.845719 
1.1724150000000000 -36.269581 -157.185495 
1.2023999999999999 -35.970247 123.594780 
1.2323850000000001 -36.529706 44.432541 
1.2623700000000000 -37.580545 -32.088023 
1.2923549999999999 -39.018820 -105.587072 
1.3223400000000001 -40.584566 -175.137344 
1.3523250000000000 -41.965639 119.270227 
1.3823099999999999 -42.912909 55.615839 
1.4122950000000001 -43.408979 -7.156376 
1.4422800000000000 -43.630358 -70.444988 
1.4722649999999999 -43.657510 -134.760111 
1.5022500000000001 -43.458357 159.585371 
1.5322350000000000 -43.116753 93.209012 
1.5622199999999999 -42.585258 24.443654 
1.5922050000000001 -42.135573 -46.247615 
1.6221900000000000 -41.735367 -118.988824 
1.6521749999999999 -41.530634 165.602581 
1.6821600000000001 -41.765545 89.869430 
1.7121450000000000 -42.099615 13.937097 
1.7421300000000000 -42.726505 -62.391332 
1.7721150000000001 -43.468904 -140.375137 
1.8021000000000000 -44.579704 140.953069 
1.8320850000000000 -46.000538 62.130503 
1.8620699999999999 -47.692005 -18.547000 
1.8920550000000000 -49.726398 -101.120301 
1.9220400000000000 -52.192623 173.995075 
1.9520249999999999 -54.695986 80.549869 
1.9820100000000000 -56.664519 -25.267738 
2.0119950000000002 -56.022755 -129.373780 
2.0419800000000001 -54.241190 134.810854 
2.0719650000000001 -52.197863 47.646604 
2.1019500000000000 -50.648949 -35.785240 
2.1319349999999999 -49.242823 -115.986940 
2.1619199999999998 -48.142583 166.543273 
2.1919050000000002 -47.211164 88.382932 
2.2218900000000001 -46.532174 12.329531 
2.2518750000000001 -45.890169 -63.614290 
2.2818600000000000 -45.329211 -138.180820 
2.3118449999999999 -44.955696 146.112861 
2.3418299999999999 -44.508801 72.680896 
2.3718149999999998 -44.153776 -1.108527 
2.4018000000000002 -43.836148 -74.801718 
2.4317850000000001 -43.560893 -147.484290 
2.4617700000000000 -43.387649 140.271932 
2.4917549999999999 -43.147492 68.861173 
2.5217399999999999 -42.917203 -2.877677 
2.5517249999999998 -42.693406 -73.821005 
2.5817100000000002 -42.459721 -144.231517 
2.6116950000000001 -42.258988 144.954998 
2.6416800000000000 -42.035226 74.533010 
2.6716650000000000 -41.887455 4.690613 
2.7016499999999999 -41.620350 -65.991883 
2.7316349999999998 -41.368775 -136.035869 
2.7616200000000002 -41.300526 154.522805 
2.7916050000000001 -40.992813 84.524388 
2.8215900000000000 -40.848696 14.275891 
2.8515750000000000 -40.677542 -56.137491 
2.8815599999999999 -40.497279 -125.907624 
2.9115449999999998 -40.333309 164.436379 
2.9415300000000002 -40.260473 93.851341 
2.9715150000000001 -40.181790 24.100155 
3.0015000000000001 -40.146642 -46.081666 
3.0314850000000000 -40.072016 -116.096889 
3.0614699999999999 -40.752425 175.980613 
3.0914549999999998 -40.809686 105.022602 
3.1214400000000002 -40.912418 35.110112 
3.1514250000000001 -41.026481 -35.278174 
3.1814100000000001 -41.166248 -105.716626 
3.2113950000000000 -41.403193 -176.841901 
3.2413799999999999 -41.624274 112.088279 
3.2713649999999999 -42.071654 41.147104 
3.3013499999999998 -42.463406 -29.072574 
3.3313350000000002 -42.993125 -99.279749 
3.3613200000000001 -43.641859 -169.224645 
3.3913050000000000 -44.152627 120.987941 
3.4212899999999999 -44.907251 52.204276 
3.4512749999999999 -45.692451 -17.315102 
3.4812599999999998 -46.662206 -83.846265 
3.5112450000000002 -47.615264 -150.491674 
3.5412300000000001 -48.670735 145.418553 
3.5712150000000000 -49.462341 83.991636 
3.6012000000000000 -49.765736 23.741329 
3.6311849999999999 -49.748717 -37.060428 
3.6611699999999998 -49.448530 -98.409889 
3.6911550000000002 -48.606448 -158.851795 
3.7211400000000001 -47.831579 136.395841 
3.7511250000000000 -46.543624 70.384041 
3.7811100000000000 -45.810032 2.480747 
3.8110949999999999 -44.760610 -67.316510 
3.8410799999999998 -43.992904 -136.606349 
3.8710650000000002 -43.364153 152.218221 
3.9010500000000001 -42.549467 80.778025 
3.9310350000000001 -42.148722 10.193437 
3.9610200000000000 -41.544581 -61.894876 
3.9910049999999999 -40.877807 -133.257823 
4.0209900000000003 -40.542835 155.541121 
4.0509750000000002 -40.208602 83.251254 
4.0809600000000001 -39.964807 11.166918 
4.1109450000000001 -39.570077 -60.463782 
4.1409300000000000 -39.256253 -132.504130 
4.1709149999999999 -39.094607 155.088690 
4.2008999999999999 -39.419075 85.667148 
4.2308849999999998 -39.014416 12.483831 
4.2608699999999997 -38.935753 -58.528040 
4.2908549999999996 -38.818215 -131.022622 
4.3208399999999996 -39.035483 157.611095 
4.3508250000000004 -39.151367 84.779553 
4.3808100000000003 -39.431779 13.703566 
4.4107950000000002 -39.673009 -57.257184 
4.4407800000000002 -39.960222 -128.486092 
4.4707650000000001 -40.374943 159.865304 
4.5007500000000000 -41.173595 90.121966 
4.5307350000000000 -42.057794 21.285108 
4.5607199999999999 -42.735574 -47.936829 
4.5907049999999998 -43.480373 -116.462910 
4.6206899999999997 -44.636091 178.327159 
4.6506749999999997 -45.814002 113.373040 
4.6806599999999996 -47.730065 49.664608 
4.7106450000000004 -48.978752 -8.383208 
4.7406300000000003 -49.596124 -62.815325 
4.7706150000000003 -49.214279 -113.411558 
4.8006000000000002 -48.928328 -168.595714 
4.8305850000000001 -47.164008 134.867780 
4.8605700000000001 -45.393923 72.121298 
4.8905550000000000 -44.446836 9.507289 
4.9205399999999999 -42.753581 -55.542092 
4.9505249999999998 -41.646535 -123.392399 
4.9805099999999998 -40.728081 167.959400 
5.0104949999999997 -39.633363 97.649681 
5.0404799999999996 -38.826495 27.286651 
5.0704650000000004 -38.292280 -42.076966 
5.1004500000000004 -37.861454 -112.163126 
5.1304350000000003 -37.677803 179.255534 
5.1604200000000002 -37.330563 108.304065 
5.1904050000000002 -36.972351 39.623398 
5.2203900000000001 -36.846099 -28.310791 
5.2503750000000000 -36.357114 -98.004620 
5.2803599999999999 -36.003831 -166.776074 
5.3103449999999999 -35.639071 122.158931 
5.3403299999999998 -35.532592 52.000952 
5.3703149999999997 -35.457544 -19.030034 
5.4002999999999997 -35.469726 -88.780371 
5.4302849999999996 -35.570431 -158.505694 
5.4602700000000004 -35.535256 131.459835 
5.4902550000000003 -35.827956 59.719109 
5.5202400000000003 -36.128977 -9.072862 
5.5502250000000002 -36.415717 -77.143635 
5.5802100000000001 -36.516179 -143.831133 
5.6101950000000000 -36.530960 146.500533 
5.6401800000000000 -36.613667 77.077493 
5.6701649999999999 -36.780258 8.349867 
5.7001499999999998 -36.767031 -60.659179 
5.7301349999999998 -37.018759 -131.199222 
5.7601199999999997 -37.057632 158.845066 
5.7901049999999996 -37.280647 89.472606 
5.8200900000000004 -37.679000 21.150876 
5.8500750000000004 -37.970772 -48.486085 
5.8800600000000003 -38.576117 -117.543074 
5.9100450000000002 -39.130565 173.256079 
5.9400300000000001 -39.068581 103.722546 
5.9700150000000001 -39.556705 36.520973 
6.0000000000000000 -39.602311 -28.688567 
