!
! C:\data\Siglent F603FE cal kit tests\avg 16 100hz ifbw\kirkby open.S1P
!
! Touchstone 1.1 file saved by VNA.EXE V1.60 (www.ke5fx.com/gpib/readme.htm)
! 26/07/2020 12:24:21 p.m.
!
!    Source: HEWLETT PACKARD,8753C,0,4.12
!  Min freq: 3.000000E+006 Hz
!  Max freq: 6.000000E+009 Hz
!    Points: 201
!    Params: S11
!
!!!!!
# GHZ S DB R 50
0.0030000000000000 -18.235174 101.478551 
0.0329850000000000 -6.027470 -86.042048 
0.0629700000000000 -6.088129 -150.849207 
0.0929550000000000 -6.148521 141.907749 
0.1229400000000000 -6.169904 74.432847 
0.1529250000000000 -6.080478 5.908552 
0.1829100000000000 -5.906386 -62.197738 
0.2128950000000000 -6.002120 -130.368330 
0.2428800000000000 -6.010841 161.002236 
0.2728650000000000 -6.061432 92.511225 
0.3028500000000000 -6.218839 24.421303 
0.3328350000000000 -6.305663 -43.480700 
0.3628200000000000 -6.278652 -111.482640 
0.3928050000000000 -6.264926 -179.199681 
0.4227900000000000 -6.242468 111.969954 
0.4527750000000000 -6.273009 43.440564 
0.4827600000000000 -6.383926 -24.451948 
0.5127450000000000 -6.454778 -92.765656 
0.5427300000000001 -6.454688 -161.037247 
0.5727150000000000 -6.525450 131.379609 
0.6027000000000000 -6.532362 63.544435 
0.6326850000000001 -6.471719 -4.444896 
0.6626700000000000 -6.447770 -72.947503 
0.6926550000000000 -6.482468 -141.297564 
0.7226400000000000 -6.485384 150.425806 
0.7526250000000000 -6.508160 82.355611 
0.7826100000000000 -6.569411 14.311351 
0.8125950000000000 -6.499219 -54.161854 
0.8425800000000000 -6.564747 -122.493176 
0.8725650000000000 -6.619633 169.396221 
0.9025500000000000 -6.666756 101.253045 
0.9325350000000000 -6.716986 33.601273 
0.9625200000000000 -6.789069 -33.930601 
0.9925050000000000 -6.702596 -101.551033 
1.0224899999999999 -6.614588 -169.442452 
1.0524750000000000 -6.587166 122.308867 
1.0824600000000000 -6.524460 53.552209 
1.1124449999999999 -6.528293 -14.765079 
1.1424300000000001 -6.525678 -82.917509 
1.1724150000000000 -6.489490 -151.419887 
1.2023999999999999 -6.497114 139.820046 
1.2323850000000001 -6.581342 71.424089 
1.2623700000000000 -6.622599 3.463413 
1.2923549999999999 -6.583543 -64.792519 
1.3223400000000001 -6.640364 -133.026435 
1.3523250000000000 -6.681415 158.730448 
1.3823099999999999 -6.704248 90.777518 
1.4122950000000001 -6.654849 22.840952 
1.4422800000000000 -6.653746 -45.160924 
1.4722649999999999 -6.619854 -113.849504 
1.5022500000000001 -6.685636 177.932557 
1.5322350000000000 -6.664526 109.698659 
1.5622199999999999 -6.639509 40.929809 
1.5922050000000001 -6.663797 -27.426523 
1.6221900000000000 -6.744340 -95.836915 
1.6521749999999999 -6.761918 -164.146938 
1.6821600000000001 -6.834067 127.636850 
1.7121450000000000 -6.877313 59.982483 
1.7421300000000000 -6.876981 -8.143748 
1.7721150000000001 -6.871754 -76.250951 
1.8021000000000000 -6.845370 -144.359960 
1.8320850000000000 -6.848579 147.032253 
1.8620699999999999 -6.906122 78.687027 
1.8920550000000000 -6.989283 10.829569 
1.9220400000000000 -6.993502 -57.073695 
1.9520249999999999 -6.994594 -125.702072 
1.9820100000000000 -7.065852 166.516698 
2.0119950000000002 -7.069993 98.800915 
2.0419800000000001 -7.032268 30.327989 
2.0719650000000001 -7.014024 -37.638401 
2.1019500000000000 -7.029347 -105.906554 
2.1319349999999999 -7.031367 -174.925436 
2.1619199999999998 -7.149120 117.031650 
2.1919050000000002 -7.223640 49.794073 
2.2218900000000001 -7.136247 -18.581444 
2.2518750000000001 -7.103491 -86.694365 
2.2818600000000000 -7.113642 -154.363502 
2.3118449999999999 -7.068781 137.363761 
2.3418299999999999 -6.997308 68.945628 
2.3718149999999998 -6.951130 0.478789 
2.4018000000000002 -6.945341 -68.864594 
2.4317850000000001 -7.067018 -137.537773 
2.4617700000000000 -7.160401 154.524567 
2.4917549999999999 -7.193541 86.487461 
2.5217399999999999 -7.223637 18.164408 
2.5517249999999998 -7.296389 -49.505454 
2.5817100000000002 -7.259706 -117.132331 
2.6116950000000001 -7.242758 174.314839 
2.6416800000000000 -7.326253 106.432776 
2.6716650000000000 -7.225675 38.346090 
2.7016499999999999 -7.176205 -30.182399 
2.7316349999999998 -7.198856 -98.499970 
2.7616200000000002 -7.265404 -166.908884 
2.7916050000000001 -7.186674 124.929759 
2.8215900000000000 -7.257671 56.688506 
2.8515750000000000 -7.163822 -11.351003 
2.8815599999999999 -7.219407 -80.984165 
2.9115449999999998 -7.410545 -148.959535 
2.9415300000000002 -7.492981 143.826574 
2.9715150000000001 -7.393050 75.885285 
3.0015000000000001 -7.400530 7.616177 
3.0314850000000000 -7.505785 -60.473070 
3.0614699999999999 -8.233477 -125.469749 
3.0914549999999998 -8.221921 167.279616 
3.1214400000000002 -8.121829 99.474771 
3.1514250000000001 -8.081476 30.365731 
3.1814100000000001 -8.195443 -37.663213 
3.2113950000000000 -8.257896 -105.191829 
3.2413799999999999 -8.195803 -173.250534 
3.2713649999999999 -8.178531 118.387904 
3.3013499999999998 -8.318591 50.410848 
3.3313350000000002 -8.381009 -17.353756 
3.3613200000000001 -8.335191 -84.568754 
3.3913050000000000 -8.323931 -152.346146 
3.4212899999999999 -8.150279 138.840559 
3.4512749999999999 -8.275954 70.386431 
3.4812599999999998 -8.361303 3.293861 
3.5112450000000002 -8.260519 -63.912619 
3.5412300000000001 -8.193313 -132.944955 
3.5712150000000000 -8.263529 159.553112 
3.6012000000000000 -8.280783 91.646942 
3.6311849999999999 -8.209795 23.732693 
3.6611699999999998 -8.182735 -44.238767 
3.6911550000000002 -8.210010 -112.266818 
3.7211400000000001 -8.166257 179.574678 
3.7511250000000000 -8.240716 111.959885 
3.7811100000000000 -8.144545 44.734741 
3.8110949999999999 -7.993517 -23.981207 
3.8410799999999998 -7.982085 -92.253472 
3.8710650000000002 -7.913771 -160.246130 
3.9010500000000001 -7.850901 130.751145 
3.9310350000000001 -7.866254 62.231793 
3.9610200000000000 -7.837316 -5.747052 
3.9910049999999999 -7.789181 -74.668186 
4.0209900000000003 -7.905161 -143.833051 
4.0509750000000002 -8.056838 148.472149 
4.0809600000000001 -8.083882 81.121662 
4.1109450000000001 -7.998660 13.550556 
4.1409300000000000 -7.831381 -54.850404 
4.1709149999999999 -7.788713 -125.785336 
4.2008999999999999 -8.682223 173.123072 
4.2308849999999998 -7.925181 101.387646 
4.2608699999999997 -7.974726 33.562531 
4.2908549999999996 -7.981967 -34.733131 
4.3208399999999996 -7.815902 -102.848291 
4.3508250000000004 -7.824264 -171.659288 
4.3808100000000003 -7.697487 119.820121 
4.4107950000000002 -7.702228 51.239437 
4.4407800000000002 -7.643799 -16.714991 
4.4707650000000001 -7.750486 -88.382310 
4.5007500000000000 -7.983670 -155.490013 
4.5307350000000000 -8.314801 137.817295 
4.5607199999999999 -8.070450 71.373212 
4.5907049999999998 -7.914070 3.376670 
4.6206899999999997 -7.865843 -65.128507 
4.6506749999999997 -7.672101 -132.936021 
4.6806599999999996 -7.619701 157.825440 
4.7106450000000004 -7.569813 89.494232 
4.7406300000000003 -7.480636 20.094090 
4.7706150000000003 -7.658827 -49.208165 
4.8006000000000002 -7.877752 -116.286159 
4.8305850000000001 -7.889631 176.693638 
4.8605700000000001 -7.730973 108.273368 
4.8905550000000000 -7.743141 40.469478 
4.9205399999999999 -7.582339 -26.980644 
4.9505249999999998 -7.514680 -95.808128 
4.9805099999999998 -7.470500 -163.702107 
5.0104949999999997 -7.280846 127.452108 
5.0404799999999996 -7.195269 57.438691 
5.0704650000000004 -7.407700 -11.812804 
5.1004500000000004 -7.437998 -80.042573 
5.1304350000000003 -7.513009 -147.762420 
5.1604200000000002 -7.493733 143.717651 
5.1904050000000002 -7.617696 75.559573 
5.2203900000000001 -7.733888 7.595775 
5.2503750000000000 -7.656639 -59.232098 
5.2803599999999999 -7.532921 -127.347305 
5.3103449999999999 -7.445876 163.313389 
5.3403299999999998 -7.494026 95.049249 
5.3703149999999997 -7.514756 27.197536 
5.4002999999999997 -7.310664 -41.219133 
5.4302849999999996 -7.329793 -110.939134 
5.4602700000000004 -7.435726 -179.222081 
5.4902550000000003 -7.567343 110.891554 
5.5202400000000003 -7.755594 43.541415 
5.5502250000000002 -7.874157 -24.675219 
5.5802100000000001 -7.930590 -91.978538 
5.6101950000000000 -7.929394 -159.715218 
5.6401800000000000 -7.954984 133.314366 
5.6701649999999999 -7.714323 65.684952 
5.7001499999999998 -7.540563 -5.068082 
5.7301349999999998 -7.690441 -72.988574 
5.7601199999999997 -7.589895 -141.088939 
5.7901049999999996 -7.504505 149.276367 
5.8200900000000004 -7.750967 80.775541 
5.8500750000000004 -7.777929 12.999916 
5.8800600000000003 -8.061602 -56.166393 
5.9100450000000002 -8.086439 -122.785731 
5.9400300000000001 -7.945364 169.341466 
5.9700150000000001 -7.906686 100.718951 
6.0000000000000000 -8.027684 32.427605 
