!
! C:\data\Siglent F603FE cal kit tests\open port.S1P
!
! Touchstone 1.1 file saved by VNA.EXE V1.60 (www.ke5fx.com/gpib/readme.htm)
! 26/07/2020 11:36:08 a.m.
!
!    Source: HEWLETT PACKARD,8753C,0,4.12
!  Min freq: 3.000000E+006 Hz
!  Max freq: 6.000000E+009 Hz
!    Points: 201
!    Params: S11
!
!!!!!
# GHZ S DB R 50
0.0030000000000000 -18.415150 104.350724 
0.0329850000000000 -6.037286 -84.986704 
0.0629700000000000 -6.087788 -148.927453 
0.0929550000000000 -6.128583 144.550815 
0.1229400000000000 -6.150321 77.756488 
0.1529250000000000 -6.053407 10.105783 
0.1829100000000000 -5.690844 -56.177798 
0.2128950000000000 -5.815186 -123.754952 
0.2428800000000000 -5.868266 168.874044 
0.2728650000000000 -5.882254 101.410840 
0.3028500000000000 -6.010048 33.147082 
0.3328350000000000 -6.139234 -33.692519 
0.3628200000000000 -6.096814 -100.747084 
0.3928050000000000 -6.084080 -167.919394 
0.4227900000000000 -6.053183 124.235262 
0.4527750000000000 -6.076735 56.494427 
0.4827600000000000 -6.187155 -11.084120 
0.5127450000000000 -6.271064 -78.316649 
0.5427300000000001 -6.256330 -146.162437 
0.5727150000000000 -6.315204 146.501575 
0.6027000000000000 -6.327899 79.437203 
0.6326850000000001 -6.279839 12.286513 
0.6626700000000000 -6.274780 -55.575860 
0.6926550000000000 -6.335455 -123.170110 
0.7226400000000000 -6.351622 169.736745 
0.7526250000000000 -6.360258 102.300237 
0.7826100000000000 -6.420011 34.986016 
0.8125950000000000 -6.325597 -32.373967 
0.8425800000000000 -6.387055 -100.218550 
0.8725650000000000 -6.457003 -167.821386 
0.9025500000000000 -6.554999 124.851574 
0.9325350000000000 -6.605431 58.285654 
0.9625200000000000 -6.659285 -8.695940 
0.9925050000000000 -6.575560 -75.185283 
1.0224899999999999 -6.439748 -142.298829 
1.0524750000000000 -6.374481 149.829298 
1.0824600000000000 -6.325458 81.756947 
1.1124449999999999 -6.368690 13.868941 
1.1424300000000001 -6.409518 -53.526543 
1.1724150000000000 -6.400304 -120.961882 
1.2023999999999999 -6.421577 171.340565 
1.2323850000000001 -6.489309 103.553725 
1.2623700000000000 -6.582154 36.602408 
1.2923549999999999 -6.535560 -30.249095 
1.3223400000000001 -6.541906 -98.011680 
1.3523250000000000 -6.562586 -165.313752 
1.3823099999999999 -6.581355 127.580533 
1.4122950000000001 -6.509381 60.495336 
1.4422800000000000 -6.564236 -6.759752 
1.4722649999999999 -6.496126 -74.376035 
1.5022500000000001 -6.525977 -142.250500 
1.5322350000000000 -6.544160 150.437792 
1.5622199999999999 -6.523550 82.939784 
1.5922050000000001 -6.516267 15.296194 
1.6221900000000000 -6.564765 -52.372044 
1.6521749999999999 -6.610113 -119.528088 
1.6821600000000001 -6.670181 172.754379 
1.7121450000000000 -6.757344 105.721860 
1.7421300000000000 -6.768669 38.540752 
1.7721150000000001 -6.736162 -28.796240 
1.8021000000000000 -6.729413 -95.847835 
1.8320850000000000 -6.716250 -163.245593 
1.8620699999999999 -6.722224 128.952899 
1.8920550000000000 -6.779444 61.700664 
1.9220400000000000 -6.833138 -4.913521 
1.9520249999999999 -6.773793 -72.420168 
1.9820100000000000 -6.768011 -140.201746 
2.0119950000000002 -6.805664 153.066035 
2.0419800000000001 -6.733316 85.584557 
2.0719650000000001 -6.690474 18.267713 
2.1019500000000000 -6.673326 -49.213063 
2.1319349999999999 -6.591324 -117.167144 
2.1619199999999998 -6.655460 174.496804 
2.1919050000000002 -6.821953 107.373125 
2.2218900000000001 -6.773114 40.182279 
2.2518750000000001 -6.734540 -27.314699 
2.2818600000000000 -6.804879 -94.563392 
2.3118449999999999 -6.824988 -161.687587 
2.3418299999999999 -6.748480 130.829809 
2.3718149999999998 -6.702779 63.444251 
2.4018000000000002 -6.624929 -4.742315 
2.4317850000000001 -6.658626 -73.273174 
2.4617700000000000 -6.783920 -141.036062 
2.4917549999999999 -6.851528 151.690517 
2.5217399999999999 -6.888415 84.057339 
2.5517249999999998 -7.010815 16.571791 
2.5817100000000002 -7.113578 -50.034726 
2.6116950000000001 -7.070671 -117.107764 
2.6416800000000000 -7.134975 175.143752 
2.6716650000000000 -7.132001 108.186719 
2.7016499999999999 -7.084874 40.959095 
2.7316349999999998 -7.062149 -26.311155 
2.7616200000000002 -7.092129 -94.123951 
2.7916050000000001 -7.058669 -161.313305 
2.8215900000000000 -7.086075 130.777744 
2.8515750000000000 -7.180434 64.039972 
2.8815599999999999 -7.045623 -3.843523 
2.9115449999999998 -7.164592 -72.296138 
2.9415300000000002 -7.384289 -139.567353 
2.9715150000000001 -7.425429 154.039827 
3.0015000000000001 -7.369243 86.998585 
3.0314850000000000 -7.392082 19.498870 
3.0614699999999999 -8.189014 -45.115852 
3.0914549999999998 -8.319190 -111.943557 
3.1214400000000002 -8.339539 -178.076849 
3.1514250000000001 -8.154256 115.449314 
3.1814100000000001 -8.119003 47.661459 
3.2113950000000000 -8.180850 -19.767406 
3.2413799999999999 -8.183319 -86.292155 
3.2713649999999999 -8.105119 -153.399170 
3.3013499999999998 -8.081146 138.397025 
3.3313350000000002 -8.150985 70.919175 
3.3613200000000001 -8.311422 4.196546 
3.3913050000000000 -8.278554 -63.185474 
3.4212899999999999 -8.140014 -128.785973 
3.4512749999999999 -8.102581 163.019798 
3.4812599999999998 -8.189322 95.169230 
3.5112450000000002 -8.282588 29.031243 
3.5412300000000001 -8.151215 -38.234043 
3.5712150000000000 -8.206151 -105.498104 
3.6012000000000000 -8.189789 -172.707940 
3.6311849999999999 -8.192762 120.627207 
3.6611699999999998 -8.097160 53.617342 
3.6911550000000002 -8.046563 -13.945210 
3.7211400000000001 -8.042868 -81.355852 
3.7511250000000000 -7.968334 -149.134180 
3.7811100000000000 -8.061582 143.460079 
3.8110949999999999 -8.072915 76.317175 
3.8410799999999998 -8.058160 8.874236 
3.8710650000000002 -8.126684 -58.035718 
3.9010500000000001 -8.118444 -124.994206 
3.9310350000000001 -8.098140 167.899043 
3.9610200000000000 -8.109274 101.285507 
3.9910049999999999 -8.062734 34.158775 
4.0209900000000003 -7.897377 -32.941261 
4.0509750000000002 -7.900809 -100.572443 
4.0809600000000001 -7.928966 -168.002300 
4.1109450000000001 -7.925400 124.692534 
4.1409300000000000 -7.937749 58.239367 
4.1709149999999999 -7.422270 -8.671177 
4.2008999999999999 -8.924258 -76.514715 
4.2308849999999998 -7.901748 -141.434458 
4.2608699999999997 -7.754568 149.844681 
4.2908549999999996 -7.712532 81.732286 
4.3208399999999996 -7.703286 14.992665 
4.3508250000000004 -7.652846 -53.720075 
4.3808100000000003 -7.516283 -118.982784 
4.4107950000000002 -7.355181 173.387366 
4.4407800000000002 -7.317441 106.102671 
4.4707650000000001 -6.961927 36.759220 
4.5007500000000000 -6.971383 -31.509093 
4.5307350000000000 -7.047245 -99.449382 
4.5607199999999999 -7.128839 -166.845469 
4.5907049999999998 -7.086515 125.792068 
4.6206899999999997 -6.964085 57.161950 
4.6506749999999997 -7.038759 -10.210242 
4.6806599999999996 -7.144685 -78.617479 
4.7106450000000004 -7.127412 -145.724906 
4.7406300000000003 -7.149655 146.993660 
4.7706150000000003 -7.082611 80.134866 
4.8006000000000002 -7.023232 10.930451 
4.8305850000000001 -7.196627 -56.920740 
4.8605700000000001 -7.252359 -123.074215 
4.8905550000000000 -7.018965 169.130921 
4.9205399999999999 -7.059284 100.691562 
4.9505249999999998 -7.005205 32.785112 
4.9805099999999998 -7.045111 -35.397706 
5.0104949999999997 -7.230272 -102.277241 
5.0404799999999996 -7.045204 -171.033203 
5.0704650000000004 -7.184250 119.609002 
5.1004500000000004 -7.484271 51.788147 
5.1304350000000003 -7.841347 -13.919620 
5.1604200000000002 -7.764817 -79.434971 
5.1904050000000002 -7.653409 -146.518868 
5.2203900000000001 -7.673398 147.071359 
5.2503750000000000 -7.523341 79.723598 
5.2803599999999999 -7.424520 12.917596 
5.3103449999999999 -7.114339 -55.437542 
5.3403299999999998 -7.017072 -123.956041 
5.3703149999999997 -7.057987 165.892075 
5.4002999999999997 -7.464597 98.588551 
5.4302849999999996 -7.281835 30.793160 
5.4602700000000004 -7.444306 -37.801448 
5.4902550000000003 -7.741163 -105.955646 
5.5202400000000003 -8.108108 -172.179956 
5.5502250000000002 -8.205058 121.951758 
5.5802100000000001 -7.938290 57.511086 
5.6101950000000000 -7.818888 -12.722664 
5.6401800000000000 -7.984152 -80.440018 
5.6701649999999999 -8.053328 -146.160404 
5.7001499999999998 -7.612648 146.032652 
5.7301349999999998 -7.627350 77.263990 
5.7601199999999997 -7.678850 8.637710 
5.7901049999999996 -7.897969 -58.810675 
5.8200900000000004 -7.896161 -126.045719 
5.8500750000000004 -7.955198 164.228668 
5.8800600000000003 -8.462716 95.665419 
5.9100450000000002 -9.002326 30.466660 
5.9400300000000001 -9.041418 -33.826718 
5.9700150000000001 -8.966283 -98.005487 
6.0000000000000000 -8.597828 -164.755196 
