!
! C:\data\Siglent F603FE cal kit tests\avg 16 100hz ifbw\siglent load.S1P
!
! Touchstone 1.1 file saved by VNA.EXE V1.60 (www.ke5fx.com/gpib/readme.htm)
! 26/07/2020 12:29:16 p.m.
!
!    Source: HEWLETT PACKARD,8753C,0,4.12
!  Min freq: 3.000000E+006 Hz
!  Max freq: 6.000000E+009 Hz
!    Points: 201
!    Params: S11
!
!!!!!
# GHZ S DB R 50
0.0030000000000000 -37.149395 29.766351 
0.0329850000000000 -37.360495 107.226054 
0.0629700000000000 -38.873634 8.386000 
0.0929550000000000 -39.290513 -87.085666 
0.1229400000000000 -39.841332 173.599376 
0.1529250000000000 -40.697377 70.240229 
0.1829100000000000 -41.696448 -36.464358 
0.2128950000000000 -42.410844 -145.326741 
0.2428800000000000 -43.175722 107.175836 
0.2728650000000000 -44.253924 2.305669 
0.3028500000000000 -46.447567 -100.151611 
0.3328350000000000 -50.792487 157.600558 
0.3628200000000000 -63.635433 33.213598 
0.3928050000000000 -54.863668 162.133608 
0.4227900000000000 -48.480496 58.544902 
0.4527750000000000 -45.888315 -41.068855 
0.4827600000000000 -44.970195 -142.609122 
0.5127450000000000 -45.162650 112.185196 
0.5427300000000001 -45.872930 0.179963 
0.5727150000000000 -46.025872 -116.140814 
0.6027000000000000 -45.156722 131.601495 
0.6326850000000001 -43.690693 28.689331 
0.6626700000000000 -42.972469 -78.976006 
0.6926550000000000 -44.359760 -172.830201 
0.7226400000000000 -46.730909 99.495467 
0.7526250000000000 -51.510132 24.810864 
0.7826100000000000 -54.719507 0.611761 
0.8125950000000000 -48.966736 -49.002048 
0.8425800000000000 -45.435814 -130.713777 
0.8725650000000000 -43.871446 141.185940 
0.9025500000000000 -43.869252 49.376033 
0.9325350000000000 -45.248329 -47.247093 
0.9625200000000000 -48.013893 -156.513494 
0.9925050000000000 -49.555187 68.409705 
1.0224899999999999 -45.957759 -60.792066 
1.0524750000000000 -42.349263 -165.027987 
1.0824600000000000 -40.132289 98.752699 
1.1124449999999999 -39.232030 5.359716 
1.1424300000000001 -40.151556 -79.159519 
1.1724150000000000 -39.586174 -153.453590 
1.2023999999999999 -39.215628 122.148794 
1.2323850000000001 -39.893533 37.919244 
1.2623700000000000 -41.151610 -44.377964 
1.2923549999999999 -42.992202 -124.442399 
1.3223400000000001 -45.312081 159.016903 
1.3523250000000000 -47.999246 86.725015 
1.3823099999999999 -50.798985 19.676602 
1.4122950000000001 -53.449701 -43.553751 
1.4422800000000000 -55.665932 -100.327845 
1.4722649999999999 -56.817855 -152.493647 
1.5022500000000001 -56.663601 155.774902 
1.5322350000000000 -55.272113 95.401818 
1.5622199999999999 -53.528062 25.534091 
1.5922050000000001 -51.805010 -48.835333 
1.6221900000000000 -50.497069 -130.158727 
1.6521749999999999 -49.476365 146.429494 
1.6821600000000001 -48.657869 59.156215 
1.7121450000000000 -48.136289 -25.810571 
1.7421300000000000 -47.342912 -110.285354 
1.7721150000000001 -46.297023 164.941046 
1.8021000000000000 -45.463877 82.222135 
1.8320850000000000 -44.713576 0.112818 
1.8620699999999999 -44.138845 -80.467880 
1.8920550000000000 -43.679314 -159.850575 
1.9220400000000000 -43.316510 121.785411 
1.9520249999999999 -43.031722 44.235843 
1.9820100000000000 -42.884670 -32.908441 
2.0119950000000002 -42.866881 -108.689733 
2.0419800000000001 -42.997289 175.448611 
2.0719650000000001 -43.206982 100.177054 
2.1019500000000000 -43.570144 25.071164 
2.1319349999999999 -43.893009 -49.286443 
2.1619199999999998 -44.502629 -123.518282 
2.1919050000000002 -45.124491 162.299923 
2.2218900000000001 -45.972109 88.241910 
2.2518750000000001 -46.967934 14.162611 
2.2818600000000000 -48.005145 -58.967643 
2.3118449999999999 -49.282249 -132.739730 
2.3418299999999999 -50.516155 152.577963 
2.3718149999999998 -52.024007 80.113174 
2.4018000000000002 -53.812058 3.747893 
2.4317850000000001 -55.856861 -72.459224 
2.4617700000000000 -57.623089 -154.258587 
2.4917549999999999 -59.576441 123.655335 
2.5217399999999999 -61.674772 31.751432 
2.5517249999999998 -61.569811 -59.693056 
2.5817100000000002 -60.285346 -148.763581 
2.6116950000000001 -58.733370 128.704984 
2.6416800000000000 -56.915956 51.905988 
2.6716650000000000 -55.787677 -23.563873 
2.7016499999999999 -54.389737 -95.822637 
2.7316349999999998 -53.284568 -169.057323 
2.7616200000000002 -52.375360 120.262558 
2.7916050000000001 -51.500052 48.641884 
2.8215900000000000 -50.659489 -21.857666 
2.8515750000000000 -49.788668 -92.110564 
2.8815599999999999 -49.036632 -163.926617 
2.9115449999999998 -48.587741 125.924799 
2.9415300000000002 -48.012003 54.650061 
2.9715150000000001 -47.345128 -16.420973 
3.0015000000000001 -46.803269 -87.852894 
3.0314850000000000 -46.274349 -158.774251 
3.0614699999999999 -46.663343 132.669479 
3.0914549999999998 -46.204894 60.548293 
3.1214400000000002 -45.896147 -11.158343 
3.1514250000000001 -45.514775 -84.092176 
3.1814100000000001 -45.158224 -156.570774 
3.2113950000000000 -44.864102 130.617641 
3.2413799999999999 -44.708928 57.774744 
3.2713649999999999 -44.464800 -15.946653 
3.3013499999999998 -44.319113 -88.598330 
3.3313350000000002 -44.120733 -161.678905 
3.3613200000000001 -44.037299 124.301574 
3.3913050000000000 -44.197929 51.242650 
3.4212899999999999 -44.145154 -22.959234 
3.4512749999999999 -44.191781 -95.146335 
3.4812599999999998 -44.321659 -168.702407 
3.5112450000000002 -44.612265 118.462503 
3.5412300000000001 -44.818844 45.630856 
3.5712150000000000 -45.166887 -26.223960 
3.6012000000000000 -45.587736 -98.725610 
3.6311849999999999 -46.213671 -168.517494 
3.6611699999999998 -46.782552 118.954662 
3.6911550000000002 -47.619661 49.104808 
3.7211400000000001 -48.371333 -18.849443 
3.7511250000000000 -49.650151 -85.765976 
3.7811100000000000 -50.451967 -150.144487 
3.8110949999999999 -51.612341 147.170403 
3.8410799999999998 -52.384192 91.341603 
3.8710650000000002 -53.103564 36.625980 
3.9010500000000001 -52.419618 -18.200316 
3.9310350000000001 -50.977172 -76.096248 
3.9610200000000000 -49.309487 -136.848154 
3.9910049999999999 -47.800600 159.322678 
4.0209900000000003 -46.302397 91.145876 
4.0509750000000002 -45.157487 23.322014 
4.0809600000000001 -44.048243 -46.014538 
4.1109450000000001 -42.954511 -114.554204 
4.1409300000000000 -41.971266 174.589247 
4.1709149999999999 -41.292361 104.290763 
4.2008999999999999 -40.942542 34.153754 
4.2308849999999998 -40.070168 -37.531477 
4.2608699999999997 -39.403748 -107.820272 
4.2908549999999996 -38.981307 -178.804486 
4.3208399999999996 -38.459888 108.984877 
4.3508250000000004 -38.399154 38.137446 
4.3808100000000003 -38.286816 -34.766370 
4.4107950000000002 -37.876531 -105.254751 
4.4407800000000002 -37.808797 -177.073351 
4.4707650000000001 -37.908262 109.790477 
4.5007500000000000 -38.069654 38.776995 
4.5307350000000000 -38.409111 -32.357431 
4.5607199999999999 -38.326024 -103.580482 
4.5907049999999998 -38.385936 -175.978717 
4.6206899999999997 -38.822080 113.388411 
4.6506749999999997 -39.189608 41.337166 
4.6806599999999996 -39.746343 -32.248961 
4.7106450000000004 -40.266900 -103.727388 
4.7406300000000003 -40.895081 -176.272151 
4.7706150000000003 -41.949426 111.636312 
4.8006000000000002 -42.804102 42.387138 
4.8305850000000001 -43.756754 -31.553710 
4.8605700000000001 -45.104423 -102.636011 
4.8905550000000000 -46.848916 -177.441518 
4.9205399999999999 -48.369423 106.930051 
4.9505249999999998 -50.973737 31.603548 
4.9805099999999998 -52.813361 -40.243720 
5.0104949999999997 -56.943353 -118.894566 
5.0404799999999996 -60.952086 135.745075 
5.0704650000000004 -58.603119 -7.429778 
5.1004500000000004 -56.354402 -100.420281 
5.1304350000000003 -56.113363 -178.847253 
5.1604200000000002 -52.772302 105.133390 
5.1904050000000002 -50.539357 33.851331 
5.2203900000000001 -49.041674 -47.800872 
5.2503750000000000 -48.303305 -115.075933 
5.2803599999999999 -47.335943 175.114655 
5.3103449999999999 -46.481240 98.594156 
5.3403299999999998 -45.712105 26.021432 
5.3703149999999997 -45.206606 -45.052767 
5.4002999999999997 -45.069653 -115.177409 
5.4302849999999996 -44.594989 171.520369 
5.4602700000000004 -44.834783 93.274227 
5.4902550000000003 -44.734505 22.371930 
5.5202400000000003 -44.469625 -46.241153 
5.5502250000000002 -45.044294 -119.889643 
5.5802100000000001 -44.778312 169.156333 
5.6101950000000000 -44.724403 92.631949 
5.6401800000000000 -45.003081 22.200767 
5.6701649999999999 -44.481387 -46.942142 
5.7001499999999998 -44.596038 -123.795540 
5.7301349999999998 -44.559756 163.830040 
5.7601199999999997 -44.242570 90.935104 
5.7901049999999996 -44.230359 19.911498 
5.8200900000000004 -44.512906 -52.185648 
5.8500750000000004 -44.543781 -126.737595 
5.8800600000000003 -44.497946 154.883931 
5.9100450000000002 -44.408983 85.522448 
5.9400300000000001 -43.766458 15.740718 
5.9700150000000001 -43.898410 -53.576475 
6.0000000000000000 -44.404274 -124.343694 
