!
! C:\data\Siglent F603FE cal kit tests\avg 16 100hz ifbw\siglent short.S1P
!
! Touchstone 1.1 file saved by VNA.EXE V1.60 (www.ke5fx.com/gpib/readme.htm)
! 26/07/2020 12:28:16 p.m.
!
!    Source: HEWLETT PACKARD,8753C,0,4.12
!  Min freq: 3.000000E+006 Hz
!  Max freq: 6.000000E+009 Hz
!    Points: 201
!    Params: S11
!
!!!!!
# GHZ S DB R 50
0.0030000000000000 -22.778737 -56.549916 
0.0329850000000000 -5.720912 96.680823 
0.0629700000000000 -6.026308 30.345604 
0.0929550000000000 -6.051230 -36.969560 
0.1229400000000000 -6.148436 -105.638282 
0.1529250000000000 -6.330050 -173.375271 
0.1829100000000000 -6.150703 119.992996 
0.2128950000000000 -6.147770 51.812373 
0.2428800000000000 -6.204073 -15.832311 
0.2728650000000000 -6.244393 -83.575993 
0.3028500000000000 -6.201397 -151.567926 
0.3328350000000000 -6.220902 140.174269 
0.3628200000000000 -6.309707 72.205885 
0.3928050000000000 -6.357596 4.005846 
0.4227900000000000 -6.415411 -63.056061 
0.4527750000000000 -6.372697 -130.216361 
0.4827600000000000 -6.233200 161.537854 
0.5127450000000000 -6.100353 92.679726 
0.5427300000000001 -6.231360 23.535211 
0.5727150000000000 -6.359015 -45.154258 
0.6027000000000000 -6.511058 -112.796052 
0.6326850000000001 -6.624246 -179.906282 
0.6626700000000000 -6.626837 112.596645 
0.6926550000000000 -6.502994 44.742517 
0.7226400000000000 -6.510710 -23.283615 
0.7526250000000000 -6.499373 -91.701903 
0.7826100000000000 -6.528207 -160.136309 
0.8125950000000000 -6.666354 132.032714 
0.8425800000000000 -6.703727 64.172633 
0.8725650000000000 -6.731391 -3.404459 
0.9025500000000000 -6.741964 -70.535193 
0.9325350000000000 -6.682842 -138.320386 
0.9625200000000000 -6.514793 153.457299 
0.9925050000000000 -6.512593 84.597997 
1.0224899999999999 -6.613081 15.779029 
1.0524750000000000 -6.698680 -52.471056 
1.0824600000000000 -6.821794 -120.169892 
1.1124449999999999 -6.857217 171.966285 
1.1424300000000001 -6.927418 104.077198 
1.1724150000000000 -7.019170 36.704340 
1.2023999999999999 -7.034920 -30.500023 
1.2323850000000001 -6.927517 -98.095517 
1.2623700000000000 -6.843689 -166.361452 
1.2923549999999999 -6.887458 125.623250 
1.3223400000000001 -6.856745 57.633206 
1.3523250000000000 -6.838341 -10.248142 
1.3823099999999999 -6.802092 -78.325742 
1.4122950000000001 -6.853429 -146.620579 
1.4422800000000000 -6.840370 144.887868 
1.4722649999999999 -6.881102 77.227654 
1.5022500000000001 -6.856232 9.146464 
1.5322350000000000 -6.901225 -59.539362 
1.5622199999999999 -6.992539 -127.295428 
1.5922050000000001 -7.064235 165.091446 
1.6221900000000000 -7.054512 97.527615 
1.6521749999999999 -7.048430 29.794439 
1.6821600000000001 -6.965950 -37.795978 
1.7121450000000000 -6.905665 -105.895133 
1.7421300000000000 -6.850136 -173.762419 
1.7721150000000001 -6.808896 118.115053 
1.8021000000000000 -6.818203 49.373755 
1.8320850000000000 -6.844352 -18.681165 
1.8620699999999999 -6.863548 -86.599258 
1.8920550000000000 -6.871051 -154.986598 
1.9220400000000000 -6.947007 136.628876 
1.9520249999999999 -7.029587 69.145367 
1.9820100000000000 -7.032611 1.176874 
2.0119950000000002 -7.055508 -67.034967 
2.0419800000000001 -7.107841 -134.674909 
2.0719650000000001 -7.143091 157.331009 
2.1019500000000000 -7.189039 89.621942 
2.1319349999999999 -7.200800 22.344831 
2.1619199999999998 -7.121260 -45.296125 
2.1919050000000002 -7.047048 -113.676370 
2.2218900000000001 -7.098027 178.327126 
2.2518750000000001 -7.108251 110.502233 
2.2818600000000000 -7.082079 42.224252 
2.3118449999999999 -7.113437 -25.556695 
2.3418299999999999 -7.142084 -93.439946 
2.3718149999999998 -7.147242 -161.610375 
2.4018000000000002 -7.177462 130.931290 
2.4317850000000001 -7.107647 63.528886 
2.4617700000000000 -7.021585 -4.956567 
2.4917549999999999 -7.015072 -73.241782 
2.5217399999999999 -7.035851 -141.387770 
2.5517249999999998 -7.007739 150.187322 
2.5817100000000002 -7.097194 81.909646 
2.6116950000000001 -7.171629 14.225549 
2.6416800000000000 -7.104607 -53.655853 
2.6716650000000000 -7.166234 -121.796233 
2.7016499999999999 -7.229348 170.379102 
2.7316349999999998 -7.217550 102.665943 
2.7616200000000002 -7.129311 34.886889 
2.7916050000000001 -7.206908 -33.461588 
2.8215900000000000 -7.150990 -101.577869 
2.8515750000000000 -7.223711 -170.436318 
2.8815599999999999 -7.331907 122.837851 
2.9115449999999998 -7.189685 54.990444 
2.9415300000000002 -7.139893 -13.822058 
2.9715150000000001 -7.278050 -81.889326 
3.0015000000000001 -7.341700 -149.515258 
3.0314850000000000 -7.297576 142.957131 
3.0614699999999999 -7.966081 77.565146 
3.0914549999999998 -8.034213 9.137559 
3.1214400000000002 -8.168189 -58.965593 
3.1514250000000001 -8.272773 -125.296103 
3.1814100000000001 -8.189200 167.551287 
3.2113950000000000 -8.072841 99.167425 
3.2413799999999999 -8.129258 31.101376 
3.2713649999999999 -8.213176 -36.357645 
3.3013499999999998 -8.112446 -103.718980 
3.3313350000000002 -8.028131 -172.145331 
3.3613200000000001 -8.067674 119.363303 
3.3913050000000000 -8.075163 51.221182 
3.4212899999999999 -8.282309 -16.611030 
3.4512749999999999 -8.208022 -83.476500 
3.4812599999999998 -8.131849 -151.747565 
3.5112450000000002 -8.204766 139.551857 
3.5412300000000001 -8.303601 72.514384 
3.5712150000000000 -8.293182 4.743642 
3.6012000000000000 -8.271801 -62.897871 
3.6311849999999999 -8.320317 -130.650471 
3.6611699999999998 -8.406081 161.762979 
3.6911550000000002 -8.385572 94.458218 
3.7211400000000001 -8.365952 27.148949 
3.7511250000000000 -8.256339 -39.714639 
3.7811100000000000 -8.108526 -108.631847 
3.8110949999999999 -8.167909 -177.097121 
3.8410799999999998 -8.192833 115.014450 
3.8710650000000002 -8.207828 46.595428 
3.9010500000000001 -8.320747 -21.065974 
3.9310350000000001 -8.319096 -88.623818 
3.9610200000000000 -8.368137 -156.399483 
3.9910049999999999 -8.427246 136.319699 
4.0209900000000003 -8.422455 69.925890 
4.0509750000000002 -8.312143 2.249670 
4.0809600000000001 -8.202424 -65.411686 
4.1109450000000001 -8.115473 -133.098713 
4.1409300000000000 -8.130374 158.016860 
4.1709149999999999 -8.172957 91.599725 
4.2008999999999999 -8.134815 22.749914 
4.2308849999999998 -8.157238 -44.340622 
4.2608699999999997 -7.893508 -111.761131 
4.2908549999999996 -7.737113 179.867910 
4.3208399999999996 -7.715326 110.851050 
4.3508250000000004 -7.680609 41.946626 
4.3808100000000003 -7.880543 -24.749420 
4.4107950000000002 -7.770526 -92.259152 
4.4407800000000002 -7.665133 -160.395634 
4.4707650000000001 -7.677638 130.932716 
4.5007500000000000 -7.608114 63.590789 
4.5307350000000000 -7.562331 -3.196510 
4.5607199999999999 -7.315680 -72.109342 
4.5907049999999998 -7.246359 -141.231389 
4.6206899999999997 -7.201744 150.112993 
4.6506749999999997 -7.231797 81.260106 
4.6806599999999996 -7.308938 12.112604 
4.7106450000000004 -7.332733 -55.829367 
4.7406300000000003 -7.506683 -124.632688 
4.7706150000000003 -7.742131 168.661643 
4.8006000000000002 -7.529305 101.811732 
4.8305850000000001 -7.448295 33.429421 
4.8605700000000001 -7.590634 -34.777833 
4.8905550000000000 -7.475420 -101.564551 
4.9205399999999999 -7.296329 -170.774060 
4.9505249999999998 -7.267905 121.853473 
4.9805099999999998 -7.129878 52.765736 
5.0104949999999997 -7.274447 -16.749546 
5.0404799999999996 -7.274720 -85.081007 
5.0704650000000004 -7.361811 -153.700496 
5.1004500000000004 -7.456325 137.188473 
5.1304350000000003 -7.737223 69.410537 
5.1604200000000002 -7.945292 2.460174 
5.1904050000000002 -7.979884 -64.189437 
5.2203900000000001 -8.084699 -130.104836 
5.2503750000000000 -7.834125 163.137728 
5.2803599999999999 -7.676014 94.848503 
5.3103449999999999 -7.480643 27.082187 
5.3403299999999998 -7.346555 -40.891597 
5.3703149999999997 -7.021320 -110.699570 
5.4002999999999997 -7.188239 178.623796 
5.4302849999999996 -7.246269 110.565947 
5.4602700000000004 -7.328388 41.181143 
5.4902550000000003 -7.577311 -27.956209 
5.5202400000000003 -7.841272 -95.344554 
5.5502250000000002 -8.133034 -162.734307 
5.5802100000000001 -8.231447 132.192075 
5.6101950000000000 -7.865927 63.815000 
5.6401800000000000 -7.855074 -4.347356 
5.6701649999999999 -7.863690 -72.490054 
5.7001499999999998 -7.703738 -140.305309 
5.7301349999999998 -7.633711 151.393240 
5.7601199999999997 -7.504361 81.916838 
5.7901049999999996 -7.638067 12.497274 
5.8200900000000004 -7.781995 -54.288794 
5.8500750000000004 -7.586386 -123.946757 
5.8800600000000003 -7.898628 167.008793 
5.9100450000000002 -8.096613 98.785837 
5.9400300000000001 -8.209658 31.102264 
5.9700150000000001 -8.451060 -35.970063 
6.0000000000000000 -8.474801 -102.140115 
