!
! C:\data\Siglent F603FE cal kit tests\avg 16 100hz ifbw\siglent open.S1P
!
! Touchstone 1.1 file saved by VNA.EXE V1.60 (www.ke5fx.com/gpib/readme.htm)
! 26/07/2020 12:27:06 p.m.
!
!    Source: HEWLETT PACKARD,8753C,0,4.12
!  Min freq: 3.000000E+006 Hz
!  Max freq: 6.000000E+009 Hz
!    Points: 201
!    Params: S11
!
!!!!!
# GHZ S DB R 50
0.0030000000000000 -18.226086 101.233750 
0.0329850000000000 -6.029062 -85.795669 
0.0629700000000000 -6.089586 -150.313705 
0.0929550000000000 -6.144186 142.665421 
0.1229400000000000 -6.162491 75.385257 
0.1529250000000000 -6.073698 7.136368 
0.1829100000000000 -5.901632 -60.759777 
0.2128950000000000 -6.001396 -128.676974 
0.2428800000000000 -6.013602 162.943642 
0.2728650000000000 -6.064139 94.732557 
0.3028500000000000 -6.214127 26.866498 
0.3328350000000000 -6.305921 -40.782386 
0.3628200000000000 -6.271746 -108.568125 
0.3928050000000000 -6.259522 -176.044612 
0.4227900000000000 -6.244269 115.399942 
0.4527750000000000 -6.271055 47.084924 
0.4827600000000000 -6.381256 -20.554770 
0.5127450000000000 -6.450432 -88.631131 
0.5427300000000001 -6.447984 -156.659836 
0.5727150000000000 -6.508760 135.975724 
0.6027000000000000 -6.520923 68.377103 
0.6326850000000001 -6.460852 0.564711 
0.6626700000000000 -6.444919 -67.720237 
0.6926550000000000 -6.488120 -135.827255 
0.7226400000000000 -6.487171 156.193562 
0.7526250000000000 -6.509327 88.329453 
0.7826100000000000 -6.570484 20.590273 
0.8125950000000000 -6.499840 -47.691141 
0.8425800000000000 -6.564320 -115.844935 
0.8725650000000000 -6.622776 176.314951 
0.9025500000000000 -6.675854 108.414676 
0.9325350000000000 -6.733413 41.022723 
0.9625200000000000 -6.801154 -26.227989 
0.9925050000000000 -6.713396 -93.545385 
1.0224899999999999 -6.613573 -161.247742 
1.0524750000000000 -6.569186 130.714428 
1.0824600000000000 -6.511632 62.121673 
1.1124449999999999 -6.526255 -6.131430 
1.1424300000000001 -6.538463 -73.942688 
1.1724150000000000 -6.502987 -142.145606 
1.2023999999999999 -6.512655 149.336778 
1.2323850000000001 -6.599374 81.141159 
1.2623700000000000 -6.654338 13.505242 
1.2923549999999999 -6.618736 -54.410714 
1.3223400000000001 -6.658859 -122.388778 
1.3523250000000000 -6.695370 169.677069 
1.3823099999999999 -6.721078 101.858593 
1.4122950000000001 -6.658725 34.237055 
1.4422800000000000 -6.675697 -33.481932 
1.4722649999999999 -6.631170 -101.920637 
1.5022500000000001 -6.688302 -170.005912 
1.5322350000000000 -6.678939 122.069168 
1.5622199999999999 -6.650770 53.603140 
1.5922050000000001 -6.660617 -14.527909 
1.6221900000000000 -6.730887 -82.695638 
1.6521749999999999 -6.763771 -150.783145 
1.6821600000000001 -6.833699 141.110482 
1.7121450000000000 -6.881525 73.768443 
1.7421300000000000 -6.895142 5.908396 
1.7721150000000001 -6.890066 -61.989697 
1.8021000000000000 -6.863127 -129.681980 
1.8320850000000000 -6.863343 162.096348 
1.8620699999999999 -6.910932 93.902734 
1.8920550000000000 -6.980469 26.303046 
1.9220400000000000 -6.996856 -41.212065 
1.9520249999999999 -6.971604 -109.599758 
1.9820100000000000 -7.022053 -177.249889 
2.0119950000000002 -7.038283 115.357865 
2.0419800000000001 -6.991466 47.113111 
2.0719650000000001 -6.956094 -20.660433 
2.1019500000000000 -6.960198 -88.638019 
2.1319349999999999 -6.942329 -157.532084 
2.1619199999999998 -7.042328 134.404761 
2.1919050000000002 -7.148142 67.286866 
2.2218900000000001 -7.070079 -0.769528 
2.2518750000000001 -7.044805 -68.716996 
2.2818600000000000 -7.067906 -136.136874 
2.3118449999999999 -7.035715 155.825391 
2.3418299999999999 -6.953312 87.752890 
2.3718149999999998 -6.916945 19.574665 
2.4018000000000002 -6.884086 -49.505742 
2.4317850000000001 -6.976276 -118.219453 
2.4617700000000000 -7.090425 173.962737 
2.4917549999999999 -7.149552 106.111415 
2.5217399999999999 -7.184805 38.001589 
2.5517249999999998 -7.279366 -29.558361 
2.5817100000000002 -7.285080 -96.789357 
2.6116950000000001 -7.249417 -165.000336 
2.6416800000000000 -7.339558 127.147912 
2.6716650000000000 -7.253925 59.545689 
2.7016499999999999 -7.200929 -8.637732 
2.7316349999999998 -7.199242 -76.711776 
2.7616200000000002 -7.275245 -145.039587 
2.7916050000000001 -7.215027 147.166889 
2.8215900000000000 -7.281020 79.051247 
2.8515750000000000 -7.233974 11.497630 
2.8815599999999999 -7.221337 -57.882676 
2.9115449999999998 -7.406856 -126.021948 
2.9415300000000002 -7.549442 166.915524 
2.9715150000000001 -7.478427 99.525900 
3.0015000000000001 -7.462682 31.560298 
3.0314850000000000 -7.552371 -36.440650 
3.0614699999999999 -8.320375 -101.125377 
3.0914549999999998 -8.357065 -168.173094 
3.1214400000000002 -8.261802 124.764148 
3.1514250000000001 -8.164505 56.180201 
3.1814100000000001 -8.231247 -11.910146 
3.2113950000000000 -8.326104 -79.373347 
3.2413799999999999 -8.275294 -146.931094 
3.2713649999999999 -8.222567 145.105061 
3.3013499999999998 -8.332561 77.155881 
3.3313350000000002 -8.428280 9.422873 
3.3613200000000001 -8.429300 -57.571990 
3.3913050000000000 -8.410505 -125.005600 
3.4212899999999999 -8.225804 167.209116 
3.4512749999999999 -8.289875 98.573878 
3.4812599999999998 -8.407794 31.400322 
3.5112450000000002 -8.357756 -35.221108 
3.5412300000000001 -8.239409 -103.822717 
3.5712150000000000 -8.285401 -171.352532 
3.6012000000000000 -8.299693 121.005856 
3.6311849999999999 -8.247796 53.431535 
3.6611699999999998 -8.195178 -14.283549 
3.6911550000000002 -8.188247 -82.088884 
3.7211400000000001 -8.161814 -150.099157 
3.7511250000000000 -8.207220 141.986156 
3.7811100000000000 -8.180219 75.088223 
3.8110949999999999 -8.063352 6.994409 
3.8410799999999998 -8.052217 -61.199465 
3.8710650000000002 -8.017160 -128.698299 
3.9010500000000001 -7.932240 162.972244 
3.9310350000000001 -7.938132 94.605741 
3.9610200000000000 -7.906325 27.079986 
3.9910049999999999 -7.820939 -41.153137 
4.0209900000000003 -7.848525 -110.339326 
4.0509750000000002 -8.012823 -178.271090 
4.0809600000000001 -8.090314 114.647428 
4.1109450000000001 -8.039436 47.204700 
4.1409300000000000 -7.870936 -20.375734 
4.1709149999999999 -7.628226 -90.563892 
4.2008999999999999 -8.897581 -153.310800 
4.2308849999999998 -7.928647 136.863894 
4.2608699999999997 -7.960323 68.884641 
4.2908549999999996 -7.985051 0.570003 
4.3208399999999996 -7.855749 -67.030564 
4.3508250000000004 -7.856684 -135.455178 
4.3808100000000003 -7.643992 157.015631 
4.4107950000000002 -7.586412 88.395840 
4.4407800000000002 -7.511869 20.634774 
4.4707650000000001 -7.468584 -50.963059 
4.5007500000000000 -7.721616 -118.701775 
4.5307350000000000 -8.042258 174.053144 
4.5607199999999999 -7.915933 107.849648 
4.5907049999999998 -7.810423 40.088099 
4.6206899999999997 -7.758783 -28.105024 
4.6506749999999997 -7.624791 -95.514710 
4.6806599999999996 -7.576695 -164.444758 
4.7106450000000004 -7.492052 127.559249 
4.7406300000000003 -7.404758 58.872367 
4.7706150000000003 -7.433498 -10.322145 
4.8006000000000002 -7.662579 -78.318046 
4.8305850000000001 -7.774742 -145.422045 
4.8605700000000001 -7.597002 146.791386 
4.8905550000000000 -7.602356 78.926218 
4.9205399999999999 -7.557578 11.526857 
4.9505249999999998 -7.462495 -57.243195 
4.9805099999999998 -7.475109 -125.141398 
5.0104949999999997 -7.383986 166.963067 
5.0404799999999996 -7.246939 97.150992 
5.0704650000000004 -7.437043 27.788454 
5.1004500000000004 -7.542422 -40.098732 
5.1304350000000003 -7.676904 -107.085925 
5.1604200000000002 -7.590259 -174.892246 
5.1904050000000002 -7.643963 117.209845 
5.2203900000000001 -7.726242 49.331534 
5.2503750000000000 -7.646886 -17.869507 
5.2803599999999999 -7.544252 -85.550791 
5.3103449999999999 -7.400915 -154.833901 
5.3403299999999998 -7.465748 136.587450 
5.3703149999999997 -7.609300 68.222377 
5.4002999999999997 -7.567017 1.082310 
5.4302849999999996 -7.507867 -68.313811 
5.4602700000000004 -7.674523 -136.383689 
5.4902550000000003 -7.782686 154.473306 
5.5202400000000003 -8.017629 87.466378 
5.5502250000000002 -8.072501 20.065408 
5.5802100000000001 -7.998764 -46.717466 
5.6101950000000000 -8.058743 -115.153941 
5.6401800000000000 -8.138691 177.910951 
5.6701649999999999 -7.937903 111.434985 
5.7001499999999998 -7.607257 41.001311 
5.7301349999999998 -7.756658 -27.397818 
5.7601199999999997 -7.735172 -95.042077 
5.7901049999999996 -7.677362 -163.818597 
5.8200900000000004 -7.808546 127.500618 
5.8500750000000004 -7.934611 59.628713 
5.8800600000000003 -8.219601 -9.224606 
5.9100450000000002 -8.335692 -75.124460 
5.9400300000000001 -8.215873 -142.004380 
5.9700150000000001 -8.081315 150.512194 
6.0000000000000000 -8.080436 81.931959 
