# Hz S RI R 50.000000
! FREQ                re:S1  1             im:S1  1  
1.000000e+05 1.012368e+00  -2.398176e-03
1.009987e+07 1.000130e+00  -6.261310e-03
2.009973e+07 1.001152e+00  -1.868586e-02
3.009960e+07 1.000421e+00  -1.955958e-02
4.009947e+07 1.001026e+00  -2.735487e-02
5.009933e+07 1.000896e+00  -3.314741e-02
6.009920e+07 1.000878e+00  -3.655027e-02
7.009907e+07 9.987998e-01  -3.708211e-02
8.009893e+07 1.000463e+00  -4.696270e-02
9.009880e+07 9.948338e-01  -4.101811e-02
1.000987e+08 9.983987e-01  -5.342547e-02
1.100985e+08 9.961869e-01  -5.592757e-02
1.200984e+08 9.987344e-01  -6.624167e-02
1.300983e+08 9.988713e-01  -7.240433e-02
1.400981e+08 9.951365e-01  -7.257029e-02
1.500980e+08 9.937065e-01  -7.662991e-02
1.600979e+08 9.962473e-01  -8.571384e-02
1.700977e+08 9.967418e-01  -9.211341e-02
1.800976e+08 9.984047e-01  -9.886604e-02
1.900975e+08 9.960019e-01  -1.023477e-01
2.000973e+08 9.985081e-01  -1.097724e-01
2.100972e+08 9.955791e-01  -1.127157e-01
2.200971e+08 9.904363e-01  -1.148578e-01
2.300969e+08 9.935184e-01  -1.223436e-01
2.400968e+08 9.940865e-01  -1.283318e-01
2.500967e+08 9.903386e-01  -1.319076e-01
2.600965e+08 9.899243e-01  -1.375113e-01
2.700964e+08 9.881082e-01  -1.422031e-01
2.800963e+08 9.879634e-01  -1.480386e-01
2.900961e+08 9.902598e-01  -1.539579e-01
3.000960e+08 9.873704e-01  -1.586713e-01
3.100959e+08 9.862184e-01  -1.640521e-01
3.200957e+08 9.854909e-01  -1.691291e-01
3.300956e+08 9.847564e-01  -1.744737e-01
3.400955e+08 9.834882e-01  -1.796239e-01
3.500953e+08 9.828480e-01  -1.846529e-01
3.600952e+08 9.829119e-01  -1.902201e-01
3.700951e+08 9.814219e-01  -1.951716e-01
3.800949e+08 9.814024e-01  -2.001215e-01
3.900948e+08 9.809988e-01  -2.053227e-01
4.000947e+08 9.756798e-01  -2.105168e-01
4.100945e+08 9.781538e-01  -2.155183e-01
4.200944e+08 9.755876e-01  -2.211278e-01
4.300943e+08 9.786597e-01  -2.253476e-01
4.400941e+08 9.752405e-01  -2.299561e-01
4.500940e+08 9.703827e-01  -2.369805e-01
4.600939e+08 9.675344e-01  -2.426356e-01
4.700937e+08 9.725339e-01  -2.456509e-01
4.800936e+08 9.664654e-01  -2.531239e-01
4.900935e+08 9.625403e-01  -2.593610e-01
5.000933e+08 9.682051e-01  -2.611544e-01
5.100932e+08 9.676806e-01  -2.649944e-01
5.200931e+08 9.697345e-01  -2.669399e-01
5.300929e+08 9.663574e-01  -2.730534e-01
5.400928e+08 9.570471e-01  -2.842394e-01
5.500927e+08 9.553373e-01  -2.891367e-01
5.600925e+08 9.520484e-01  -2.959385e-01
5.700924e+08 9.566745e-01  -2.935831e-01
5.800923e+08 9.557582e-01  -2.982737e-01
5.900921e+08 9.530378e-01  -3.041397e-01
6.000920e+08 9.509672e-01  -3.091193e-01
6.100919e+08 9.502653e-01  -3.135292e-01
6.200917e+08 9.450744e-01  -3.229611e-01
6.300916e+08 9.449586e-01  -3.262792e-01
6.400915e+08 9.401800e-01  -3.391608e-01
6.500913e+08 9.402955e-01  -3.396298e-01
6.600912e+08 9.407181e-01  -3.362151e-01
6.700911e+08 9.400561e-01  -3.357658e-01
6.800909e+08 9.336648e-01  -3.592714e-01
6.900908e+08 9.321035e-01  -3.622409e-01
7.000907e+08 9.311121e-01  -3.641036e-01
7.100905e+08 9.293131e-01  -3.666547e-01
7.200904e+08 9.280457e-01  -3.679868e-01
7.300903e+08 9.252253e-01  -3.905663e-01
7.400901e+08 9.228475e-01  -3.984595e-01
7.500900e+08 9.205660e-01  -3.827580e-01
7.600899e+08 9.186593e-01  -3.956426e-01
7.700897e+08 9.170042e-01  -3.993670e-01
7.800896e+08 9.127307e-01  -3.922501e-01
7.900895e+08 9.128970e-01  -4.045256e-01
8.000893e+08 9.081283e-01  -4.027360e-01
8.100892e+08 9.073168e-01  -4.129548e-01
8.200891e+08 9.082302e-01  -4.269967e-01
8.300889e+08 9.084138e-01  -4.355593e-01
8.400888e+08 9.027652e-01  -4.329994e-01
8.500887e+08 8.981467e-01  -4.345139e-01
8.600885e+08 8.971231e-01  -4.412948e-01
8.700884e+08 8.950312e-01  -4.466077e-01
8.800883e+08 8.931052e-01  -4.511072e-01
8.900881e+08 8.903565e-01  -4.567213e-01
9.000880e+08 8.885214e-01  -4.609917e-01
9.100879e+08 8.847387e-01  -4.651641e-01
9.200877e+08 8.840437e-01  -4.706262e-01
9.300876e+08 8.815659e-01  -4.757027e-01
9.400875e+08 8.753116e-01  -4.770371e-01
9.500873e+08 8.746981e-01  -4.833055e-01
9.600872e+08 8.713031e-01  -4.870360e-01
9.700871e+08 8.705846e-01  -4.924981e-01
9.800869e+08 8.677037e-01  -4.970620e-01
9.900868e+08 8.636763e-01  -5.016055e-01
1.000087e+09 8.621652e-01  -5.060781e-01
1.010087e+09 8.590081e-01  -5.108090e-01
1.020086e+09 8.547555e-01  -5.142838e-01
1.030086e+09 8.544179e-01  -5.205569e-01
1.040086e+09 8.525517e-01  -5.244336e-01
1.050086e+09 8.499730e-01  -5.291416e-01
1.060086e+09 8.431988e-01  -5.324631e-01
1.070086e+09 8.419249e-01  -5.375306e-01
1.080086e+09 8.388763e-01  -5.426150e-01
1.090085e+09 8.405740e-01  -5.472730e-01
1.100085e+09 8.346040e-01  -5.511673e-01
1.110085e+09 8.324080e-01  -5.551327e-01
1.120085e+09 8.317636e-01  -5.608861e-01
1.130085e+09 8.306592e-01  -5.657217e-01
1.140085e+09 8.159327e-01  -5.687242e-01
1.150085e+09 8.209381e-01  -5.728011e-01
1.160085e+09 8.114108e-01  -5.785772e-01
1.170084e+09 8.162184e-01  -5.811612e-01
1.180084e+09 8.062760e-01  -5.858253e-01
1.190084e+09 8.104923e-01  -5.893110e-01
1.200084e+09 8.014543e-01  -5.952896e-01
1.210084e+09 7.944644e-01  -6.005953e-01
1.220084e+09 8.022648e-01  -5.999759e-01
1.230084e+09 7.947230e-01  -6.035463e-01
1.240083e+09 7.876054e-01  -6.120357e-01
1.250083e+09 7.873593e-01  -6.144844e-01
1.260083e+09 7.771289e-01  -6.231050e-01
1.270083e+09 7.756173e-01  -6.252480e-01
1.280083e+09 7.728733e-01  -6.307555e-01
1.290083e+09 7.781775e-01  -6.286034e-01
1.300083e+09 7.665776e-01  -6.407952e-01
1.310083e+09 7.662612e-01  -6.403248e-01
1.320082e+09 7.664114e-01  -6.411456e-01
1.330082e+09 7.558392e-01  -6.509222e-01
1.340082e+09 7.552231e-01  -6.559434e-01
1.350082e+09 7.543732e-01  -6.557604e-01
1.360082e+09 7.521648e-01  -6.527633e-01
1.370082e+09 7.535241e-01  -6.524866e-01
1.380082e+09 7.436129e-01  -6.649376e-01
1.390081e+09 7.403228e-01  -6.699908e-01
1.400081e+09 7.352982e-01  -6.745997e-01
1.410081e+09 7.302721e-01  -6.821802e-01
1.420081e+09 7.274774e-01  -6.860475e-01
1.430081e+09 7.241616e-01  -6.908736e-01
1.440081e+09 7.177690e-01  -7.019164e-01
1.450081e+09 7.169755e-01  -6.975935e-01
1.460081e+09 7.127896e-01  -6.979468e-01
1.470080e+09 7.099686e-01  -7.039606e-01
1.480080e+09 7.043707e-01  -7.101809e-01
1.490080e+09 7.007308e-01  -7.083304e-01
1.500080e+09 6.974899e-01  -7.223909e-01
1.510080e+09 6.944553e-01  -7.203118e-01
1.520080e+09 6.900194e-01  -7.217010e-01
1.530080e+09 6.868574e-01  -7.264264e-01
1.540079e+09 6.811154e-01  -7.247828e-01
1.550079e+09 6.771892e-01  -7.275150e-01
1.560079e+09 6.744856e-01  -7.348990e-01
1.570079e+09 6.703776e-01  -7.369027e-01
1.580079e+09 6.678987e-01  -7.446172e-01
1.590079e+09 6.634490e-01  -7.485488e-01
1.600079e+09 6.603904e-01  -7.527294e-01
1.610079e+09 6.551092e-01  -7.550119e-01
1.620078e+09 6.506747e-01  -7.569600e-01
1.630078e+09 6.466840e-01  -7.608188e-01
1.640078e+09 6.433154e-01  -7.647715e-01
1.650078e+09 6.400542e-01  -7.685198e-01
1.660078e+09 6.348059e-01  -7.710232e-01
1.670078e+09 6.293970e-01  -7.734429e-01
1.680078e+09 6.235002e-01  -7.755544e-01
1.690077e+09 6.226303e-01  -7.809443e-01
1.700077e+09 6.177399e-01  -7.845100e-01
1.710077e+09 6.125441e-01  -7.861017e-01
1.720077e+09 6.081069e-01  -7.892026e-01
1.730077e+09 6.033391e-01  -7.927280e-01
1.740077e+09 6.008974e-01  -7.971786e-01
1.750077e+09 5.981306e-01  -8.001829e-01
1.760077e+09 5.913696e-01  -8.018834e-01
1.770076e+09 5.865233e-01  -8.037994e-01
1.780076e+09 5.804966e-01  -8.092897e-01
1.790076e+09 5.787408e-01  -8.148677e-01
1.800076e+09 5.768707e-01  -8.152759e-01
1.810076e+09 5.756265e-01  -8.183706e-01
1.820076e+09 5.660621e-01  -8.221657e-01
1.830076e+09 5.622746e-01  -8.234093e-01
1.840075e+09 5.580705e-01  -8.283432e-01
1.850075e+09 5.480968e-01  -8.312665e-01
1.860075e+09 5.508882e-01  -8.338694e-01
1.870075e+09 5.358295e-01  -8.360665e-01
1.880075e+09 5.462228e-01  -8.343883e-01
1.890075e+09 5.346944e-01  -8.414458e-01
1.900075e+09 5.240147e-01  -8.470546e-01
1.910075e+09 5.306912e-01  -8.476020e-01
1.920074e+09 5.227141e-01  -8.509540e-01
1.930074e+09 5.088812e-01  -8.567033e-01
1.940074e+09 5.106374e-01  -8.565667e-01
1.950074e+09 5.088153e-01  -8.581670e-01
1.960074e+09 4.931467e-01  -8.658537e-01
1.970074e+09 4.981239e-01  -8.645687e-01
1.980074e+09 4.905469e-01  -8.667057e-01
1.990073e+09 4.862396e-01  -8.717671e-01
2.000073e+09 4.863085e-01  -8.707240e-01
2.010073e+09 4.788935e-01  -8.735731e-01
2.020073e+09 4.622756e-01  -8.860862e-01
2.030073e+09 4.708568e-01  -8.815278e-01
2.040073e+09 4.686766e-01  -8.807285e-01
2.050073e+09 4.591328e-01  -8.849299e-01
2.060073e+09 4.478042e-01  -8.946392e-01
2.070072e+09 4.464537e-01  -8.898439e-01
2.080072e+09 4.481947e-01  -8.927610e-01
2.090072e+09 4.426550e-01  -8.925081e-01
2.100072e+09 4.385629e-01  -8.955921e-01
2.110072e+09 4.316746e-01  -8.991254e-01
2.120072e+09 4.242586e-01  -9.081299e-01
2.130072e+09 4.264160e-01  -8.971386e-01
2.140071e+09 4.182552e-01  -9.080898e-01
2.150071e+09 4.134994e-01  -9.098181e-01
2.160071e+09 4.066748e-01  -9.147104e-01
2.170071e+09 4.026796e-01  -9.123108e-01
2.180071e+09 3.980537e-01  -9.172954e-01
2.190071e+09 3.962573e-01  -9.160644e-01
2.200071e+09 3.906742e-01  -9.162517e-01
2.210071e+09 3.851130e-01  -9.195228e-01
2.220070e+09 3.794303e-01  -9.220249e-01
2.230070e+09 3.751011e-01  -9.215590e-01
2.240070e+09 3.701398e-01  -9.262342e-01
2.250070e+09 3.639268e-01  -9.327225e-01
2.260070e+09 3.601422e-01  -9.328030e-01
2.270070e+09 3.542727e-01  -9.298501e-01
2.280070e+09 3.492182e-01  -9.299994e-01
2.290069e+09 3.451326e-01  -9.368442e-01
2.300069e+09 3.389482e-01  -9.347914e-01
2.310069e+09 3.347527e-01  -9.412384e-01
2.320069e+09 3.297508e-01  -9.416518e-01
2.330069e+09 3.251302e-01  -9.445505e-01
2.340069e+09 3.203018e-01  -9.470903e-01
2.350069e+09 3.163503e-01  -9.498662e-01
2.360069e+09 3.110410e-01  -9.499519e-01
2.370068e+09 3.043328e-01  -9.480208e-01
2.380068e+09 3.018599e-01  -9.514061e-01
2.390068e+09 2.953575e-01  -9.504923e-01
2.400068e+09 2.881088e-01  -9.545102e-01
2.410068e+09 2.846257e-01  -9.568079e-01
2.420068e+09 2.794015e-01  -9.553409e-01
2.430068e+09 2.781968e-01  -9.601529e-01
2.440067e+09 2.642940e-01  -9.600122e-01
2.450067e+09 2.657513e-01  -9.653544e-01
2.460067e+09 2.600969e-01  -9.649842e-01
2.470067e+09 2.559800e-01  -9.644607e-01
2.480067e+09 2.455028e-01  -9.647312e-01
2.490067e+09 2.375539e-01  -9.655518e-01
2.500067e+09 2.372324e-01  -9.670396e-01
2.510067e+09 2.301296e-01  -9.662455e-01
2.520066e+09 2.324012e-01  -9.719324e-01
2.530066e+09 2.265934e-01  -9.720161e-01
2.540066e+09 2.159853e-01  -9.737031e-01
2.550066e+09 2.073772e-01  -9.733568e-01
2.560066e+09 2.122559e-01  -9.758507e-01
2.570066e+09 2.059668e-01  -9.780165e-01
2.580066e+09 1.975754e-01  -9.785363e-01
2.590065e+09 1.910054e-01  -9.765746e-01
2.600065e+09 1.870681e-01  -9.779674e-01
2.610065e+09 1.764858e-01  -9.835850e-01
2.620065e+09 1.708997e-01  -9.812643e-01
2.630065e+09 1.674310e-01  -9.881964e-01
2.640065e+09 1.634612e-01  -9.877398e-01
2.650065e+09 1.656366e-01  -9.808860e-01
2.660065e+09 1.583396e-01  -9.845393e-01
2.670064e+09 1.517092e-01  -9.871266e-01
2.680064e+09 1.369644e-01  -9.873751e-01
2.690064e+09 1.446309e-01  -9.856978e-01
2.700064e+09 1.292925e-01  -9.878289e-01
2.710064e+09 1.290679e-01  -9.941001e-01
2.720064e+09 1.248748e-01  -9.864368e-01
2.730064e+09 1.129823e-01  -9.886118e-01
2.740063e+09 1.108245e-01  -9.900190e-01
2.750063e+09 1.064915e-01  -9.899995e-01
2.760063e+09 1.026313e-01  -9.900384e-01
2.770063e+09 9.523573e-02  -9.928512e-01
2.780063e+09 9.160613e-02  -9.950587e-01
2.790063e+09 8.391266e-02  -9.938397e-01
2.800063e+09 7.896919e-02  -9.929439e-01
2.810063e+09 7.452474e-02  -9.946258e-01
2.820062e+09 7.102140e-02  -9.937783e-01
2.830062e+09 6.320650e-02  -9.973572e-01
2.840062e+09 5.923078e-02  -9.952445e-01
2.850062e+09 5.952557e-02  -9.863909e-01
2.860062e+09 4.696235e-02  -9.955297e-01
2.870062e+09 4.089710e-02  -9.982794e-01
2.880062e+09 3.827172e-02  -9.947784e-01
2.890061e+09 2.984802e-02  -1.000118e+00
2.900061e+09 2.373908e-02  -1.000649e+00
2.910061e+09 2.164560e-02  -9.951684e-01
2.920061e+09 1.542221e-02  -9.987499e-01
2.930061e+09 9.844311e-03  -9.999324e-01
2.940061e+09 5.680980e-03  -9.958362e-01
2.950061e+09 5.305363e-04  -9.909334e-01
2.960061e+09 -5.256028e-03  -9.935371e-01
2.970060e+09 -1.040343e-02  -9.962276e-01
2.980060e+09 -1.598439e-02  -9.988554e-01
2.990060e+09 -2.212702e-02  -9.968799e-01
3.000060e+09 -2.669399e-02  -9.909401e-01
3.010060e+09 -3.207754e-02  -9.947593e-01
3.020060e+09 -3.821275e-02  -9.958610e-01
3.030060e+09 -4.186329e-02  -9.963194e-01
3.040059e+09 -4.611721e-02  -9.951146e-01
3.050059e+09 -5.637372e-02  -9.888871e-01
3.060059e+09 -5.590031e-02  -9.983007e-01
3.070059e+09 -6.328965e-02  -9.944733e-01
3.080059e+09 -7.171770e-02  -9.932880e-01
3.090059e+09 -7.048164e-02  -9.942182e-01
3.100059e+09 -8.626152e-02  -9.871082e-01
3.110059e+09 -8.349521e-02  -9.948660e-01
3.120058e+09 -8.995787e-02  -9.898023e-01
3.130058e+09 -9.571832e-02  -9.979062e-01
3.140058e+09 -1.010952e-01  -9.913105e-01
3.150058e+09 -1.073687e-01  -9.961125e-01
3.160058e+09 -1.170645e-01  -9.851218e-01
3.170058e+09 -1.143337e-01  -9.981166e-01
3.180058e+09 -1.264242e-01  -9.889478e-01
3.190057e+09 -1.261113e-01  -9.853301e-01
3.200057e+09 -1.355518e-01  -9.874810e-01
3.210057e+09 -1.404242e-01  -9.922641e-01
3.220057e+09 -1.467011e-01  -9.849268e-01
3.230057e+09 -1.524570e-01  -9.817264e-01
3.240057e+09 -1.670813e-01  -9.787835e-01
3.250057e+09 -1.650724e-01  -9.842131e-01
3.260057e+09 -1.619456e-01  -9.807056e-01
3.270056e+09 -1.666429e-01  -9.827217e-01
3.280056e+09 -1.808768e-01  -9.805913e-01
3.290056e+09 -1.787652e-01  -9.835185e-01
3.300056e+09 -1.811467e-01  -9.819755e-01
3.310056e+09 -1.952561e-01  -9.768135e-01
3.320056e+09 -1.984404e-01  -9.740801e-01
3.330056e+09 -2.043581e-01  -9.783144e-01
3.340055e+09 -2.030606e-01  -9.765980e-01
3.350055e+09 -2.193287e-01  -9.679079e-01
3.360055e+09 -2.236678e-01  -9.724220e-01
3.370055e+09 -2.279274e-01  -9.661930e-01
3.380055e+09 -2.305368e-01  -9.709356e-01
3.390055e+09 -2.362816e-01  -9.662008e-01
3.400055e+09 -2.371554e-01  -9.664408e-01
3.410055e+09 -2.461357e-01  -9.667318e-01
3.420054e+09 -2.568670e-01  -9.652277e-01
3.430054e+09 -2.574061e-01  -9.653398e-01
3.440054e+09 -2.679232e-01  -9.631246e-01
3.450054e+09 -2.695664e-01  -9.622267e-01
3.460054e+09 -2.664803e-01  -9.579883e-01
3.470054e+09 -2.787764e-01  -9.567815e-01
3.480054e+09 -2.794418e-01  -9.536366e-01
3.490053e+09 -2.830587e-01  -9.549629e-01
3.500053e+09 -2.987026e-01  -9.571060e-01
3.510053e+09 -2.932134e-01  -9.516399e-01
3.520053e+09 -3.012902e-01  -9.517090e-01
3.530053e+09 -3.030929e-01  -9.459581e-01
3.540053e+09 -3.096265e-01  -9.468782e-01
3.550053e+09 -3.130326e-01  -9.421110e-01
3.560053e+09 -3.244427e-01  -9.450909e-01
3.570052e+09 -3.251140e-01  -9.417780e-01
3.580052e+09 -3.295777e-01  -9.390068e-01
3.590052e+09 -3.368689e-01  -9.407756e-01
3.600052e+09 -3.393232e-01  -9.367486e-01
3.610052e+09 -3.454264e-01  -9.347049e-01
3.620052e+09 -3.514557e-01  -9.391128e-01
3.630052e+09 -3.537808e-01  -9.279403e-01
3.640051e+09 -3.595737e-01  -9.257486e-01
3.650051e+09 -3.653168e-01  -9.268838e-01
3.660051e+09 -3.693657e-01  -9.236412e-01
3.670051e+09 -3.744874e-01  -9.189136e-01
3.680051e+09 -3.796915e-01  -9.149006e-01
3.690051e+09 -3.854670e-01  -9.215828e-01
3.700051e+09 -3.893007e-01  -9.134834e-01
3.710051e+09 -3.944684e-01  -9.079394e-01
3.720050e+09 -3.983137e-01  -9.154326e-01
3.730050e+09 -4.054597e-01  -9.045477e-01
3.740050e+09 -4.087280e-01  -9.014624e-01
3.750050e+09 -4.096549e-01  -9.109121e-01
3.760050e+09 -4.150881e-01  -9.028363e-01
3.770050e+09 -4.220041e-01  -9.038724e-01
3.780050e+09 -4.282453e-01  -8.948269e-01
3.790049e+09 -4.292160e-01  -8.960227e-01
3.800049e+09 -4.362155e-01  -8.970834e-01
3.810049e+09 -4.466907e-01  -8.826562e-01
3.820049e+09 -4.480356e-01  -8.877417e-01
3.830049e+09 -4.465117e-01  -8.831889e-01
3.840049e+09 -4.598490e-01  -8.840369e-01
3.850049e+09 -4.652478e-01  -8.830134e-01
3.860049e+09 -4.660193e-01  -8.766822e-01
3.870048e+09 -4.725099e-01  -8.754464e-01
3.880048e+09 -4.763383e-01  -8.674375e-01
3.890048e+09 -4.811163e-01  -8.726299e-01
3.900048e+09 -4.845203e-01  -8.687854e-01
3.910048e+09 -4.993242e-01  -8.620969e-01
3.920048e+09 -4.965165e-01  -8.589270e-01
3.930048e+09 -4.984237e-01  -8.648017e-01
3.940047e+09 -5.029052e-01  -8.595540e-01
3.950047e+09 -5.068206e-01  -8.502576e-01
3.960047e+09 -5.139874e-01  -8.589739e-01
3.970047e+09 -5.215810e-01  -8.572219e-01
3.980047e+09 -5.239482e-01  -8.460592e-01
3.990047e+09 -5.254803e-01  -8.436010e-01
4.000047e+09 -5.355798e-01  -8.443827e-01
4.010047e+09 -5.439021e-01  -8.375807e-01
4.020046e+09 -5.413670e-01  -8.405132e-01
4.030046e+09 -5.461801e-01  -8.293742e-01
4.040046e+09 -5.456117e-01  -8.317917e-01
4.050046e+09 -5.492454e-01  -8.257138e-01
4.060046e+09 -5.546877e-01  -8.287215e-01
4.070046e+09 -5.608433e-01  -8.297816e-01
4.080046e+09 -5.703125e-01  -8.182928e-01
4.090045e+09 -5.732089e-01  -8.169680e-01
4.100045e+09 -5.782524e-01  -8.152398e-01
4.110045e+09 -5.926772e-01  -8.078459e-01
4.120045e+09 -5.752223e-01  -8.087293e-01
4.130045e+09 -5.850793e-01  -8.070404e-01
4.140045e+09 -5.930583e-01  -8.004397e-01
4.150045e+09 -5.974584e-01  -7.978601e-01
4.160045e+09 -6.085725e-01  -7.946257e-01
4.170044e+09 -6.051550e-01  -7.915269e-01
4.180044e+09 -6.093921e-01  -7.877799e-01
4.190044e+09 -6.209236e-01  -7.850112e-01
4.200044e+09 -6.244653e-01  -7.828574e-01
4.210044e+09 -6.199902e-01  -7.768190e-01
4.220044e+09 -6.374148e-01  -7.790453e-01
4.230044e+09 -6.325657e-01  -7.728192e-01
4.240043e+09 -6.404941e-01  -7.717815e-01
4.250043e+09 -6.379018e-01  -7.639865e-01
4.260043e+09 -6.420313e-01  -7.605955e-01
4.270043e+09 -6.436637e-01  -7.554345e-01
4.280043e+09 -6.532701e-01  -7.574318e-01
4.290043e+09 -6.578064e-01  -7.562457e-01
4.300043e+09 -6.582741e-01  -7.456454e-01
4.310043e+09 -6.606019e-01  -7.411019e-01
4.320042e+09 -6.665665e-01  -7.433944e-01
4.330042e+09 -6.722294e-01  -7.413469e-01
4.340042e+09 -6.729119e-01  -7.297769e-01
4.350042e+09 -6.751087e-01  -7.256789e-01
4.360042e+09 -6.840857e-01  -7.290059e-01
4.370042e+09 -6.831979e-01  -7.253748e-01
4.380042e+09 -6.896863e-01  -7.146535e-01
4.390041e+09 -6.898122e-01  -7.089188e-01
4.400041e+09 -6.979302e-01  -7.143514e-01
4.410041e+09 -7.015188e-01  -7.083524e-01
4.420041e+09 -7.061540e-01  -6.987086e-01
4.430041e+09 -7.096583e-01  -6.948659e-01
4.440041e+09 -7.091029e-01  -6.917887e-01
4.450041e+09 -7.154138e-01  -6.955239e-01
4.460041e+09 -7.140067e-01  -6.916043e-01
4.470040e+09 -7.198186e-01  -6.793467e-01
4.480040e+09 -7.274602e-01  -6.811371e-01
4.490040e+09 -7.242489e-01  -6.837385e-01
4.500040e+09 -7.331226e-01  -6.734331e-01
4.510040e+09 -7.341144e-01  -6.695812e-01
4.520040e+09 -7.365315e-01  -6.570218e-01
4.530040e+09 -7.411194e-01  -6.536833e-01
4.540039e+09 -7.438134e-01  -6.552286e-01
4.550039e+09 -7.486280e-01  -6.543223e-01
4.560039e+09 -7.493715e-01  -6.496627e-01
4.570039e+09 -7.629818e-01  -6.402734e-01
4.580039e+09 -7.590322e-01  -6.397822e-01
4.590039e+09 -7.620568e-01  -6.404975e-01
4.600039e+09 -7.672820e-01  -6.263890e-01
4.610039e+09 -7.763337e-01  -6.263375e-01
4.620038e+09 -7.802879e-01  -6.126369e-01
4.630038e+09 -7.763266e-01  -6.190287e-01
4.640038e+09 -7.800413e-01  -6.227406e-01
4.650038e+09 -7.868235e-01  -6.076131e-01
4.660038e+09 -7.828959e-01  -6.192807e-01
4.670038e+09 -7.934209e-01  -6.003781e-01
4.680038e+09 -7.917770e-01  -6.080934e-01
4.690037e+09 -8.050820e-01  -5.879646e-01
4.700037e+09 -8.023876e-01  -5.930109e-01
4.710037e+09 -8.051918e-01  -5.893130e-01
4.720037e+09 -8.109060e-01  -5.858530e-01
4.730037e+09 -8.132960e-01  -5.784374e-01
4.740037e+09 -8.085391e-01  -5.762641e-01
4.750037e+09 -8.203302e-01  -5.642860e-01
4.760037e+09 -8.126816e-01  -5.681895e-01
4.770036e+09 -8.268781e-01  -5.576371e-01
4.780036e+09 -8.266524e-01  -5.559939e-01
4.790036e+09 -8.302667e-01  -5.538915e-01
4.800036e+09 -8.350774e-01  -5.459919e-01
