# Hz S RI R 50.000000
! FREQ                re:S1  1             im:S1  1  
1.000000e+05 1.240969e-02  4.784948e-04
1.009987e+07 1.032392e-02  -4.339521e-03
2.009973e+07 9.578407e-03  -4.425750e-04
3.009960e+07 1.012273e-02  -2.024997e-03
4.009947e+07 9.255292e-03  8.184082e-04
5.009933e+07 1.094383e-02  -2.279533e-03
6.009920e+07 1.045856e-02  -1.823720e-03
7.009907e+07 1.009070e-02  -8.660826e-04
8.009893e+07 8.687126e-03  1.978854e-04
9.009880e+07 7.761399e-03  8.009040e-04
1.000987e+08 1.127703e-02  -1.742336e-03
1.100985e+08 8.436379e-03  -3.588999e-05
1.200984e+08 7.386912e-03  1.951029e-05
1.300983e+08 6.490967e-03  1.649723e-04
1.400981e+08 1.155862e-02  -1.577113e-03
1.500980e+08 1.493933e-02  -1.999563e-03
1.600979e+08 8.543377e-03  -1.275312e-03
1.700977e+08 9.288164e-03  -1.302282e-03
1.800976e+08 9.930265e-03  -1.338562e-03
1.900975e+08 4.559762e-03  -2.472125e-03
2.000973e+08 4.690006e-03  -3.033106e-03
2.100972e+08 1.156230e-02  -5.916286e-04
2.200971e+08 1.092155e-02  -7.102998e-04
2.300969e+08 1.203959e-02  -1.479724e-05
2.400968e+08 7.466075e-03  -3.509688e-03
2.500967e+08 7.903907e-03  -3.284266e-03
2.600965e+08 6.947995e-03  -4.114267e-03
2.700964e+08 9.624868e-03  -1.854655e-03
2.800963e+08 7.037507e-03  -5.275813e-03
2.900961e+08 9.242919e-03  -1.898232e-03
3.000960e+08 9.755621e-03  -1.355473e-03
3.100959e+08 9.957079e-03  -7.372711e-04
3.200957e+08 1.048161e-02  2.361648e-03
3.300956e+08 9.099624e-03  -4.736507e-03
3.400955e+08 1.005624e-02  5.879336e-04
3.500953e+08 9.698294e-03  2.299686e-03
3.600952e+08 8.999053e-03  -9.819923e-05
3.700951e+08 9.425459e-03  -1.782540e-03
3.800949e+08 1.158053e-02  -6.410592e-03
3.900948e+08 9.569769e-03  -2.118616e-03
4.000947e+08 8.288791e-03  -4.276903e-04
4.100945e+08 8.843042e-03  -1.494656e-03
4.200944e+08 8.927776e-03  -1.728149e-03
4.300943e+08 9.313942e-03  -2.548274e-03
4.400941e+08 1.669344e-02  -7.681246e-03
4.500940e+08 1.056351e-02  -3.568445e-03
4.600939e+08 8.259552e-03  -1.974600e-03
4.700937e+08 1.149003e-02  -3.315614e-03
4.800936e+08 6.463755e-03  -1.863771e-03
4.900935e+08 1.038635e-02  -2.987798e-03
5.000933e+08 7.395865e-03  -3.069074e-03
5.100932e+08 6.793286e-03  -2.895059e-03
5.200931e+08 8.966472e-03  -2.974070e-03
5.300929e+08 7.364821e-03  -3.361672e-03
5.400928e+08 7.479985e-03  -3.460786e-03
5.500927e+08 8.256399e-03  -3.460538e-03
5.600925e+08 1.076432e-02  -2.327690e-03
5.700924e+08 1.311747e-02  -6.538956e-04
5.800923e+08 9.984065e-03  -2.617005e-03
5.900921e+08 1.026119e-02  -2.216067e-03
6.000920e+08 1.128050e-02  -8.409978e-04
6.100919e+08 7.357553e-03  -5.414599e-03
6.200917e+08 1.026575e-02  -1.210153e-03
6.300916e+08 8.458677e-03  -4.297261e-03
6.400915e+08 6.848763e-03  -7.785661e-03
6.500913e+08 7.980360e-03  -6.172392e-03
6.600912e+08 8.786424e-03  -3.297675e-03
6.700911e+08 8.810932e-03  -3.538453e-03
6.800909e+08 8.656062e-03  -5.709797e-03
6.900908e+08 8.604065e-03  -2.808661e-03
7.000907e+08 8.596827e-03  -4.711666e-03
7.100905e+08 8.506975e-03  -3.644972e-03
7.200904e+08 9.495235e-03  -7.242997e-03
7.300903e+08 9.836637e-03  -6.941338e-03
7.400901e+08 7.329786e-03  -2.261643e-03
7.500900e+08 7.157787e-03  -2.238853e-03
7.600899e+08 5.076862e-03  -3.441649e-04
7.700897e+08 7.280462e-03  -3.419644e-03
7.800896e+08 7.623293e-03  -3.935250e-03
7.900895e+08 1.242804e-02  -7.549894e-03
8.000893e+08 1.011106e-02  -5.654485e-03
8.100892e+08 9.518833e-03  -5.378901e-03
8.200891e+08 9.886782e-03  -5.348503e-03
8.300889e+08 1.300399e-02  -6.016064e-03
8.400888e+08 1.179087e-02  -5.455467e-03
8.500887e+08 8.462553e-03  -5.074266e-03
8.600885e+08 8.615923e-03  -4.993514e-03
8.700884e+08 8.532139e-03  -5.100803e-03
8.800883e+08 1.149286e-02  -4.583917e-03
8.900881e+08 4.641319e-03  -6.401838e-03
9.000880e+08 1.087378e-02  -4.357808e-03
9.100879e+08 2.164291e-03  -8.686062e-03
9.200877e+08 1.051977e-02  -4.015643e-03
9.300876e+08 4.401856e-03  -8.486846e-03
9.400875e+08 6.444949e-03  -7.199272e-03
9.500873e+08 7.837960e-03  -5.656394e-03
9.600872e+08 9.672517e-03  -3.389304e-03
9.700871e+08 9.316449e-03  -3.751278e-03
9.800869e+08 7.370830e-03  -6.885334e-03
9.900868e+08 8.343098e-03  -5.057907e-03
1.000087e+09 7.388682e-03  -8.599584e-03
1.010087e+09 7.676466e-03  -7.028616e-03
1.020086e+09 8.371893e-03  -1.518402e-03
1.030086e+09 7.948399e-03  -4.242259e-03
1.040086e+09 8.363357e-03  -1.098316e-02
1.050086e+09 8.855277e-03  -1.170295e-02
1.060086e+09 7.772847e-03  -5.776671e-03
1.070086e+09 8.028103e-03  -6.722049e-03
1.080086e+09 6.481457e-03  -3.662968e-03
1.090085e+09 8.517827e-03  -7.228593e-03
1.100085e+09 7.472602e-03  -5.709913e-03
1.110085e+09 9.571688e-03  -8.469729e-03
1.120085e+09 5.169577e-03  -4.057231e-03
1.130085e+09 2.692272e-03  -2.532213e-03
1.140085e+09 6.591698e-03  -5.694479e-03
1.150085e+09 6.879234e-03  -6.126389e-03
1.160085e+09 3.855917e-03  -5.046835e-03
1.170084e+09 6.564403e-03  -6.279892e-03
1.180084e+09 8.403176e-03  -6.810332e-03
1.190084e+09 5.858687e-03  -6.358426e-03
1.200084e+09 4.667464e-03  -6.626540e-03
1.210084e+09 4.948165e-03  -6.727632e-03
1.220084e+09 7.337116e-03  -6.499931e-03
1.230084e+09 1.452400e-02  -4.726302e-03
1.240083e+09 7.202885e-03  -6.752399e-03
1.250083e+09 7.155990e-03  -6.613887e-03
1.260083e+09 7.091994e-03  -6.609988e-03
1.270083e+09 9.625173e-03  -4.898971e-03
1.280083e+09 5.634148e-03  -8.010311e-03
1.290083e+09 5.018137e-03  -8.668685e-03
1.300083e+09 3.755108e-03  -1.065677e-02
1.310083e+09 6.208038e-03  -7.306327e-03
1.320082e+09 5.461457e-03  -9.389505e-03
1.330082e+09 7.336102e-03  -4.798605e-03
1.340082e+09 4.854749e-03  -1.188093e-02
1.350082e+09 5.255076e-03  -1.105393e-02
1.360082e+09 6.451536e-03  -5.401664e-03
1.370082e+09 6.063608e-03  -1.340055e-02
1.380082e+09 6.164497e-03  -8.449824e-03
1.390081e+09 6.577017e-03  -1.080562e-02
1.400081e+09 6.239870e-03  -8.571642e-03
1.410081e+09 5.456620e-03  -6.469699e-03
1.420081e+09 6.103947e-03  -8.675094e-03
1.430081e+09 7.568350e-03  -1.120945e-02
1.440081e+09 5.499161e-03  -7.523311e-03
1.450081e+09 6.581110e-03  -9.246604e-03
1.460081e+09 5.180349e-03  -7.331401e-03
1.470080e+09 7.988812e-03  -1.009927e-02
1.480080e+09 2.478238e-03  -6.019539e-03
1.490080e+09 2.219379e-03  -6.114178e-03
1.500080e+09 1.760916e-03  -6.605335e-03
1.510080e+09 7.198769e-03  -8.736714e-03
1.520080e+09 4.899341e-03  -8.270043e-03
1.530080e+09 7.158861e-03  -8.466827e-03
1.540079e+09 3.320498e-03  -8.287863e-03
1.550079e+09 4.863763e-03  -8.434109e-03
1.560079e+09 6.445575e-03  -8.296719e-03
1.570079e+09 1.006977e-02  -7.447802e-03
1.580079e+09 8.657216e-03  -7.418620e-03
1.590079e+09 3.500426e-03  -9.404837e-03
1.600079e+09 7.012378e-03  -7.779140e-03
1.610079e+09 2.248701e-03  -1.055659e-02
1.620078e+09 6.179649e-03  -7.936690e-03
1.630078e+09 4.670315e-03  -8.959531e-03
1.640078e+09 4.616662e-03  -9.113255e-03
1.650078e+09 4.637322e-03  -9.080947e-03
1.660078e+09 3.380787e-03  -1.166515e-02
1.670078e+09 5.132022e-03  -7.555465e-03
1.680078e+09 6.846329e-03  -2.384615e-03
1.690077e+09 4.148146e-03  -1.075310e-02
1.700077e+09 4.703526e-03  -7.611914e-03
1.710077e+09 4.505172e-03  -7.476041e-03
1.720077e+09 4.401078e-03  -8.565012e-03
1.730077e+09 3.854375e-03  -6.459107e-03
1.740077e+09 3.820790e-03  -7.320626e-03
1.750077e+09 4.748940e-03  -1.041655e-02
1.760077e+09 4.646627e-03  -1.055221e-02
1.770076e+09 6.027921e-03  -1.284856e-02
1.780076e+09 1.813685e-03  -5.943477e-03
1.790076e+09 3.022389e-04  -4.550414e-03
1.800076e+09 5.373534e-03  -1.107750e-02
1.810076e+09 7.184001e-03  -1.214711e-02
1.820076e+09 2.531000e-03  -8.626142e-03
1.830076e+09 6.850179e-03  -1.127983e-02
1.840075e+09 1.738668e-03  -8.355674e-03
1.850075e+09 2.003807e-03  -8.774472e-03
1.860075e+09 2.993934e-03  -9.097164e-03
1.870075e+09 5.783843e-03  -9.740511e-03
1.880075e+09 1.294231e-02  -9.956873e-03
1.890075e+09 4.620247e-03  -9.291310e-03
1.900075e+09 1.650196e-03  -9.501140e-03
1.910075e+09 1.275628e-03  -9.576952e-03
1.920074e+09 1.638266e-03  -9.881188e-03
1.930074e+09 1.907582e-03  -9.898669e-03
1.940074e+09 2.867039e-03  -9.256938e-03
1.950074e+09 2.546796e-03  -9.582331e-03
1.960074e+09 2.485130e-03  -9.507497e-03
1.970074e+09 2.124276e-03  -9.585045e-03
1.980074e+09 3.628544e-03  -8.118663e-03
1.990073e+09 7.504539e-04  -1.128792e-02
2.000073e+09 2.051604e-03  -9.782762e-03
2.010073e+09 2.744955e-03  -7.762563e-03
2.020073e+09 1.582308e-03  -9.578150e-03
2.030073e+09 6.385888e-04  -1.309170e-02
2.040073e+09 1.407642e-03  -1.128931e-02
2.050073e+09 1.705412e-03  -8.074376e-03
2.060073e+09 1.406239e-03  -7.994773e-03
2.070072e+09 6.400152e-04  -2.527066e-03
2.080072e+09 1.644181e-03  -1.255440e-02
2.090072e+09 8.559750e-04  -8.464519e-03
2.100072e+09 1.062721e-03  -1.013007e-02
2.110072e+09 -1.273417e-04  -7.534975e-03
2.120072e+09 1.163450e-03  -1.058475e-02
2.130072e+09 8.842727e-04  -1.024412e-02
2.140071e+09 1.859590e-03  -1.183802e-02
2.150071e+09 1.518220e-03  -1.106517e-02
2.160071e+09 -5.044320e-04  -9.648566e-03
2.170071e+09 -2.972723e-03  -7.807763e-03
2.180071e+09 -7.122436e-04  -9.739173e-03
2.190071e+09 6.922316e-03  -1.344021e-02
2.200071e+09 3.755408e-03  -1.174225e-02
2.210071e+09 2.663010e-03  -1.116918e-02
2.220070e+09 1.063428e-04  -1.064719e-02
2.230070e+09 1.171210e-03  -1.065085e-02
2.240070e+09 2.226378e-03  -1.049072e-02
2.250070e+09 -6.090827e-03  -1.098118e-02
2.260070e+09 3.198364e-04  -1.050116e-02
2.270070e+09 -1.012523e-03  -1.101978e-02
2.280070e+09 2.183168e-03  -9.642482e-03
2.290069e+09 -1.494520e-03  -1.131450e-02
2.300069e+09 2.636861e-03  -8.700647e-03
2.310069e+09 -2.287094e-03  -1.200873e-02
2.320069e+09 -6.504960e-04  -1.079831e-02
2.330069e+09 -1.748660e-03  -1.176229e-02
2.340069e+09 -2.486680e-03  -1.296692e-02
2.350069e+09 -2.682839e-03  -1.352084e-02
2.360069e+09 -2.310044e-03  -1.307649e-02
2.370068e+09 -1.583444e-03  -1.142332e-02
2.380068e+09 -2.528381e-03  -1.467657e-02
2.390068e+09 -1.914162e-03  -1.409587e-02
2.400068e+09 -1.141140e-03  -7.755099e-03
2.410068e+09 -1.489081e-03  -1.027860e-02
2.420068e+09 -1.627525e-03  -1.267785e-02
2.430068e+09 -9.916879e-04  -1.496847e-02
2.440067e+09 -3.416506e-03  -4.743525e-03
2.450067e+09 -2.780589e-03  -8.293675e-03
2.460067e+09 -2.813828e-03  -9.258929e-03
2.470067e+09 -9.589798e-04  -1.258214e-02
2.480067e+09 -3.191734e-03  -8.989133e-03
2.490067e+09 -5.209273e-03  -7.418673e-03
2.500067e+09 -1.507505e-03  -1.134551e-02
2.510067e+09 -2.377178e-04  -1.235362e-02
2.520066e+09 -6.371821e-04  -1.165665e-02
2.530066e+09 4.979191e-04  -1.214193e-02
2.540066e+09 -4.247017e-03  -9.925121e-03
2.550066e+09 -3.521191e-03  -1.025207e-02
2.560066e+09 -1.000914e-03  -1.087744e-02
2.570066e+09 -3.111162e-03  -1.053937e-02
2.580066e+09 -3.672385e-03  -1.045259e-02
2.590065e+09 7.035823e-04  -1.001513e-02
2.600065e+09 -7.522140e-04  -9.865861e-03
2.610065e+09 -7.891411e-03  -1.155670e-02
2.620065e+09 -2.737900e-03  -1.002807e-02
2.630065e+09 -1.046528e-02  -1.342580e-02
2.640065e+09 -8.678708e-03  -1.329809e-02
2.650065e+09 -1.677862e-03  -8.499865e-03
2.660065e+09 -4.766484e-03  -1.091644e-02
2.670064e+09 -6.462266e-03  -1.248227e-02
2.680064e+09 -3.109212e-03  -8.532060e-03
2.690064e+09 -5.131620e-03  -1.105249e-02
2.700064e+09 -3.968066e-03  -8.802042e-03
2.710064e+09 -8.342223e-03  -1.890929e-02
2.720064e+09 -4.674269e-03  -9.416212e-03
2.730064e+09 -4.094645e-03  -6.219954e-03
2.740063e+09 -5.203441e-03  -9.920565e-03
2.750063e+09 -5.539649e-03  -1.031809e-02
2.760063e+09 -5.590351e-03  -1.064644e-02
2.770063e+09 -5.506710e-03  -1.029590e-02
2.780063e+09 -4.344833e-03  -1.574009e-02
2.790063e+09 -6.064068e-03  -9.897319e-03
2.800063e+09 -6.240807e-03  -9.526726e-03
2.810063e+09 -5.796340e-03  -1.090395e-02
2.820062e+09 -4.783865e-03  -1.251494e-02
2.830062e+09 -4.265841e-03  -1.257866e-02
2.840062e+09 -4.744130e-03  -1.177277e-02
2.850062e+09 -4.071164e-03  -1.201681e-02
2.860062e+09 -9.218222e-03  -8.656820e-03
2.870062e+09 -6.890590e-03  -1.005675e-02
2.880062e+09 -4.314864e-03  -1.107955e-02
2.890061e+09 -8.034627e-03  -9.803696e-03
2.900061e+09 -1.196705e-02  -9.081814e-03
2.910061e+09 -7.325609e-03  -1.014443e-02
2.920061e+09 -7.493153e-03  -1.016636e-02
2.930061e+09 -9.518419e-03  -1.026201e-02
2.940061e+09 -6.024685e-03  -9.896506e-03
2.950061e+09 -5.808473e-03  -9.976465e-03
2.960061e+09 -4.919388e-03  -9.022161e-03
2.970060e+09 -7.032172e-03  -9.548033e-03
2.980060e+09 -9.548708e-03  -1.079878e-02
2.990060e+09 -6.575200e-03  -9.090790e-03
3.000060e+09 -5.149398e-03  -7.677054e-03
3.010060e+09 -6.565107e-03  -8.155609e-03
3.020060e+09 -8.470446e-03  -1.042287e-02
3.030060e+09 -8.342886e-03  -8.827913e-03
3.040059e+09 -1.001320e-02  -1.233192e-02
3.050059e+09 -6.688103e-03  -3.430610e-03
3.060059e+09 -9.937924e-03  -1.180566e-02
3.070059e+09 -9.701691e-03  -1.130412e-02
3.080059e+09 -8.956800e-03  -5.477965e-03
3.090059e+09 -9.362731e-03  -1.434486e-02
3.100059e+09 -1.014837e-02  -1.209754e-03
3.110059e+09 -9.527094e-03  -1.010771e-02
3.120058e+09 -8.827079e-03  -1.169227e-02
3.130058e+09 -1.051670e-02  -7.134339e-03
3.140058e+09 -9.482037e-03  -1.012012e-02
3.150058e+09 -1.155381e-02  -6.309678e-03
3.160058e+09 -1.022101e-02  -8.387646e-03
3.170058e+09 -1.209178e-02  -6.738463e-03
3.180058e+09 -1.244942e-02  -6.605804e-03
3.190057e+09 -6.133563e-03  -1.201374e-02
3.200057e+09 -1.099031e-02  -8.306986e-03
3.210057e+09 -1.546760e-02  -5.997335e-03
3.220057e+09 -9.966925e-03  -8.811320e-03
3.230057e+09 -8.300600e-03  -9.172402e-03
3.240057e+09 -1.167238e-02  -7.927314e-03
3.250057e+09 -1.338028e-02  -7.732428e-03
3.260057e+09 -6.458233e-03  -8.291893e-03
3.270056e+09 -1.079471e-02  -8.044536e-03
3.280056e+09 -1.332353e-02  -8.176566e-03
3.290056e+09 -1.485322e-02  -8.762737e-03
3.300056e+09 -1.398963e-02  -8.662171e-03
3.310056e+09 -1.269512e-02  -7.852155e-03
3.320056e+09 -1.022915e-02  -6.301568e-03
3.330056e+09 -1.610212e-02  -1.041187e-02
3.340055e+09 -1.577082e-02  -1.035410e-02
3.350055e+09 -9.780737e-03  -4.427648e-03
3.360055e+09 -1.437290e-02  -9.298158e-03
3.370055e+09 -1.111291e-02  -3.875205e-03
3.380055e+09 -1.521182e-02  -1.066918e-02
3.390055e+09 -1.300455e-02  -6.201950e-03
3.400055e+09 -1.422506e-02  -9.664105e-03
3.410055e+09 -1.450320e-02  -1.015377e-02
3.420054e+09 -1.405857e-02  -7.352010e-03
3.430054e+09 -1.422622e-02  -1.082542e-02
3.440054e+09 -1.441560e-02  -6.105023e-03
3.450054e+09 -1.417631e-02  -8.848848e-03
3.460054e+09 -1.375412e-02  -1.010131e-02
3.470054e+09 -1.560722e-02  -4.679258e-03
3.480054e+09 -1.534618e-02  -5.881565e-03
3.490053e+09 -1.196159e-02  -1.229754e-02
3.500053e+09 -1.607324e-02  -5.788557e-03
3.510053e+09 -1.161887e-02  -1.158059e-02
3.520053e+09 -1.253794e-02  -1.016543e-02
3.530053e+09 -1.429286e-02  -8.326264e-03
3.540053e+09 -1.294615e-02  -8.955110e-03
3.550053e+09 -1.394016e-02  -7.942724e-03
3.560053e+09 -2.208941e-02  -4.164058e-03
3.570052e+09 -1.328029e-02  -7.932087e-03
3.580052e+09 -1.536044e-02  -7.250418e-03
3.590052e+09 -1.997144e-02  -6.513571e-03
3.600052e+09 -1.543732e-02  -7.275562e-03
3.610052e+09 -1.651638e-02  -6.831883e-03
3.620052e+09 -2.255598e-02  -8.007187e-03
3.630052e+09 -1.274144e-02  -6.330435e-03
3.640051e+09 -1.575700e-02  -6.614455e-03
3.650051e+09 -1.561249e-02  -6.419271e-03
3.660051e+09 -1.542920e-02  -6.303400e-03
3.670051e+09 -1.416199e-02  -4.812861e-03
3.680051e+09 -1.274650e-02  -3.639367e-03
3.690051e+09 -1.635289e-02  -6.316806e-03
3.700051e+09 -1.540677e-02  -4.726500e-03
3.710051e+09 -1.484866e-02  -3.622767e-03
3.720050e+09 -1.789514e-02  -8.083649e-03
3.730050e+09 -1.523955e-02  -2.571936e-03
3.740050e+09 -1.632534e-02  -4.772663e-03
3.750050e+09 -1.811561e-02  -1.037011e-02
3.760050e+09 -1.715543e-02  -8.464302e-03
3.770050e+09 -1.726787e-02  -6.655150e-03
3.780050e+09 -1.732642e-02  -3.894825e-03
3.790049e+09 -1.694350e-02  -8.281091e-03
3.800049e+09 -1.735980e-02  -5.327319e-03
3.810049e+09 -1.877531e-02  -1.424491e-03
3.820049e+09 -1.827024e-02  -3.695357e-03
3.830049e+09 -1.509132e-02  -9.140228e-03
3.840049e+09 -1.967444e-02  -2.444290e-03
3.850049e+09 -2.075235e-02  -1.779667e-03
3.860049e+09 -1.768197e-02  -5.013473e-03
3.870048e+09 -1.910841e-02  -3.840432e-03
3.880048e+09 -1.580403e-02  -5.785675e-03
3.890048e+09 -1.957059e-02  -3.654734e-03
3.900048e+09 -1.691830e-02  -4.973857e-03
3.910048e+09 -2.266328e-02  -2.671403e-03
3.920048e+09 -1.704849e-02  -4.286794e-03
3.930048e+09 -1.953567e-02  -3.999226e-03
3.940047e+09 -1.723047e-02  -3.833333e-03
3.950047e+09 -1.240413e-02  -3.091652e-03
3.960047e+09 -2.303681e-02  -4.188364e-03
3.970047e+09 -2.497683e-02  -5.015913e-03
3.980047e+09 -1.821946e-02  -3.106321e-03
3.990047e+09 -1.567024e-02  -1.491931e-03
4.000047e+09 -2.223486e-02  -4.534387e-03
4.010047e+09 -1.952171e-02  -2.734850e-03
4.020046e+09 -2.231218e-02  -4.834294e-03
4.030046e+09 -1.552675e-02  2.072691e-03
4.040046e+09 -1.935201e-02  -1.612154e-03
4.050046e+09 -1.741767e-02  6.228392e-04
4.060046e+09 -2.155387e-02  -4.670048e-03
4.070046e+09 -2.449443e-02  -1.133763e-02
4.080046e+09 -2.041596e-02  -1.744949e-03
4.090045e+09 -2.103248e-02  -3.279306e-03
4.100045e+09 -2.196518e-02  -6.086484e-03
4.110045e+09 -2.097470e-02  8.805297e-04
4.120045e+09 -2.107908e-02  -5.691215e-03
4.130045e+09 -2.038550e-02  -9.742876e-03
4.140045e+09 -2.169115e-02  -1.991459e-03
4.150045e+09 -2.080276e-02  -3.553487e-03
4.160045e+09 -2.297036e-02  1.086158e-03
4.170044e+09 -2.079965e-02  -3.811245e-03
4.180044e+09 -2.127437e-02  -2.833229e-03
4.190044e+09 -2.466750e-02  2.309792e-03
4.200044e+09 -2.320046e-02  -1.667054e-04
4.210044e+09 -2.212665e-02  -1.698887e-03
4.220044e+09 -2.557358e-02  1.522551e-03
4.230044e+09 -2.124184e-02  -2.134661e-03
4.240043e+09 -2.690610e-02  1.202897e-03
4.250043e+09 -2.410414e-02  -3.337942e-04
4.260043e+09 -2.221467e-02  -9.191450e-04
4.270043e+09 -2.116719e-02  -1.519066e-03
4.280043e+09 -2.760986e-02  -2.347220e-04
4.290043e+09 -2.590281e-02  -5.700753e-04
4.300043e+09 -2.123978e-02  -7.120555e-04
4.310043e+09 -2.052948e-02  -3.840868e-04
4.320042e+09 -2.516289e-02  -1.121973e-03
4.330042e+09 -2.484631e-02  -9.530035e-04
4.340042e+09 -1.894039e-02  1.343539e-03
4.350042e+09 -2.108913e-02  5.346745e-04
4.360042e+09 -2.224558e-02  7.193421e-04
4.370042e+09 -2.593407e-02  -2.002030e-03
4.380042e+09 -2.018821e-02  2.725361e-03
4.390041e+09 -2.149093e-02  2.356391e-03
4.400041e+09 -2.447700e-02  -9.565362e-04
4.410041e+09 -2.248621e-02  1.748519e-03
4.420041e+09 -2.143295e-02  4.287003e-03
4.430041e+09 -2.234382e-02  3.021850e-03
4.440041e+09 -2.359834e-02  4.716144e-04
4.450041e+09 -2.386220e-02  -1.081881e-03
4.460041e+09 -2.384844e-02  -3.815035e-03
4.470040e+09 -2.350418e-02  6.673604e-04
4.480040e+09 -2.359370e-02  3.692415e-03
4.490040e+09 -2.238620e-02  -3.173078e-03
4.500040e+09 -2.352067e-02  2.049071e-03
4.510040e+09 -2.244437e-02  -2.265059e-04
4.520040e+09 -2.221189e-02  -1.526218e-04
4.530040e+09 -2.186938e-02  6.696018e-04
4.540039e+09 -2.251735e-02  1.101417e-03
4.550039e+09 -2.282891e-02  1.846764e-03
4.560039e+09 -2.116749e-02  9.010224e-04
4.570039e+09 -2.764038e-02  6.079146e-03
4.580039e+09 -2.334108e-02  3.103806e-03
4.590039e+09 -2.356205e-02  3.785283e-03
4.600039e+09 -2.282860e-02  3.646191e-03
4.610039e+09 -2.861951e-02  5.323127e-03
4.620038e+09 -2.610631e-02  5.019151e-03
4.630038e+09 -2.339534e-02  4.695160e-03
4.640038e+09 -2.681067e-02  4.759140e-03
4.650038e+09 -2.520497e-02  5.229729e-03
4.660038e+09 -2.797438e-02  4.657912e-03
4.670038e+09 -2.603907e-02  5.073617e-03
4.680038e+09 -2.956929e-02  3.634130e-03
4.690037e+09 -2.647284e-02  5.329653e-03
4.700037e+09 -2.769449e-02  4.377978e-03
4.710037e+09 -2.757091e-02  4.567659e-03
4.720037e+09 -2.998220e-02  2.395600e-03
4.730037e+09 -2.719895e-02  5.100982e-03
4.740037e+09 -2.533111e-02  7.372484e-03
4.750037e+09 -2.408785e-02  9.771297e-03
4.760037e+09 -2.551834e-02  8.003213e-03
4.770036e+09 -2.527349e-02  9.677286e-03
4.780036e+09 -2.607784e-02  8.291894e-03
4.790036e+09 -2.708474e-02  4.151818e-03
4.800036e+09 -2.604422e-02  8.537591e-03
