# Hz S RI R 50.000000
! FREQ                re:S1  1             im:S1  1  
1.000000e+05 -1.008267e+00  -1.294713e-02
1.009987e+07 -1.000234e+00  5.379440e-03
2.009973e+07 -1.000612e+00  1.051468e-02
3.009960e+07 -9.996852e-01  1.573404e-02
4.009947e+07 -9.993010e-01  2.130007e-02
5.009933e+07 -9.990629e-01  2.671342e-02
6.009920e+07 -9.979688e-01  3.230451e-02
7.009907e+07 -9.994842e-01  3.716232e-02
8.009893e+07 -1.004178e+00  4.065710e-02
9.009880e+07 -9.980495e-01  4.787881e-02
1.000987e+08 -9.965626e-01  5.346066e-02
1.100985e+08 -1.000689e+00  5.665117e-02
1.200984e+08 -9.953861e-01  6.463533e-02
1.300983e+08 -1.001698e+00  6.573538e-02
1.400981e+08 -9.908600e-01  7.731837e-02
1.500980e+08 -1.000171e+00  7.659487e-02
1.600979e+08 -9.906412e-01  8.750830e-02
1.700977e+08 -9.967991e-01  8.782805e-02
1.800976e+08 -9.965551e-01  9.277738e-02
1.900975e+08 -9.973815e-01  9.625497e-02
2.000973e+08 -9.944812e-01  1.037647e-01
2.100972e+08 -9.888530e-01  1.151403e-01
2.200971e+08 -9.915983e-01  1.164920e-01
2.300969e+08 -9.922556e-01  1.199354e-01
2.400968e+08 -9.883584e-01  1.294410e-01
2.500967e+08 -9.932909e-01  1.257098e-01
2.600965e+08 -9.866937e-01  1.399980e-01
2.700964e+08 -9.893687e-01  1.394822e-01
2.800963e+08 -9.853848e-01  1.503278e-01
2.900961e+08 -9.829411e-01  1.602746e-01
3.000960e+08 -9.866779e-01  1.557310e-01
3.100959e+08 -9.844782e-01  1.608719e-01
3.200957e+08 -9.831818e-01  1.705859e-01
3.300956e+08 -9.829231e-01  1.695320e-01
3.400955e+08 -9.831265e-01  1.714407e-01
3.500953e+08 -9.804397e-01  1.885426e-01
3.600952e+08 -9.800112e-01  1.903217e-01
3.700951e+08 -9.789778e-01  1.921410e-01
3.800949e+08 -9.777071e-01  2.015904e-01
3.900948e+08 -9.772984e-01  2.074640e-01
4.000947e+08 -9.750046e-01  2.017550e-01
4.100945e+08 -9.742992e-01  2.091912e-01
4.200944e+08 -9.726102e-01  2.135098e-01
4.300943e+08 -9.717557e-01  2.190549e-01
4.400941e+08 -9.686628e-01  2.217312e-01
4.500940e+08 -9.693699e-01  2.312001e-01
4.600939e+08 -9.680971e-01  2.357059e-01
4.700937e+08 -9.658847e-01  2.388700e-01
4.800936e+08 -9.658624e-01  2.460523e-01
4.900935e+08 -9.672788e-01  2.564921e-01
5.000933e+08 -9.612570e-01  2.527827e-01
5.100932e+08 -9.664644e-01  2.674980e-01
5.200931e+08 -9.631475e-01  2.701923e-01
5.300929e+08 -9.593323e-01  2.715778e-01
5.400928e+08 -9.585024e-01  2.773320e-01
5.500927e+08 -9.568552e-01  2.823996e-01
5.600925e+08 -9.538123e-01  2.860048e-01
5.700924e+08 -9.578007e-01  2.957130e-01
5.800923e+08 -9.525979e-01  2.972463e-01
5.900921e+08 -9.517426e-01  3.028634e-01
6.000920e+08 -9.508382e-01  3.080623e-01
6.100919e+08 -9.490582e-01  3.124903e-01
6.200917e+08 -9.481148e-01  3.176599e-01
6.300916e+08 -9.446182e-01  3.217572e-01
6.400915e+08 -9.415606e-01  3.261104e-01
6.500913e+08 -9.409357e-01  3.310779e-01
6.600912e+08 -9.388789e-01  3.366767e-01
6.700911e+08 -9.370206e-01  3.408289e-01
6.800909e+08 -9.353313e-01  3.457931e-01
6.900908e+08 -9.340724e-01  3.503503e-01
7.000907e+08 -9.320332e-01  3.554972e-01
7.100905e+08 -9.302610e-01  3.602706e-01
7.200904e+08 -9.286578e-01  3.652797e-01
7.300903e+08 -9.277323e-01  3.701229e-01
7.400901e+08 -9.243216e-01  3.742529e-01
7.500900e+08 -9.247771e-01  3.792185e-01
7.600899e+08 -9.210642e-01  3.834794e-01
7.700897e+08 -9.172576e-01  3.887179e-01
7.800896e+08 -9.128416e-01  3.937693e-01
7.900895e+08 -9.130229e-01  3.991561e-01
8.000893e+08 -9.106780e-01  4.034597e-01
8.100892e+08 -9.126489e-01  4.072722e-01
8.200891e+08 -9.033334e-01  4.139358e-01
8.300889e+08 -9.079333e-01  4.173441e-01
8.400888e+08 -9.062446e-01  4.216873e-01
8.500887e+08 -9.027542e-01  4.261097e-01
8.600885e+08 -8.983208e-01  4.315713e-01
8.700884e+08 -8.947493e-01  4.372505e-01
8.800883e+08 -8.990550e-01  4.386126e-01
8.900881e+08 -8.922165e-01  4.443884e-01
9.000880e+08 -8.990664e-01  4.433469e-01
9.100879e+08 -8.930363e-01  4.484386e-01
9.200877e+08 -8.863544e-01  4.587568e-01
9.300876e+08 -8.849043e-01  4.602957e-01
9.400875e+08 -8.806013e-01  4.670839e-01
9.500873e+08 -8.778801e-01  4.727534e-01
9.600872e+08 -8.733863e-01  4.814837e-01
9.700871e+08 -8.721138e-01  4.841907e-01
9.800869e+08 -8.704315e-01  4.862664e-01
9.900868e+08 -8.725821e-01  4.838047e-01
1.000087e+09 -8.687281e-01  4.874853e-01
1.010087e+09 -8.636011e-01  4.977162e-01
1.020086e+09 -8.611640e-01  5.048260e-01
1.030086e+09 -8.579138e-01  5.092884e-01
1.040086e+09 -8.539308e-01  5.130511e-01
1.050086e+09 -8.509779e-01  5.165412e-01
1.060086e+09 -8.497497e-01  5.219370e-01
1.070086e+09 -8.471860e-01  5.218889e-01
1.080086e+09 -8.455275e-01  5.244454e-01
1.090085e+09 -8.410237e-01  5.356337e-01
1.100085e+09 -8.385189e-01  5.463362e-01
1.110085e+09 -8.350621e-01  5.497752e-01
1.120085e+09 -8.339369e-01  5.497780e-01
1.130085e+09 -8.314777e-01  5.523958e-01
1.140085e+09 -8.278806e-01  5.605820e-01
1.150085e+09 -8.255932e-01  5.663010e-01
1.160085e+09 -8.214895e-01  5.628021e-01
1.170084e+09 -8.175266e-01  5.643105e-01
1.180084e+09 -8.159612e-01  5.750476e-01
1.190084e+09 -8.125317e-01  5.768810e-01
1.200084e+09 -8.118492e-01  5.859411e-01
1.210084e+09 -8.070826e-01  5.860447e-01
1.220084e+09 -8.030293e-01  5.891930e-01
1.230084e+09 -8.019116e-01  5.984911e-01
1.240083e+09 -7.990354e-01  6.012510e-01
1.250083e+09 -7.926873e-01  6.007874e-01
1.260083e+09 -7.934433e-01  6.094637e-01
1.270083e+09 -7.891501e-01  6.125474e-01
1.280083e+09 -7.859455e-01  6.159854e-01
1.290083e+09 -7.815377e-01  6.186839e-01
1.300083e+09 -7.779504e-01  6.226604e-01
1.310083e+09 -7.759063e-01  6.272718e-01
1.320082e+09 -7.712225e-01  6.310389e-01
1.330082e+09 -7.702947e-01  6.365197e-01
1.340082e+09 -7.641873e-01  6.377273e-01
1.350082e+09 -7.617626e-01  6.430068e-01
1.360082e+09 -7.605044e-01  6.481182e-01
1.370082e+09 -7.523182e-01  6.496266e-01
1.380082e+09 -7.518363e-01  6.546994e-01
1.390081e+09 -7.485996e-01  6.591676e-01
1.400081e+09 -7.432359e-01  6.614464e-01
1.410081e+09 -7.441446e-01  6.672240e-01
1.420081e+09 -7.415927e-01  6.716608e-01
1.430081e+09 -7.344622e-01  6.744620e-01
1.440081e+09 -7.332364e-01  6.779871e-01
1.450081e+09 -7.294854e-01  6.820489e-01
1.460081e+09 -7.236238e-01  6.852578e-01
1.470080e+09 -7.180805e-01  6.894250e-01
1.480080e+09 -7.187721e-01  6.919363e-01
1.490080e+09 -7.173896e-01  6.956930e-01
1.500080e+09 -7.113407e-01  6.988756e-01
1.510080e+09 -7.108669e-01  7.039568e-01
1.520080e+09 -7.021609e-01  7.074469e-01
1.530080e+09 -6.927459e-01  7.128914e-01
1.540079e+09 -6.985217e-01  7.134436e-01
1.550079e+09 -6.920137e-01  7.181536e-01
1.560079e+09 -6.903090e-01  7.214152e-01
1.570079e+09 -6.928255e-01  7.234819e-01
1.580079e+09 -6.764032e-01  7.329866e-01
1.590079e+09 -6.756124e-01  7.325793e-01
1.600079e+09 -6.684965e-01  7.401513e-01
1.610079e+09 -6.693583e-01  7.387159e-01
1.620078e+09 -6.624912e-01  7.460391e-01
1.630078e+09 -6.664161e-01  7.426026e-01
1.640078e+09 -6.554094e-01  7.525558e-01
1.650078e+09 -6.459158e-01  7.618421e-01
1.660078e+09 -6.557020e-01  7.488121e-01
1.670078e+09 -6.529900e-01  7.517166e-01
1.680078e+09 -6.446908e-01  7.652732e-01
1.690077e+09 -6.410384e-01  7.617277e-01
1.700077e+09 -6.366849e-01  7.679802e-01
1.710077e+09 -6.304929e-01  7.751553e-01
1.720077e+09 -6.292841e-01  7.715264e-01
1.730077e+09 -6.241766e-01  7.790720e-01
1.740077e+09 -6.182368e-01  7.852530e-01
1.750077e+09 -6.122157e-01  7.918070e-01
1.760077e+09 -6.085220e-01  7.931881e-01
1.770076e+09 -6.023474e-01  8.004433e-01
1.780076e+09 -6.047974e-01  7.914166e-01
1.790076e+09 -6.018038e-01  7.929709e-01
1.800076e+09 -5.924772e-01  8.052062e-01
1.810076e+09 -5.893111e-01  8.007317e-01
1.820076e+09 -5.853811e-01  8.117843e-01
1.830076e+09 -5.798672e-01  8.181614e-01
1.840075e+09 -5.776158e-01  8.189568e-01
1.850075e+09 -5.737912e-01  8.180656e-01
1.860075e+09 -5.691328e-01  8.197303e-01
1.870075e+09 -5.641894e-01  8.233645e-01
1.880075e+09 -5.598178e-01  8.312479e-01
1.890075e+09 -5.565991e-01  8.322772e-01
1.900075e+09 -5.517813e-01  8.288558e-01
1.910075e+09 -5.482816e-01  8.359432e-01
1.920074e+09 -5.436875e-01  8.378256e-01
1.930074e+09 -5.400754e-01  8.421331e-01
1.940074e+09 -5.359543e-01  8.451918e-01
1.950074e+09 -5.312045e-01  8.468526e-01
1.960074e+09 -5.278199e-01  8.506142e-01
1.970074e+09 -5.222856e-01  8.514263e-01
1.980074e+09 -5.188511e-01  8.552209e-01
1.990073e+09 -5.128760e-01  8.568902e-01
2.000073e+09 -5.083356e-01  8.598049e-01
2.010073e+09 -5.049222e-01  8.611912e-01
2.020073e+09 -5.011573e-01  8.647436e-01
2.030073e+09 -4.942032e-01  8.654968e-01
2.040073e+09 -4.894867e-01  8.678846e-01
2.050073e+09 -4.881463e-01  8.731259e-01
2.060073e+09 -4.828637e-01  8.739069e-01
2.070072e+09 -4.803848e-01  8.765348e-01
2.080072e+09 -4.678589e-01  8.752206e-01
2.090072e+09 -4.669330e-01  8.797571e-01
2.100072e+09 -4.629105e-01  8.834323e-01
2.110072e+09 -4.621267e-01  8.871335e-01
2.120072e+09 -4.562337e-01  8.901757e-01
2.130072e+09 -4.516275e-01  8.920215e-01
2.140071e+09 -4.449494e-01  8.938907e-01
2.150071e+09 -4.385727e-01  8.950831e-01
2.160071e+09 -4.369991e-01  8.977020e-01
2.170071e+09 -4.338384e-01  8.988715e-01
2.180071e+09 -4.314582e-01  9.031968e-01
2.190071e+09 -4.197606e-01  9.072947e-01
2.200071e+09 -4.149589e-01  9.082074e-01
2.210071e+09 -4.087205e-01  9.097653e-01
2.220070e+09 -4.071199e-01  9.107266e-01
2.230070e+09 -4.041479e-01  9.137618e-01
2.240070e+09 -3.968232e-01  9.165578e-01
2.250070e+09 -3.878902e-01  9.149750e-01
2.260070e+09 -3.816424e-01  9.208414e-01
2.270070e+09 -3.907060e-01  9.201862e-01
2.280070e+09 -3.885877e-01  9.236947e-01
2.290069e+09 -3.761872e-01  9.246754e-01
2.300069e+09 -3.754920e-01  9.283604e-01
2.310069e+09 -3.567339e-01  9.317399e-01
2.320069e+09 -3.585247e-01  9.329136e-01
2.330069e+09 -3.558976e-01  9.328320e-01
2.340069e+09 -3.549810e-01  9.319431e-01
2.350069e+09 -3.422935e-01  9.381365e-01
2.360069e+09 -3.383561e-01  9.399693e-01
2.370068e+09 -3.397950e-01  9.384424e-01
2.380068e+09 -3.233110e-01  9.469474e-01
2.390068e+09 -3.251424e-01  9.440480e-01
2.400068e+09 -3.270740e-01  9.444326e-01
2.410068e+09 -3.176645e-01  9.489647e-01
2.420068e+09 -3.094071e-01  9.513935e-01
2.430068e+09 -3.013303e-01  9.563887e-01
2.440067e+09 -3.087481e-01  9.501257e-01
2.450067e+09 -2.993711e-01  9.547325e-01
2.460067e+09 -2.866098e-01  9.676568e-01
2.470067e+09 -2.847724e-01  9.613948e-01
2.480067e+09 -2.857345e-01  9.559650e-01
2.490067e+09 -2.786845e-01  9.629654e-01
2.500067e+09 -2.737058e-01  9.598217e-01
2.510067e+09 -2.675386e-01  9.623951e-01
2.520066e+09 -2.617087e-01  9.691657e-01
2.530066e+09 -2.590403e-01  9.611648e-01
2.540066e+09 -2.547556e-01  9.630050e-01
2.550066e+09 -2.482684e-01  9.703977e-01
2.560066e+09 -2.435880e-01  9.692334e-01
2.570066e+09 -2.389070e-01  9.678134e-01
2.580066e+09 -2.337602e-01  9.729799e-01
2.590065e+09 -2.283590e-01  9.782537e-01
2.600065e+09 -2.235454e-01  9.757548e-01
2.610065e+09 -2.191214e-01  9.740052e-01
2.620065e+09 -2.137764e-01  9.771999e-01
2.630065e+09 -2.084708e-01  9.736438e-01
2.640065e+09 -2.035165e-01  9.759619e-01
2.650065e+09 -1.993545e-01  9.808793e-01
2.660065e+09 -1.933823e-01  9.799228e-01
2.670064e+09 -1.878640e-01  9.807907e-01
2.680064e+09 -1.849381e-01  9.852275e-01
2.690064e+09 -1.778844e-01  9.851425e-01
2.700064e+09 -1.750640e-01  9.871722e-01
2.710064e+09 -1.649515e-01  9.840130e-01
2.720064e+09 -1.638613e-01  9.866050e-01
2.730064e+09 -1.605695e-01  9.878907e-01
2.740063e+09 -1.535241e-01  9.875109e-01
2.750063e+09 -1.468595e-01  9.848661e-01
2.760063e+09 -1.439306e-01  9.914008e-01
2.770063e+09 -1.381267e-01  9.914295e-01
2.780063e+09 -1.289590e-01  9.896484e-01
2.790063e+09 -1.279249e-01  9.918703e-01
2.800063e+09 -1.230986e-01  9.926470e-01
2.810063e+09 -1.211763e-01  9.983664e-01
2.820062e+09 -1.071479e-01  9.910625e-01
2.830062e+09 -1.075508e-01  9.971277e-01
2.840062e+09 -1.020519e-01  9.966723e-01
2.850062e+09 -9.808891e-02  9.988618e-01
2.860062e+09 -9.865039e-02  9.982049e-01
2.870062e+09 -8.498413e-02  9.954242e-01
2.880062e+09 -7.862644e-02  9.973074e-01
2.890061e+09 -7.138676e-02  9.947198e-01
2.900061e+09 -7.126099e-02  9.938139e-01
2.910061e+09 -6.749895e-02  9.986576e-01
2.920061e+09 -6.357174e-02  9.986195e-01
2.930061e+09 -5.571680e-02  9.970682e-01
2.940061e+09 -4.648022e-02  9.990356e-01
2.950061e+09 -5.202676e-02  1.001169e+00
2.960061e+09 -4.183156e-02  1.000962e+00
2.970060e+09 -3.647232e-02  9.993862e-01
2.980060e+09 -2.513377e-02  9.986720e-01
2.990060e+09 -1.808706e-02  1.002244e+00
3.000060e+09 -2.833229e-02  1.000908e+00
3.010060e+09 -1.077266e-02  1.002752e+00
3.020060e+09 -1.699760e-02  9.977841e-01
3.030060e+09 4.557862e-03  1.006612e+00
3.040059e+09 -8.078763e-04  9.997237e-01
3.050059e+09 1.995602e-03  1.005508e+00
3.060059e+09 2.093267e-02  1.005748e+00
3.070059e+09 9.095241e-03  9.967859e-01
3.080059e+09 1.945085e-02  1.004313e+00
3.090059e+09 3.398585e-02  1.003930e+00
3.100059e+09 2.986002e-02  1.005914e+00
3.110059e+09 4.251855e-02  1.005431e+00
3.120058e+09 3.657410e-02  9.941635e-01
3.130058e+09 4.187013e-02  9.982035e-01
3.140058e+09 5.284463e-02  1.000170e+00
3.150058e+09 5.083036e-02  9.957201e-01
3.160058e+09 6.106542e-02  9.990125e-01
3.170058e+09 6.228460e-02  9.950049e-01
3.180058e+09 7.403288e-02  1.003259e+00
3.190057e+09 7.960819e-02  9.987616e-01
3.200057e+09 8.120980e-02  9.967668e-01
3.210057e+09 8.508562e-02  9.960684e-01
3.220057e+09 9.371366e-02  9.987063e-01
3.230057e+09 9.889528e-02  9.979152e-01
3.240057e+09 1.036410e-01  9.991042e-01
3.250057e+09 1.060689e-01  9.908759e-01
3.260057e+09 1.136237e-01  9.988610e-01
3.270056e+09 1.174406e-01  9.914249e-01
3.280056e+09 1.220658e-01  9.938203e-01
3.290056e+09 1.275894e-01  9.891210e-01
3.300056e+09 1.325979e-01  9.892907e-01
3.310056e+09 1.379560e-01  9.919544e-01
3.320056e+09 1.419188e-01  9.921091e-01
3.330056e+09 1.481650e-01  9.867009e-01
3.340055e+09 1.541667e-01  9.867965e-01
3.350055e+09 1.560877e-01  9.913630e-01
3.360055e+09 1.629365e-01  9.857769e-01
3.370055e+09 1.655068e-01  9.907299e-01
3.380055e+09 1.737109e-01  9.793130e-01
3.390055e+09 1.774296e-01  9.875287e-01
3.400055e+09 1.843936e-01  9.803598e-01
3.410055e+09 1.896178e-01  9.825946e-01
3.420054e+09 1.922697e-01  9.825109e-01
3.430054e+09 2.005573e-01  9.786825e-01
3.440054e+09 2.015564e-01  9.824741e-01
3.450054e+09 2.094330e-01  9.758039e-01
3.460054e+09 2.161544e-01  9.744421e-01
3.470054e+09 2.137376e-01  9.822300e-01
3.480054e+09 2.213478e-01  9.761054e-01
3.490053e+09 2.355871e-01  9.689325e-01
3.500053e+09 2.319926e-01  9.713870e-01
3.510053e+09 2.421778e-01  9.715698e-01
3.520053e+09 2.474207e-01  9.686132e-01
3.530053e+09 2.509037e-01  9.663067e-01
3.540053e+09 2.522530e-01  9.701322e-01
3.550053e+09 2.616625e-01  9.634274e-01
3.560053e+09 2.588111e-01  9.599773e-01
3.570052e+09 2.706489e-01  9.631034e-01
3.580052e+09 2.650441e-01  9.655651e-01
3.590052e+09 2.682465e-01  9.603911e-01
3.600052e+09 2.757021e-01  9.618873e-01
3.610052e+09 2.837997e-01  9.575070e-01
3.620052e+09 2.884177e-01  9.508324e-01
3.630052e+09 2.955601e-01  9.568044e-01
3.640051e+09 2.903578e-01  9.562035e-01
3.650051e+09 3.100902e-01  9.516093e-01
3.660051e+09 3.077573e-01  9.504597e-01
3.670051e+09 3.126313e-01  9.504583e-01
3.680051e+09 3.189692e-01  9.501619e-01
3.690051e+09 3.343812e-01  9.456668e-01
3.700051e+09 3.270953e-01  9.449164e-01
3.710051e+09 3.279140e-01  9.442107e-01
3.720050e+09 3.432806e-01  9.399490e-01
3.730050e+09 3.378651e-01  9.402647e-01
3.740050e+09 3.399707e-01  9.361397e-01
3.750050e+09 3.606300e-01  9.341882e-01
3.760050e+09 3.603361e-01  9.329410e-01
3.770050e+09 3.617330e-01  9.312025e-01
3.780050e+09 3.706236e-01  9.319590e-01
3.790049e+09 3.782246e-01  9.288854e-01
3.800049e+09 3.810304e-01  9.283938e-01
3.810049e+09 3.825184e-01  9.259569e-01
3.820049e+09 3.905857e-01  9.251747e-01
3.830049e+09 4.025846e-01  9.249409e-01
3.840049e+09 3.932066e-01  9.166475e-01
3.850049e+09 3.979120e-01  9.144481e-01
3.860049e+09 4.085759e-01  9.153791e-01
3.870048e+09 4.134087e-01  9.140071e-01
3.880048e+09 4.192507e-01  9.117295e-01
3.890048e+09 4.218530e-01  9.096111e-01
3.900048e+09 4.257033e-01  9.045214e-01
3.910048e+09 4.294559e-01  9.020690e-01
3.920048e+09 4.377723e-01  9.054187e-01
3.930048e+09 4.398513e-01  8.972401e-01
3.940047e+09 4.452283e-01  8.990916e-01
3.950047e+09 4.528272e-01  9.007227e-01
3.960047e+09 4.545514e-01  8.899190e-01
3.970047e+09 4.578740e-01  8.861805e-01
3.980047e+09 4.641996e-01  8.910406e-01
3.990047e+09 4.673574e-01  8.891421e-01
4.000047e+09 4.728670e-01  8.830318e-01
4.010047e+09 4.758333e-01  8.817384e-01
4.020046e+09 4.813320e-01  8.768443e-01
4.030046e+09 4.837096e-01  8.829538e-01
4.040046e+09 4.890306e-01  8.724662e-01
4.050046e+09 4.915297e-01  8.708876e-01
4.060046e+09 4.981084e-01  8.602028e-01
4.070046e+09 5.089841e-01  8.608067e-01
4.080046e+09 5.068752e-01  8.608756e-01
4.090045e+09 5.121959e-01  8.550889e-01
4.100045e+09 5.191413e-01  8.464536e-01
4.110045e+09 5.195280e-01  8.631529e-01
4.120045e+09 5.289736e-01  8.490844e-01
4.130045e+09 5.372156e-01  8.493771e-01
4.140045e+09 5.346469e-01  8.472736e-01
4.150045e+09 5.420425e-01  8.415339e-01
4.160045e+09 5.421796e-01  8.403575e-01
4.170044e+09 5.504647e-01  8.380085e-01
4.180044e+09 5.528533e-01  8.371422e-01
4.190044e+09 5.552590e-01  8.271557e-01
4.200044e+09 5.611473e-01  8.272388e-01
4.210044e+09 5.647738e-01  8.286438e-01
4.220044e+09 5.679766e-01  8.201069e-01
4.230044e+09 5.782026e-01  8.175741e-01
4.240043e+09 5.731084e-01  8.164971e-01
4.250043e+09 5.776129e-01  8.155165e-01
4.260043e+09 5.838081e-01  8.140237e-01
4.270043e+09 5.855953e-01  8.138371e-01
4.280043e+09 5.908582e-01  8.017995e-01
4.290043e+09 6.032152e-01  7.950686e-01
4.300043e+09 6.051945e-01  7.987323e-01
4.310043e+09 6.046916e-01  7.988402e-01
4.320042e+09 6.073853e-01  7.897587e-01
4.330042e+09 6.225243e-01  7.832346e-01
4.340042e+09 6.189766e-01  7.889305e-01
4.350042e+09 6.181923e-01  7.849196e-01
4.360042e+09 6.417172e-01  7.756060e-01
4.370042e+09 6.333091e-01  7.711800e-01
4.380042e+09 6.364879e-01  7.761187e-01
4.390041e+09 6.371415e-01  7.704128e-01
4.400041e+09 6.403826e-01  7.652891e-01
4.410041e+09 6.546115e-01  7.627028e-01
4.420041e+09 6.491528e-01  7.626558e-01
4.430041e+09 6.451394e-01  7.583055e-01
4.440041e+09 6.568588e-01  7.520627e-01
4.450041e+09 6.610703e-01  7.484692e-01
4.460041e+09 6.713902e-01  7.432834e-01
4.470040e+09 6.702724e-01  7.413401e-01
4.480040e+09 6.740741e-01  7.413134e-01
4.490040e+09 6.847917e-01  7.356660e-01
4.500040e+09 6.811428e-01  7.328605e-01
4.510040e+09 6.807672e-01  7.274885e-01
4.520040e+09 6.924024e-01  7.264147e-01
4.530040e+09 6.919188e-01  7.218181e-01
4.540039e+09 7.012405e-01  7.216943e-01
4.550039e+09 7.020927e-01  7.174482e-01
4.560039e+09 7.052201e-01  7.127357e-01
4.570039e+09 7.040702e-01  7.069540e-01
4.580039e+09 7.117836e-01  7.080042e-01
4.590039e+09 7.129872e-01  7.018961e-01
4.600039e+09 7.197721e-01  7.011858e-01
4.610039e+09 7.196149e-01  6.920358e-01
4.620038e+09 7.265976e-01  6.917485e-01
4.630038e+09 7.281792e-01  6.884847e-01
4.640038e+09 7.284589e-01  6.804086e-01
4.650038e+09 7.359054e-01  6.794612e-01
4.660038e+09 7.347566e-01  6.699673e-01
4.670038e+09 7.409980e-01  6.704789e-01
4.680038e+09 7.435613e-01  6.622042e-01
4.690037e+09 7.525697e-01  6.662788e-01
4.700037e+09 7.541445e-01  6.585749e-01
4.710037e+09 7.546071e-01  6.528908e-01
4.720037e+09 7.645727e-01  6.522734e-01
4.730037e+09 7.625464e-01  6.478160e-01
4.740037e+09 7.620042e-01  6.419352e-01
4.750037e+09 7.632015e-01  6.394005e-01
4.760037e+09 7.713600e-01  6.376277e-01
4.770036e+09 7.773054e-01  6.434488e-01
4.780036e+09 7.783136e-01  6.336294e-01
4.790036e+09 7.815635e-01  6.207132e-01
4.800036e+09 7.824807e-01  6.177172e-01
4.810036e+09 7.931610e-01  6.210761e-01
4.820036e+09 7.982760e-01  6.263840e-01
4.830036e+09 7.916276e-01  6.142890e-01
4.840035e+09 8.006046e-01  6.067866e-01
4.850035e+09 7.939767e-01  6.040156e-01
4.860035e+09 8.023567e-01  5.921383e-01
4.870035e+09 8.049350e-01  5.942740e-01
4.880035e+09 8.121698e-01  5.862224e-01
4.890035e+09 8.137574e-01  5.865379e-01
