# Hz S RI R 50.000000
1.000000e+05 2.354242e-03  7.771112e-04
1.009987e+07 4.293376e-04  -4.118820e-03
2.009973e+07 -2.893536e-04  -1.639777e-04
3.009960e+07 2.760103e-04  -1.831930e-03
4.009947e+07 -5.219447e-04  9.979114e-04
5.009933e+07 7.762532e-04  -1.364115e-03
6.009920e+07 3.385341e-04  -1.051086e-03
7.009907e+07 6.058097e-04  -9.323480e-04
8.009893e+07 -1.676541e-03  1.154564e-03
9.009880e+07 -2.032037e-03  1.211047e-03
1.000987e+08 1.792593e-03  -1.476903e-03
1.100985e+08 -1.347883e-03  4.807819e-04
1.200984e+08 -2.333899e-03  5.968984e-04
1.300983e+08 -3.494692e-03  8.875813e-04
1.400981e+08 2.361813e-03  -9.910818e-04
1.500980e+08 4.452491e-03  -1.092101e-03
1.600979e+08 -1.239467e-03  -4.336825e-04
1.700977e+08 -3.722248e-04  -3.830303e-04
1.800976e+08 7.244600e-04  -2.977671e-04
1.900975e+08 -4.901668e-03  -1.390719e-03
2.000973e+08 -5.061388e-03  -1.896932e-03
2.100972e+08 2.043211e-03  7.029466e-04
2.200971e+08 1.203038e-03  5.465928e-04
2.300969e+08 2.223005e-03  1.269313e-03
2.400968e+08 -1.984677e-03  -1.881599e-03
2.500967e+08 -1.538503e-03  -1.600802e-03
2.600965e+08 -2.992945e-03  -2.905101e-03
2.700964e+08 2.590472e-04  2.751248e-05
2.800963e+08 -2.650043e-03  -3.802367e-03
2.900961e+08 -1.763908e-04  -3.311092e-06
3.000960e+08 4.288947e-04  7.877961e-04
3.100959e+08 6.947696e-04  1.644143e-03
3.200957e+08 1.011215e-03  3.835067e-03
3.300956e+08 -1.906477e-04  -2.260952e-03
3.400955e+08 7.249474e-04  2.436578e-03
3.500953e+08 4.587362e-04  3.948367e-03
3.600952e+08 -2.325743e-04  1.744313e-03
3.700951e+08 3.608675e-04  -2.008342e-04
3.800949e+08 2.245684e-03  -3.890582e-03
3.900948e+08 5.021531e-04  -1.635939e-04
4.000947e+08 -1.028929e-03  2.068493e-03
4.100945e+08 -5.330839e-04  1.098945e-03
4.200944e+08 -2.059140e-04  6.564231e-04
4.300943e+08 -2.249340e-04  1.443173e-04
4.400941e+08 7.555689e-03  -5.321675e-03
4.500940e+08 1.340949e-03  -1.061322e-03
4.600939e+08 -8.783965e-04  5.214663e-04
4.700937e+08 2.207136e-03  -7.143960e-04
4.800936e+08 -2.365252e-03  6.425814e-04
4.900935e+08 1.297282e-03  -3.883070e-04
5.000933e+08 -9.184967e-04  -5.255422e-04
5.100932e+08 -2.335647e-03  9.975468e-06
5.200931e+08 -9.938227e-04  -9.877794e-05
5.300929e+08 -1.592876e-03  -3.535996e-04
5.400928e+08 -1.748299e-03  -4.357155e-04
5.500927e+08 -6.780197e-04  -2.870474e-04
5.600925e+08 1.615597e-03  7.920609e-04
5.700924e+08 3.913662e-03  2.525214e-03
5.800923e+08 8.456766e-04  6.418143e-04
5.900921e+08 1.068567e-03  1.015804e-03
6.000920e+08 1.599020e-03  1.902830e-03
6.100919e+08 -1.818067e-03  -2.120729e-03
6.200917e+08 1.243161e-03  2.303301e-03
6.300916e+08 -6.240364e-04  -8.793459e-04
6.400915e+08 -2.194334e-03  -4.333000e-03
6.500913e+08 -9.420854e-04  -2.355244e-03
6.600912e+08 -2.115044e-04  9.336260e-05
6.700911e+08 -1.483810e-04  8.582393e-06
6.800909e+08 -2.606758e-04  -2.466908e-03
6.900908e+08 -2.786963e-04  1.242245e-03
7.000907e+08 -2.569123e-04  -7.949617e-04
7.100905e+08 -2.246437e-04  -9.169135e-05
7.200904e+08 8.005529e-04  -3.527848e-03
7.300903e+08 9.404210e-04  -2.584195e-03
7.400901e+08 -1.327773e-03  1.762933e-03
7.500900e+08 -1.584415e-03  1.858873e-03
7.600899e+08 -3.524244e-03  3.705160e-03
7.700897e+08 -8.284577e-04  2.298687e-04
7.800896e+08 -1.087735e-03  3.749589e-04
7.900895e+08 4.304711e-03  -3.620141e-03
8.000893e+08 1.474784e-03  -1.311513e-03
8.100892e+08 1.283278e-03  -1.171645e-03
8.200891e+08 1.620305e-03  -1.002846e-03
8.300889e+08 4.397187e-03  -1.506331e-03
8.400888e+08 3.546689e-03  -9.932139e-04
8.500887e+08 1.243947e-05  -5.558234e-04
8.600885e+08 -3.002572e-04  -4.288044e-04
8.700884e+08 4.071191e-04  -4.579295e-04
8.800883e+08 3.242792e-03  7.829155e-05
8.900881e+08 -3.662733e-03  -1.703214e-03
9.000880e+08 2.269399e-03  2.264814e-04
9.100879e+08 -5.909365e-03  -3.841401e-03
9.200877e+08 2.578056e-03  1.005324e-03
9.300876e+08 -3.778456e-03  -3.597002e-03
9.400875e+08 -1.326909e-03  -1.976000e-03
9.500873e+08 -3.032145e-06  -4.159173e-04
9.600872e+08 1.405529e-03  1.265423e-03
9.700871e+08 1.184771e-03  1.035528e-03
9.800869e+08 -4.294514e-04  -1.524814e-03
9.900868e+08 6.425906e-04  5.504709e-04
1.000087e+09 -5.131690e-04  -3.660074e-03
1.010087e+09 -8.618461e-05  -1.775597e-03
1.020086e+09 6.327670e-04  3.250667e-03
1.030086e+09 2.986237e-04  9.391233e-04
1.040086e+09 7.017360e-04  -4.932418e-03
1.050086e+09 1.312003e-03  -6.136089e-03
1.060086e+09 1.961692e-04  1.686993e-04
1.070086e+09 5.842901e-04  -1.074735e-03
1.080086e+09 -7.966750e-04  1.813450e-03
1.090085e+09 1.132996e-03  -1.375335e-03
1.100085e+09 2.394949e-04  6.866087e-05
1.110085e+09 1.722579e-03  -1.853017e-03
1.120085e+09 -1.980511e-03  1.864067e-03
1.130085e+09 -4.475466e-03  3.539816e-03
1.140085e+09 -6.598513e-04  5.183951e-04
1.150085e+09 -3.639332e-04  1.701314e-04
1.160085e+09 -2.931816e-03  1.108876e-03
1.170084e+09 -7.860159e-04  1.202144e-04
1.180084e+09 1.174290e-03  -3.337413e-04
1.190084e+09 -1.300885e-03  1.025830e-04
1.200084e+09 -2.725511e-03  -7.961868e-05
1.210084e+09 -1.822526e-03  -1.270688e-04
1.220084e+09 8.598065e-04  1.875686e-04
1.230084e+09 7.697927e-03  1.955074e-03
1.240083e+09 7.944218e-04  1.280072e-04
1.250083e+09 6.893388e-04  2.930477e-04
1.260083e+09 -1.825106e-04  -1.125581e-04
1.270083e+09 2.638125e-03  1.773377e-03
1.280083e+09 -6.254477e-04  -7.296480e-04
1.290083e+09 -1.859447e-03  -1.976214e-03
1.300083e+09 -2.899842e-03  -3.749725e-03
1.310083e+09 -3.818490e-04  -3.114795e-04
1.320082e+09 -1.324082e-03  -2.862162e-03
1.330082e+09 9.585087e-04  2.534274e-03
1.340082e+09 -1.474323e-03  -4.436863e-03
1.350082e+09 -1.313347e-03  -4.634680e-03
1.360082e+09 1.944368e-04  2.539789e-03
1.370082e+09 -2.569328e-04  -6.507174e-03
1.380082e+09 -4.905279e-05  -1.580926e-03
1.390081e+09 4.113152e-04  -3.814668e-03
1.400081e+09 3.143166e-05  -8.476945e-04
1.410081e+09 -5.273366e-04  6.021958e-04
1.420081e+09 7.055278e-05  -1.217750e-03
1.430081e+09 1.506268e-03  -3.554059e-03
1.440081e+09 -3.266017e-04  -5.692795e-05
1.450081e+09 4.799562e-04  -1.407273e-03
1.460081e+09 -3.406856e-04  -3.857493e-05
1.470080e+09 2.524597e-03  -2.679279e-03
1.480080e+09 -3.337063e-03  1.746854e-03
1.490080e+09 -2.774743e-03  1.224624e-03
1.500080e+09 -4.070092e-03  1.275266e-03
1.510080e+09 1.593301e-03  -8.904954e-04
1.520080e+09 -7.475101e-04  -4.141447e-04
1.530080e+09 1.656866e-03  -6.239819e-04
1.540079e+09 -2.149471e-03  -4.495096e-04
1.550079e+09 -8.212366e-05  -5.628532e-04
1.560079e+09 1.265450e-03  -3.898619e-04
1.570079e+09 4.855008e-03  4.379663e-04
1.580079e+09 3.238534e-03  4.464165e-04
1.590079e+09 -1.150394e-03  -1.286691e-03
1.600079e+09 2.215701e-03  2.941846e-04
1.610079e+09 -2.997853e-03  -2.816933e-03
1.620078e+09 9.528753e-04  -3.002779e-04
1.630078e+09 1.358056e-04  -7.532217e-04
1.640078e+09 5.615431e-04  -4.293300e-04
1.650078e+09 2.610574e-04  -8.269695e-04
1.660078e+09 -4.917247e-04  -2.555572e-03
1.670078e+09 7.629996e-04  5.002211e-04
1.680078e+09 2.821822e-03  6.348140e-03
1.690077e+09 7.189129e-05  -2.307372e-03
1.700077e+09 7.946599e-04  1.421673e-03
1.710077e+09 6.279594e-04  1.659380e-03
1.720077e+09 5.304809e-04  7.248063e-04
1.730077e+09 6.689413e-05  2.391983e-03
1.740077e+09 1.026354e-04  1.660593e-03
1.750077e+09 1.113412e-03  -1.452803e-03
1.760077e+09 1.105444e-03  -1.694861e-03
1.770076e+09 2.442891e-03  -3.675986e-03
1.780076e+09 -1.570142e-03  2.959764e-03
1.790076e+09 -3.590715e-03  5.055497e-03
1.800076e+09 2.290550e-03  -2.192160e-03
1.810076e+09 3.751798e-03  -2.892744e-03
1.820076e+09 -9.670263e-05  1.952129e-04
1.830076e+09 3.623260e-03  -1.950459e-03
1.840075e+09 -1.533635e-03  1.043877e-03
1.850075e+09 -1.080155e-03  5.710165e-04
1.860075e+09 2.370503e-04  1.739146e-04
1.870075e+09 2.700563e-03  -3.542780e-04
1.880075e+09 1.017705e-02  -5.555266e-04
1.890075e+09 2.321506e-03  1.346028e-04
1.900075e+09 -6.466017e-04  -4.197540e-05
1.910075e+09 -1.897058e-03  -2.165896e-04
1.920074e+09 -9.307262e-04  -4.244625e-04
1.930074e+09 -1.012184e-03  -5.957576e-04
1.940074e+09 9.360217e-04  4.620802e-04
1.950074e+09 -9.060124e-05  -2.522054e-04
1.960074e+09 8.225385e-05  -9.133437e-05
1.970074e+09 -2.606662e-04  -2.187022e-04
1.980074e+09 1.436125e-03  1.293146e-03
1.990073e+09 -1.360172e-03  -1.936666e-03
2.000073e+09 5.096138e-05  -3.759905e-04
2.010073e+09 8.986320e-04  1.698180e-03
2.020073e+09 2.832775e-05  2.138865e-04
2.030073e+09 -8.352170e-04  -3.119152e-03
2.040073e+09 -2.279682e-04  -2.276565e-03
2.050073e+09 3.767190e-04  2.193867e-03
2.060073e+09 1.546799e-04  1.740654e-03
2.070072e+09 -5.752448e-04  7.981188e-03
2.080072e+09 6.542380e-04  -3.600643e-03
2.090072e+09 -2.403421e-04  1.631751e-03
2.100072e+09 1.583857e-04  -4.155636e-04
2.110072e+09 -1.079398e-03  2.588510e-03
2.120072e+09 5.807464e-04  -8.890195e-04
2.130072e+09 9.778847e-06  -5.003101e-05
2.140071e+09 1.235001e-03  -1.800137e-03
2.150071e+09 9.735817e-04  -1.014730e-03
2.160071e+09 -1.137681e-03  5.965072e-04
2.170071e+09 -3.535268e-03  2.377755e-03
2.180071e+09 -8.713246e-04  2.831235e-04
2.190071e+09 6.941255e-03  -3.435471e-03
2.200071e+09 3.232559e-03  -1.514715e-03
2.210071e+09 2.595688e-03  -1.033686e-03
2.220070e+09 -2.132268e-04  -4.562589e-04
2.230070e+09 1.105313e-03  -4.998996e-04
2.240070e+09 3.228350e-03  -3.452661e-04
2.250070e+09 -5.696216e-03  -8.504652e-04
2.260070e+09 1.262225e-03  -2.690116e-04
2.270070e+09 -2.195108e-04  -7.930787e-04
2.280070e+09 3.367550e-03  7.350374e-04
2.290069e+09 -6.159938e-04  -1.099706e-03
2.300069e+09 3.504300e-03  1.472402e-03
2.310069e+09 -1.651276e-03  -2.156672e-03
2.320069e+09 4.603773e-04  -6.355728e-04
2.330069e+09 -6.592340e-04  -1.711602e-03
2.340069e+09 -1.000120e-03  -2.539669e-03
2.350069e+09 -8.364423e-04  -2.697949e-03
2.360069e+09 -6.295310e-04  -2.664882e-03
2.370068e+09 1.095120e-04  -1.100165e-03
2.380068e+09 -6.127611e-04  -4.174176e-03
2.390068e+09 -1.898104e-07  -3.798659e-03
2.400068e+09 8.881643e-04  2.827839e-03
2.410068e+09 6.513034e-04  7.214737e-04
2.420068e+09 6.307325e-04  -2.174343e-03
2.430068e+09 1.364512e-03  -4.387839e-03
2.440067e+09 -1.098221e-03  6.131911e-03
2.450067e+09 -3.240007e-04  2.488816e-03
2.460067e+09 -2.415217e-04  1.635807e-03
2.470067e+09 1.585008e-03  -1.654494e-03
2.480067e+09 -3.486118e-04  1.605527e-03
2.490067e+09 -2.601178e-03  3.545395e-03
2.500067e+09 1.547225e-03  -7.870611e-04
2.510067e+09 2.574392e-03  -1.520959e-03
2.520066e+09 2.616067e-03  -9.914405e-04
2.530066e+09 3.767631e-03  -1.495597e-03
2.540066e+09 -4.045558e-04  5.288114e-04
2.550066e+09 -3.115427e-04  4.683029e-04
2.560066e+09 1.611300e-03  -1.470208e-05
2.570066e+09 7.386507e-04  1.214785e-04
2.580066e+09 3.378635e-04  2.239390e-04
2.590065e+09 4.586824e-03  6.603856e-04
2.600065e+09 3.414354e-03  8.464018e-04
2.610065e+09 -3.310771e-03  -7.569368e-04
2.620065e+09 1.050357e-03  5.095331e-04
2.630065e+09 -6.643833e-03  -2.994658e-03
2.640065e+09 -4.298452e-03  -2.648930e-03
2.650065e+09 2.515391e-03  2.000750e-03
2.660065e+09 -4.829777e-04  -4.945245e-04
2.670064e+09 -1.461483e-03  -1.445246e-03
2.680064e+09 1.432218e-03  1.789410e-03
2.690064e+09 -6.415576e-04  -8.536224e-04
2.700064e+09 1.056558e-03  1.982342e-03
2.710064e+09 -3.457181e-03  -8.715824e-03
2.720064e+09 4.256692e-04  1.234969e-03
2.730064e+09 9.896916e-04  3.685461e-03
2.740063e+09 9.476318e-05  7.648395e-04
2.750063e+09 -1.747646e-04  4.463342e-05
2.760063e+09 -6.235853e-05  -7.562015e-04
2.770063e+09 1.142194e-04  -1.018913e-04
2.780063e+09 1.194861e-03  -4.691967e-03
2.790063e+09 -2.232719e-04  3.174826e-04
2.800063e+09 -1.951105e-04  5.581181e-04
2.810063e+09 3.069543e-04  -7.331189e-04
2.820062e+09 1.697397e-03  -2.802101e-03
2.830062e+09 1.786997e-03  -2.115805e-03
2.840062e+09 1.516902e-03  -1.517701e-03
2.850062e+09 2.566949e-03  -2.064703e-03
2.860062e+09 -2.531972e-03  1.390245e-03
2.870062e+09 -2.034346e-04  -1.933648e-05
2.880062e+09 2.805348e-03  -1.212450e-03
2.890061e+09 -6.033251e-04  -2.446018e-06
2.900061e+09 -4.640293e-03  8.010437e-04
2.910061e+09 3.309010e-04  -3.063589e-04
2.920061e+09 -2.230676e-04  -2.703733e-04
2.930061e+09 -1.994240e-03  -3.955605e-04
2.940061e+09 1.461341e-03  -1.173355e-04
2.950061e+09 2.774967e-03  2.379434e-05
2.960061e+09 2.707190e-03  6.475927e-04
2.970060e+09 2.157380e-04  -1.733084e-04
2.980060e+09 -1.194245e-03  -1.005004e-03
2.990060e+09 1.976765e-03  7.743564e-04
3.000060e+09 3.127113e-03  1.966751e-03
3.010060e+09 2.177345e-03  1.710672e-03
3.020060e+09 3.936099e-04  -4.538057e-04
3.030060e+09 2.531306e-04  4.840290e-04
3.040059e+09 -1.186955e-03  -2.605988e-03
3.050059e+09 2.181306e-03  5.943646e-03
3.060059e+09 -8.003386e-04  -2.178308e-03
3.070059e+09 -5.634942e-04  -1.751467e-03
3.080059e+09 3.062917e-04  3.915733e-03
3.090059e+09 6.326830e-05  -4.684334e-03
3.100059e+09 -6.702973e-04  8.609281e-03
3.110059e+09 2.153762e-04  -1.032646e-03
3.120058e+09 9.300043e-04  -2.708221e-03
3.130058e+09 -7.716639e-04  2.416156e-03
3.140058e+09 2.688702e-04  -4.794414e-04
3.150058e+09 -1.524919e-03  2.895414e-03
3.160058e+09 -5.603813e-04  1.409230e-03
3.170058e+09 -1.705439e-03  2.305040e-03
3.180058e+09 -1.857829e-03  2.393993e-03
3.190057e+09 4.324649e-03  -2.928524e-03
3.200057e+09 -4.945476e-04  7.791354e-04
3.210057e+09 -4.943020e-03  3.122737e-03
3.220057e+09 7.202206e-04  1.826416e-04
3.230057e+09 2.090310e-03  -1.369100e-04
3.240057e+09 -1.012821e-03  9.389467e-04
3.250057e+09 -2.021653e-03  1.005582e-03
3.260057e+09 4.255168e-03  5.055813e-04
3.270056e+09 4.648319e-04  6.706219e-04
3.280056e+09 -2.176612e-03  3.748515e-04
3.290056e+09 -3.916456e-03  -3.191595e-04
3.300056e+09 -2.343639e-03  -1.033688e-04
3.310056e+09 -1.015629e-03  5.518469e-04
3.320056e+09 1.674932e-03  2.157061e-03
3.330056e+09 -4.066034e-03  -2.082410e-03
3.340055e+09 -3.499814e-03  -1.878046e-03
3.350055e+09 2.542680e-03  3.894251e-03
3.360055e+09 -2.006856e-03  -1.125934e-03
3.370055e+09 1.437925e-03  4.370211e-03
3.380055e+09 -2.587891e-03  -2.439666e-03
3.390055e+09 -1.844407e-04  2.045308e-03
3.400055e+09 -1.281618e-03  -1.136142e-03
3.410055e+09 -1.543455e-03  -2.125364e-03
3.420054e+09 -1.051269e-03  3.034922e-04
3.430054e+09 -1.107336e-03  -3.387848e-03
3.440054e+09 -1.117232e-03  1.147085e-03
3.450054e+09 -7.492564e-04  -2.130260e-03
3.460054e+09 -2.943067e-04  -2.878909e-03
3.470054e+09 -1.962476e-03  2.490405e-03
3.480054e+09 -1.660741e-03  1.259068e-03
3.490053e+09 1.976119e-03  -5.467935e-03
3.500053e+09 -2.004920e-03  1.102400e-03
3.510053e+09 2.444797e-03  -4.616991e-03
3.520053e+09 1.542445e-03  -3.143627e-03
3.530053e+09 2.380875e-06  -1.553282e-03
3.540053e+09 1.441928e-03  -2.178247e-03
3.550053e+09 4.109282e-04  -1.224968e-03
3.560053e+09 -7.632418e-03  2.508842e-03
3.570052e+09 1.907096e-03  -1.557736e-03
3.580052e+09 -8.902457e-04  -6.316586e-04
3.590052e+09 -4.774713e-03  -8.727426e-05
3.600052e+09 -3.427255e-04  -8.798168e-04
3.610052e+09 -7.284978e-04  -5.187442e-04
3.620052e+09 -6.693150e-03  -1.743039e-03
3.630052e+09 3.259647e-03  -1.035817e-04
3.640051e+09 -4.930152e-05  -4.831924e-04
3.650051e+09 6.028526e-04  -3.201094e-04
3.660051e+09 -3.882446e-05  -6.853326e-04
3.670051e+09 1.900718e-03  1.048085e-03
3.680051e+09 3.453939e-03  2.083985e-03
3.690051e+09 5.870774e-05  -6.637143e-04
3.700051e+09 1.359174e-03  1.287627e-03
3.710051e+09 1.641009e-03  1.954762e-03
3.720050e+09 -1.111436e-03  -2.497846e-03
3.730050e+09 1.599869e-03  3.086745e-03
3.740050e+09 5.359930e-04  6.844572e-04
3.750050e+09 -1.076121e-03  -5.352385e-03
3.760050e+09 -1.295014e-05  -3.315710e-03
3.770050e+09 1.322381e-05  -1.571517e-03
3.780050e+09 7.776369e-05  1.169279e-03
3.790049e+09 5.607666e-04  -3.210335e-03
3.800049e+09 2.210729e-04  1.647746e-05
3.810049e+09 -1.152196e-03  3.618907e-03
3.820049e+09 -5.701347e-04  1.492367e-03
3.830049e+09 2.914850e-03  -4.420641e-03
3.840049e+09 -1.478285e-03  2.064791e-03
3.850049e+09 -3.076175e-03  3.427763e-03
3.860049e+09 4.822844e-04  -3.805266e-04
3.870048e+09 -7.970122e-04  6.697326e-04
3.880048e+09 2.599588e-03  -1.406658e-03
3.890048e+09 -6.252256e-04  5.061878e-04
3.900048e+09 8.173659e-04  -3.405424e-04
3.910048e+09 -4.065568e-03  1.452654e-03
3.920048e+09 1.591213e-03  -1.506149e-04
3.930048e+09 -5.377710e-04  5.990285e-05
3.940047e+09 1.811922e-03  1.589884e-04
3.950047e+09 6.364210e-03  7.508555e-04
3.960047e+09 -3.718134e-03  -3.566263e-04
3.970047e+09 -5.756547e-03  -1.299017e-03
3.980047e+09 1.729868e-03  6.833329e-04
3.990047e+09 2.928885e-03  1.710956e-03
4.000047e+09 -2.157765e-03  -8.522080e-04
4.010047e+09 -1.399072e-04  4.195291e-04
4.020046e+09 -2.470762e-03  -1.449536e-03
4.030046e+09 3.782839e-03  4.856885e-03
4.040046e+09 -1.111221e-04  8.489514e-04
4.050046e+09 2.451841e-03  3.706830e-03
4.060046e+09 -1.731686e-03  -1.903482e-03
4.070046e+09 -4.548366e-03  -8.983830e-03
4.080046e+09 -1.437838e-04  1.292276e-03
4.090045e+09 -9.017591e-04  -9.061823e-04
4.100045e+09 -1.668887e-03  -3.327385e-03
4.110045e+09 -5.622345e-04  2.803774e-03
4.120045e+09 -7.422843e-04  -3.697941e-03
4.130045e+09 1.948070e-04  -8.035203e-03
4.140045e+09 -1.171476e-03  -6.113632e-05
4.150045e+09 -1.015732e-04  -2.114382e-03
4.160045e+09 -1.923610e-03  1.782807e-03
4.170044e+09 3.491950e-04  -3.050351e-03
4.180044e+09 -4.095865e-04  -1.425999e-03
4.190044e+09 -3.460041e-03  3.082080e-03
4.200044e+09 -1.866809e-03  5.459500e-04
4.210044e+09 -1.083004e-03  -6.945817e-04
4.220044e+09 -3.628552e-03  1.700610e-03
4.230044e+09 -3.656259e-04  -1.291079e-03
4.240043e+09 -4.866576e-03  1.319239e-03
4.250043e+09 -2.470648e-03  -8.484956e-05
4.260043e+09 -3.437597e-04  -8.958881e-04
4.270043e+09 4.901581e-04  -1.383204e-03
4.280043e+09 -6.312209e-03  -2.580091e-04
4.290043e+09 -3.662049e-03  -9.377918e-04
4.300043e+09 1.200782e-03  -1.150238e-03
4.310043e+09 1.404710e-03  -8.493800e-04
4.320042e+09 -3.367522e-03  -1.854119e-03
4.330042e+09 -2.503206e-03  -1.833564e-03
4.340042e+09 3.491246e-03  4.207124e-04
4.350042e+09 1.345905e-03  -4.597861e-04
4.360042e+09 6.198925e-04  -4.782183e-04
4.370042e+09 -3.284085e-03  -3.323663e-03
4.380042e+09 3.002308e-03  1.651091e-03
4.390041e+09 1.128238e-03  5.965418e-04
4.400041e+09 -1.527451e-03  -2.622408e-03
4.410041e+09 6.681508e-04  -7.588621e-05
4.420041e+09 1.926953e-03  2.754405e-03
4.430041e+09 8.568513e-04  9.756131e-04
4.440041e+09 -3.042569e-04  -1.801454e-03
4.450041e+09 -3.125449e-04  -2.836528e-03
4.460041e+09 -3.499265e-04  -6.565873e-03
4.470040e+09 6.216304e-05  -1.682430e-03
4.480040e+09 1.605702e-04  9.956161e-04
4.490040e+09 1.691826e-03  -7.078643e-03
4.500040e+09 1.334831e-04  -7.151090e-05
4.510040e+09 1.289472e-03  -2.933860e-03
4.520040e+09 1.542037e-03  -2.959630e-03
4.530040e+09 2.051153e-03  -2.531822e-03
4.540039e+09 1.575225e-03  -2.221490e-03
4.550039e+09 1.206701e-03  -1.438253e-03
4.560039e+09 2.845942e-03  -2.447592e-03
4.570039e+09 -3.510561e-03  2.427853e-03
4.580039e+09 6.538189e-04  -4.309089e-04
4.590039e+09 6.935569e-04  -6.474564e-06
4.600039e+09 7.148849e-04  -1.168391e-04
4.610039e+09 -3.449118e-03  8.719819e-04
4.620038e+09 -1.720900e-03  5.480236e-04
4.630038e+09 9.878353e-04  3.035097e-04
4.640038e+09 -2.256977e-03  2.703438e-04
4.650038e+09 -1.102782e-03  4.223221e-04
4.660038e+09 -3.735754e-03  -1.290752e-04
4.670038e+09 -1.419803e-03  2.322295e-06
4.680038e+09 -4.278098e-03  -1.167662e-03
4.690037e+09 -1.181915e-03  1.332324e-04
4.700037e+09 -3.369092e-03  -1.482610e-03
4.710037e+09 -3.219020e-03  -1.397597e-03
4.720037e+09 -4.779115e-03  -3.254631e-03
4.730037e+09 -2.041941e-03  -6.352166e-04
4.740037e+09 -5.801170e-04  1.146105e-03
4.750037e+09 1.369077e-03  4.232078e-03
4.760037e+09 -7.958062e-04  9.603984e-04
4.770036e+09 -1.295480e-04  2.811515e-03
4.780036e+09 -1.014889e-03  1.033889e-03
4.790036e+09 -1.804507e-03  -2.453785e-03
4.800036e+09 -7.953166e-04  1.377735e-03
4.810036e+09 -1.569826e-03  -5.096221e-03
4.820036e+09 -4.581752e-04  -6.598101e-03
4.830036e+09 -1.614251e-03  1.447971e-03
4.840035e+09 1.256373e-05  -4.864235e-03
4.850035e+09 -3.216529e-03  4.529461e-03
