# Hz S RI R 50.000000
1.000000e+05 1.012989e+00  -3.147036e-03
1.009987e+07 1.000117e+00  -4.214116e-03
2.009973e+07 1.001117e+00  -1.504024e-02
3.009960e+07 1.000485e+00  -1.537750e-02
4.009947e+07 1.001177e+00  -2.200766e-02
5.009933e+07 1.001189e+00  -2.695181e-02
6.009920e+07 1.001106e+00  -2.857945e-02
7.009907e+07 9.989150e-01  -2.753090e-02
8.009893e+07 1.000999e+00  -3.645852e-02
9.009880e+07 9.952839e-01  -2.931625e-02
1.000987e+08 9.988804e-01  -4.011212e-02
1.100985e+08 9.971753e-01  -4.187489e-02
1.200984e+08 9.997840e-01  -5.037786e-02
1.300983e+08 9.998757e-01  -5.480574e-02
1.400981e+08 9.963861e-01  -5.430704e-02
1.500980e+08 9.950494e-01  -5.713070e-02
1.600979e+08 9.981110e-01  -6.472448e-02
1.700977e+08 9.988084e-01  -6.970903e-02
1.800976e+08 1.000425e+00  -7.476792e-02
1.900975e+08 9.981906e-01  -7.674449e-02
2.000973e+08 1.001228e+00  -8.289849e-02
2.100972e+08 9.987709e-01  -8.504564e-02
2.200971e+08 9.935848e-01  -8.587579e-02
2.300969e+08 9.971015e-01  -9.194197e-02
2.400968e+08 9.972517e-01  -9.605053e-02
2.500967e+08 9.947133e-01  -9.893677e-02
2.600965e+08 9.939894e-01  -1.028058e-01
2.700964e+08 9.926730e-01  -1.065246e-01
2.800963e+08 9.927377e-01  -1.108157e-01
2.900961e+08 9.954839e-01  -1.153747e-01
3.000960e+08 9.931232e-01  -1.189835e-01
3.100959e+08 9.923482e-01  -1.230761e-01
3.200957e+08 9.921323e-01  -1.269000e-01
3.300956e+08 9.915392e-01  -1.308665e-01
3.400955e+08 9.910929e-01  -1.347446e-01
3.500953e+08 9.907388e-01  -1.385525e-01
3.600952e+08 9.913289e-01  -1.425683e-01
3.700951e+08 9.897841e-01  -1.464602e-01
3.800949e+08 9.898389e-01  -1.501579e-01
3.900948e+08 9.903528e-01  -1.539203e-01
4.000947e+08 9.863306e-01  -1.579118e-01
4.100945e+08 9.882206e-01  -1.615520e-01
4.200944e+08 9.861958e-01  -1.660950e-01
4.300943e+08 9.899665e-01  -1.686762e-01
4.400941e+08 9.867614e-01  -1.731118e-01
4.500940e+08 9.835425e-01  -1.781295e-01
4.600939e+08 9.809214e-01  -1.827635e-01
4.700937e+08 9.862134e-01  -1.842608e-01
4.800936e+08 9.809435e-01  -1.905105e-01
4.900935e+08 9.776294e-01  -1.963194e-01
5.000933e+08 9.836048e-01  -1.958003e-01
5.100932e+08 9.831080e-01  -1.983431e-01
5.200931e+08 9.854950e-01  -1.991029e-01
5.300929e+08 9.828314e-01  -2.040333e-01
5.400928e+08 9.760406e-01  -2.134647e-01
5.500927e+08 9.743082e-01  -2.180187e-01
5.600925e+08 9.718043e-01  -2.245041e-01
5.700924e+08 9.765735e-01  -2.206452e-01
5.800923e+08 9.762969e-01  -2.230818e-01
5.900921e+08 9.737530e-01  -2.291804e-01
6.000920e+08 9.731011e-01  -2.319874e-01
6.100919e+08 9.719232e-01  -2.356348e-01
6.200917e+08 9.686259e-01  -2.450952e-01
6.300916e+08 9.690838e-01  -2.453245e-01
6.400915e+08 9.654020e-01  -2.571358e-01
6.500913e+08 9.660109e-01  -2.567325e-01
6.600912e+08 9.665359e-01  -2.520741e-01
6.700911e+08 9.658532e-01  -2.509914e-01
6.800909e+08 9.625718e-01  -2.728554e-01
6.900908e+08 9.620935e-01  -2.747966e-01
7.000907e+08 9.611973e-01  -2.758289e-01
7.100905e+08 9.599913e-01  -2.768264e-01
7.200904e+08 9.585059e-01  -2.769405e-01
7.300903e+08 9.593069e-01  -2.996103e-01
7.400901e+08 9.591625e-01  -3.051346e-01
7.500900e+08 9.547153e-01  -2.892395e-01
7.600899e+08 9.550243e-01  -2.993673e-01
7.700897e+08 9.537538e-01  -3.030098e-01
7.800896e+08 9.485977e-01  -2.951016e-01
7.900895e+08 9.499558e-01  -3.069591e-01
8.000893e+08 9.457901e-01  -3.043945e-01
8.100892e+08 9.468702e-01  -3.133599e-01
8.200891e+08 9.499997e-01  -3.252467e-01
8.300889e+08 9.520097e-01  -3.337407e-01
8.400888e+08 9.460883e-01  -3.301205e-01
8.500887e+08 9.420997e-01  -3.302422e-01
8.600885e+08 9.419904e-01  -3.353328e-01
8.700884e+08 9.411036e-01  -3.396108e-01
8.800883e+08 9.409682e-01  -3.444961e-01
8.900881e+08 9.386473e-01  -3.471543e-01
9.000880e+08 9.385721e-01  -3.521200e-01
9.100879e+08 9.347059e-01  -3.534263e-01
9.200877e+08 9.359947e-01  -3.591517e-01
9.300876e+08 9.336970e-01  -3.618862e-01
9.400875e+08 9.282101e-01  -3.636094e-01
9.500873e+08 9.294033e-01  -3.685735e-01
9.600872e+08 9.271626e-01  -3.719939e-01
9.700871e+08 9.277662e-01  -3.760556e-01
9.800869e+08 9.254920e-01  -3.795419e-01
9.900868e+08 9.238333e-01  -3.837184e-01
1.000087e+09 9.220463e-01  -3.867978e-01
1.010087e+09 9.203737e-01  -3.905526e-01
1.020086e+09 9.184790e-01  -3.938153e-01
1.030086e+09 9.191843e-01  -3.984991e-01
1.040086e+09 9.164131e-01  -4.014787e-01
1.050086e+09 9.151342e-01  -4.053978e-01
1.060086e+09 9.108628e-01  -4.083637e-01
1.070086e+09 9.109359e-01  -4.123243e-01
1.080086e+09 9.101887e-01  -4.160100e-01
1.090085e+09 9.118061e-01  -4.195678e-01
1.100085e+09 9.067782e-01  -4.230318e-01
1.110085e+09 9.054831e-01  -4.265029e-01
1.120085e+09 9.071816e-01  -4.296285e-01
1.130085e+09 9.081602e-01  -4.324354e-01
1.140085e+09 8.941099e-01  -4.384036e-01
1.150085e+09 8.990399e-01  -4.404212e-01
1.160085e+09 8.928993e-01  -4.454083e-01
1.170084e+09 8.983256e-01  -4.461364e-01
1.180084e+09 8.891466e-01  -4.527199e-01
1.190084e+09 8.938756e-01  -4.530475e-01
1.200084e+09 8.862584e-01  -4.597009e-01
1.210084e+09 8.819344e-01  -4.648606e-01
1.220084e+09 8.892753e-01  -4.620877e-01
1.230084e+09 8.841329e-01  -4.681652e-01
1.240083e+09 8.787047e-01  -4.744985e-01
1.250083e+09 8.799757e-01  -4.752206e-01
1.260083e+09 8.724825e-01  -4.841315e-01
1.270083e+09 8.719017e-01  -4.870844e-01
1.280083e+09 8.698956e-01  -4.905180e-01
1.290083e+09 8.749216e-01  -4.847182e-01
1.300083e+09 8.663406e-01  -4.977280e-01
1.310083e+09 8.673925e-01  -4.967426e-01
1.320082e+09 8.671335e-01  -4.962009e-01
1.330082e+09 8.617559e-01  -5.067740e-01
1.340082e+09 8.600139e-01  -5.101603e-01
1.350082e+09 8.594733e-01  -5.094197e-01
1.360082e+09 8.594920e-01  -5.048606e-01
1.370082e+09 8.574904e-01  -5.047146e-01
1.380082e+09 8.533373e-01  -5.178564e-01
1.390081e+09 8.510292e-01  -5.224084e-01
1.400081e+09 8.487750e-01  -5.267426e-01
1.410081e+09 8.466494e-01  -5.334048e-01
1.420081e+09 8.447444e-01  -5.370551e-01
1.430081e+09 8.425534e-01  -5.416539e-01
1.440081e+09 8.411545e-01  -5.518483e-01
1.450081e+09 8.385903e-01  -5.463279e-01
1.460081e+09 8.359980e-01  -5.469834e-01
1.470080e+09 8.342813e-01  -5.525627e-01
1.480080e+09 8.325383e-01  -5.571676e-01
1.490080e+09 8.289749e-01  -5.556834e-01
1.500080e+09 8.296841e-01  -5.669198e-01
1.510080e+09 8.266606e-01  -5.682774e-01
1.520080e+09 8.227135e-01  -5.674323e-01
1.530080e+09 8.212021e-01  -5.720657e-01
1.540079e+09 8.163054e-01  -5.704966e-01
1.550079e+09 8.132791e-01  -5.731015e-01
1.560079e+09 8.135591e-01  -5.803608e-01
1.570079e+09 8.114887e-01  -5.840889e-01
1.580079e+09 8.113802e-01  -5.895984e-01
1.590079e+09 8.077591e-01  -5.913968e-01
1.600079e+09 8.071569e-01  -5.961117e-01
1.610079e+09 8.021260e-01  -5.969297e-01
1.620078e+09 7.996277e-01  -5.999357e-01
1.630078e+09 7.980984e-01  -6.036488e-01
1.640078e+09 7.955346e-01  -6.067271e-01
1.650078e+09 7.932822e-01  -6.095521e-01
1.660078e+09 7.905504e-01  -6.128067e-01
1.670078e+09 7.881251e-01  -6.159490e-01
1.680078e+09 7.855869e-01  -6.189688e-01
1.690077e+09 7.832333e-01  -6.220599e-01
1.700077e+09 7.816177e-01  -6.257435e-01
1.710077e+09 7.772619e-01  -6.275798e-01
1.720077e+09 7.747576e-01  -6.307924e-01
1.730077e+09 7.722842e-01  -6.339021e-01
1.740077e+09 7.709845e-01  -6.374794e-01
1.750077e+09 7.685962e-01  -6.404187e-01
1.760077e+09 7.636322e-01  -6.428677e-01
1.770076e+09 7.582806e-01  -6.456469e-01
1.780076e+09 7.588530e-01  -6.492771e-01
1.790076e+09 7.604931e-01  -6.526458e-01
1.800076e+09 7.558757e-01  -6.554529e-01
1.810076e+09 7.561737e-01  -6.580907e-01
1.820076e+09 7.496433e-01  -6.614567e-01
1.830076e+09 7.455031e-01  -6.648154e-01
1.840075e+09 7.442474e-01  -6.673025e-01
1.850075e+09 7.384044e-01  -6.714041e-01
1.860075e+09 7.420062e-01  -6.720382e-01
1.870075e+09 7.285011e-01  -6.798547e-01
1.880075e+09 7.377678e-01  -6.770152e-01
1.890075e+09 7.300000e-01  -6.825987e-01
1.900075e+09 7.226289e-01  -6.886379e-01
1.910075e+09 7.294145e-01  -6.847904e-01
1.920074e+09 7.236090e-01  -6.898818e-01
1.930074e+09 7.128738e-01  -6.997625e-01
1.940074e+09 7.159556e-01  -6.974932e-01
1.950074e+09 7.151919e-01  -6.983485e-01
1.960074e+09 7.036139e-01  -7.107828e-01
1.970074e+09 7.088527e-01  -7.049903e-01
1.980074e+09 7.040312e-01  -7.098995e-01
1.990073e+09 6.998384e-01  -7.149500e-01
2.000073e+09 7.014041e-01  -7.111555e-01
2.010073e+09 6.969981e-01  -7.173357e-01
2.020073e+09 6.868619e-01  -7.327840e-01
2.030073e+09 6.908901e-01  -7.239645e-01
2.040073e+09 6.900054e-01  -7.220727e-01
2.050073e+09 6.855473e-01  -7.284913e-01
2.060073e+09 6.798504e-01  -7.401616e-01
2.070072e+09 6.798347e-01  -7.342367e-01
2.080072e+09 6.774158e-01  -7.355454e-01
2.090072e+09 6.748236e-01  -7.369366e-01
2.100072e+09 6.720522e-01  -7.389156e-01
2.110072e+09 6.689623e-01  -7.433183e-01
2.120072e+09 6.649975e-01  -7.547212e-01
2.130072e+09 6.630668e-01  -7.405172e-01
2.140071e+09 6.597498e-01  -7.537762e-01
2.150071e+09 6.570479e-01  -7.562149e-01
2.160071e+09 6.542183e-01  -7.607310e-01
2.170071e+09 6.508937e-01  -7.576296e-01
2.180071e+09 6.485339e-01  -7.647828e-01
2.190071e+09 6.453339e-01  -7.667869e-01
2.200071e+09 6.418494e-01  -7.666075e-01
2.210071e+09 6.389267e-01  -7.696519e-01
2.220070e+09 6.355832e-01  -7.714492e-01
2.230070e+09 6.319505e-01  -7.723315e-01
2.240070e+09 6.301348e-01  -7.779196e-01
2.250070e+09 6.266190e-01  -7.794252e-01
2.260070e+09 6.243845e-01  -7.832402e-01
2.270070e+09 6.191568e-01  -7.828908e-01
2.280070e+09 6.165851e-01  -7.862093e-01
2.290069e+09 6.143706e-01  -7.896057e-01
2.300069e+09 6.110019e-01  -7.919468e-01
2.310069e+09 6.067393e-01  -7.939242e-01
2.320069e+09 6.046884e-01  -7.968695e-01
2.330069e+09 6.018247e-01  -7.993513e-01
2.340069e+09 5.990105e-01  -8.027234e-01
2.350069e+09 5.960961e-01  -8.049730e-01
2.360069e+09 5.926542e-01  -8.065435e-01
2.370068e+09 5.883932e-01  -8.074935e-01
2.380068e+09 5.839994e-01  -8.086743e-01
2.390068e+09 5.798776e-01  -8.104809e-01
2.400068e+09 5.805305e-01  -8.162384e-01
2.410068e+09 5.772345e-01  -8.182238e-01
2.420068e+09 5.702830e-01  -8.181528e-01
2.430068e+09 5.703483e-01  -8.224162e-01
2.440067e+09 5.674351e-01  -8.250753e-01
2.450067e+09 5.676073e-01  -8.283074e-01
2.460067e+09 5.612692e-01  -8.292393e-01
2.470067e+09 5.572511e-01  -8.308838e-01
2.480067e+09 5.523750e-01  -8.328478e-01
2.490067e+09 5.460187e-01  -8.345168e-01
2.500067e+09 5.458531e-01  -8.373539e-01
2.510067e+09 5.393963e-01  -8.394992e-01
2.520066e+09 5.443809e-01  -8.416786e-01
2.530066e+09 5.413099e-01  -8.435276e-01
2.540066e+09 5.333148e-01  -8.459113e-01
2.550066e+09 5.251129e-01  -8.491204e-01
2.560066e+09 5.320638e-01  -8.484832e-01
2.570066e+09 5.289248e-01  -8.503782e-01
2.580066e+09 5.212572e-01  -8.538769e-01
2.590065e+09 5.158948e-01  -8.565299e-01
2.600065e+09 5.140683e-01  -8.576861e-01
2.610065e+09 5.056652e-01  -8.625048e-01
2.620065e+09 5.019017e-01  -8.651330e-01
2.630065e+09 5.006006e-01  -8.657104e-01
2.640065e+09 4.974503e-01  -8.679710e-01
2.650065e+09 5.009943e-01  -8.633491e-01
2.660065e+09 4.945398e-01  -8.677251e-01
2.670064e+09 4.899463e-01  -8.706689e-01
2.680064e+09 4.810186e-01  -8.790690e-01
2.690064e+09 4.851222e-01  -8.713940e-01
2.700064e+09 4.762748e-01  -8.805877e-01
2.710064e+09 4.715958e-01  -8.840791e-01
2.720064e+09 4.724391e-01  -8.787629e-01
2.730064e+09 4.660384e-01  -8.858988e-01
2.740063e+09 4.630959e-01  -8.875066e-01
2.750063e+09 4.609103e-01  -8.859121e-01
2.760063e+09 4.569588e-01  -8.888598e-01
2.770063e+09 4.530672e-01  -8.923722e-01
2.780063e+09 4.491025e-01  -8.956932e-01
2.790063e+09 4.459893e-01  -8.956908e-01
2.800063e+09 4.425589e-01  -8.968294e-01
2.810063e+09 4.387590e-01  -9.001401e-01
2.820062e+09 4.356795e-01  -8.995711e-01
2.830062e+09 4.315709e-01  -9.072853e-01
2.840062e+09 4.284645e-01  -9.054128e-01
2.850062e+09 4.247190e-01  -8.972997e-01
2.860062e+09 4.215597e-01  -9.064968e-01
2.870062e+09 4.180629e-01  -9.113573e-01
2.880062e+09 4.140866e-01  -9.103610e-01
2.890061e+09 4.112671e-01  -9.146547e-01
2.900061e+09 4.071785e-01  -9.142028e-01
2.910061e+09 4.030632e-01  -9.143836e-01
2.920061e+09 4.004211e-01  -9.186395e-01
2.930061e+09 3.966739e-01  -9.197042e-01
2.940061e+09 3.920396e-01  -9.192345e-01
2.950061e+09 3.870957e-01  -9.194490e-01
2.960061e+09 3.847432e-01  -9.226460e-01
2.970060e+09 3.819277e-01  -9.246734e-01
2.980060e+09 3.778819e-01  -9.262513e-01
2.990060e+09 3.741444e-01  -9.284078e-01
3.000060e+09 3.709310e-01  -9.280667e-01
3.010060e+09 3.671276e-01  -9.298604e-01
3.020060e+09 3.637471e-01  -9.339194e-01
3.030060e+09 3.594005e-01  -9.326731e-01
3.040059e+09 3.552861e-01  -9.334668e-01
3.050059e+09 3.510670e-01  -9.337786e-01
3.060059e+09 3.485046e-01  -9.371058e-01
3.070059e+09 3.451671e-01  -9.392690e-01
3.080059e+09 3.416340e-01  -9.406995e-01
3.090059e+09 3.362559e-01  -9.402572e-01
3.100059e+09 3.306187e-01  -9.398719e-01
3.110059e+09 3.303504e-01  -9.445792e-01
3.120058e+09 3.255110e-01  -9.450319e-01
3.130058e+09 3.288692e-01  -9.505243e-01
3.140058e+09 3.182944e-01  -9.481210e-01
3.150058e+09 3.215069e-01  -9.521890e-01
3.160058e+09 3.056472e-01  -9.487912e-01
3.170058e+09 3.178838e-01  -9.546599e-01
3.180058e+09 3.003741e-01  -9.526000e-01
3.190057e+09 2.982114e-01  -9.542890e-01
3.200057e+09 2.946738e-01  -9.554662e-01
3.210057e+09 2.941414e-01  -9.566878e-01
3.220057e+09 2.854583e-01  -9.579989e-01
3.230057e+09 2.793516e-01  -9.592673e-01
3.240057e+09 2.667179e-01  -9.616434e-01
3.250057e+09 2.733699e-01  -9.619513e-01
3.260057e+09 2.738046e-01  -9.620510e-01
3.270056e+09 2.732569e-01  -9.615654e-01
3.280056e+09 2.594676e-01  -9.655834e-01
3.290056e+09 2.642835e-01  -9.636044e-01
3.300056e+09 2.623353e-01  -9.631156e-01
3.310056e+09 2.491649e-01  -9.684759e-01
3.320056e+09 2.484346e-01  -9.678981e-01
3.330056e+09 2.427482e-01  -9.700680e-01
3.340055e+09 2.441334e-01  -9.669785e-01
3.350055e+09 2.333797e-01  -9.726819e-01
3.360055e+09 2.282437e-01  -9.752161e-01
3.370055e+09 2.267737e-01  -9.739909e-01
3.380055e+09 2.225185e-01  -9.751081e-01
3.390055e+09 2.199340e-01  -9.744970e-01
3.400055e+09 2.173138e-01  -9.740091e-01
3.410055e+09 2.102356e-01  -9.786696e-01
3.420054e+09 2.050964e-01  -9.819106e-01
3.430054e+09 2.025859e-01  -9.816407e-01
3.440054e+09 1.977560e-01  -9.846671e-01
3.450054e+09 1.951934e-01  -9.838311e-01
3.460054e+09 1.946143e-01  -9.776189e-01
3.470054e+09 1.887107e-01  -9.823260e-01
3.480054e+09 1.868861e-01  -9.785685e-01
3.490053e+09 1.817242e-01  -9.835761e-01
3.500053e+09 1.764220e-01  -9.905534e-01
3.510053e+09 1.739216e-01  -9.866065e-01
3.520053e+09 1.700260e-01  -9.893889e-01
3.530053e+09 1.670697e-01  -9.828362e-01
3.540053e+09 1.632137e-01  -9.885855e-01
3.550053e+09 1.593591e-01  -9.834539e-01
3.560053e+09 1.552690e-01  -9.842400e-01
3.570052e+09 1.519523e-01  -9.894884e-01
3.580052e+09 1.480579e-01  -9.894361e-01
3.590052e+09 1.445872e-01  -9.901020e-01
3.600052e+09 1.416204e-01  -9.917078e-01
3.610052e+09 1.369699e-01  -9.908937e-01
3.620052e+09 1.338485e-01  -9.916050e-01
3.630052e+09 1.294214e-01  -9.917858e-01
3.640051e+09 1.250665e-01  -9.924679e-01
3.650051e+09 1.211621e-01  -9.926394e-01
3.660051e+09 1.174952e-01  -9.926963e-01
3.670051e+09 1.134013e-01  -9.923703e-01
3.680051e+09 1.094364e-01  -9.929013e-01
3.690051e+09 1.054697e-01  -9.955622e-01
3.700051e+09 1.017283e-01  -9.938856e-01
3.710051e+09 9.727969e-02  -9.931433e-01
3.720050e+09 9.417971e-02  -9.961295e-01
3.730050e+09 8.943492e-02  -9.946524e-01
3.740050e+09 8.457898e-02  -9.932853e-01
3.750050e+09 8.258367e-02  -9.969241e-01
3.760050e+09 7.743010e-02  -9.950892e-01
3.770050e+09 7.539760e-02  -9.986582e-01
3.780050e+09 6.826219e-02  -9.941860e-01
3.790049e+09 6.517565e-02  -9.957215e-01
3.800049e+09 6.363126e-02  -9.983892e-01
3.810049e+09 5.245089e-02  -9.922734e-01
3.820049e+09 5.311409e-02  -9.963304e-01
3.830049e+09 4.700120e-02  -9.952330e-01
3.840049e+09 4.731284e-02  -9.982594e-01
3.850049e+09 4.376826e-02  -9.986900e-01
3.860049e+09 3.670855e-02  -9.974079e-01
3.870048e+09 3.329272e-02  -9.980011e-01
3.880048e+09 2.500078e-02  -9.967508e-01
3.890048e+09 2.734953e-02  -9.988925e-01
3.900048e+09 2.403420e-02  -9.992585e-01
3.910048e+09 9.423750e-03  -9.979563e-01
3.920048e+09 8.689064e-03  -9.983988e-01
3.930048e+09 1.343274e-02  -9.992700e-01
3.940047e+09 9.096499e-03  -9.996965e-01
3.950047e+09 1.949134e-03  -9.995411e-01
3.960047e+09 5.018656e-04  -9.993772e-01
3.970047e+09 -6.519000e-03  -1.000325e+00
3.980047e+09 -1.059752e-02  -1.000094e+00
3.990047e+09 -1.213693e-02  -9.997235e-01
4.000047e+09 -2.290528e-02  -1.002021e+00
4.010047e+09 -2.821017e-02  -1.003093e+00
4.020046e+09 -2.712699e-02  -1.000991e+00
4.030046e+09 -2.998997e-02  -1.000411e+00
4.040046e+09 -2.951131e-02  -9.972719e-01
4.050046e+09 -3.071086e-02  -9.955872e-01
4.060046e+09 -3.769071e-02  -9.975762e-01
4.070046e+09 -4.961210e-02  -1.002267e+00
4.080046e+09 -5.188825e-02  -1.001186e+00
4.090045e+09 -5.376888e-02  -9.995817e-01
4.100045e+09 -5.990236e-02  -1.001014e+00
4.110045e+09 -6.976520e-02  -1.007032e+00
4.120045e+09 -6.170406e-02  -9.937498e-01
4.130045e+09 -7.251553e-02  -1.001270e+00
4.140045e+09 -7.413098e-02  -9.982538e-01
4.150045e+09 -7.895405e-02  -9.985824e-01
4.160045e+09 -8.337102e-02  -9.998581e-01
4.170044e+09 -8.685195e-02  -9.983548e-01
4.180044e+09 -8.998111e-02  -9.967004e-01
4.190044e+09 -9.362035e-02  -9.956377e-01
4.200044e+09 -9.858556e-02  -9.980503e-01
4.210044e+09 -1.006424e-01  -9.927475e-01
4.220044e+09 -1.064281e-01  -1.000244e+00
4.230044e+09 -1.093556e-01  -9.954208e-01
4.240043e+09 -1.129839e-01  -9.951560e-01
4.250043e+09 -1.166105e-01  -9.907613e-01
4.260043e+09 -1.205538e-01  -9.930086e-01
4.270043e+09 -1.241634e-01  -9.919974e-01
4.280043e+09 -1.285239e-01  -9.904166e-01
4.290043e+09 -1.316612e-01  -9.915143e-01
4.300043e+09 -1.370493e-01  -9.901984e-01
4.310043e+09 -1.394504e-01  -9.902422e-01
4.320042e+09 -1.429140e-01  -9.893721e-01
4.330042e+09 -1.476162e-01  -9.892645e-01
4.340042e+09 -1.507985e-01  -9.883978e-01
4.350042e+09 -1.542069e-01  -9.862512e-01
4.360042e+09 -1.588226e-01  -9.877593e-01
4.370042e+09 -1.620823e-01  -9.838183e-01
4.380042e+09 -1.661826e-01  -9.856823e-01
4.390041e+09 -1.701815e-01  -9.796977e-01
4.400041e+09 -1.735383e-01  -9.868134e-01
4.410041e+09 -1.779802e-01  -9.828949e-01
4.420041e+09 -1.817510e-01  -9.817324e-01
4.430041e+09 -1.853468e-01  -9.824354e-01
4.440041e+09 -1.912074e-01  -9.769288e-01
4.450041e+09 -1.921479e-01  -9.828977e-01
4.460041e+09 -1.974798e-01  -9.784380e-01
4.470040e+09 -2.042049e-01  -9.731891e-01
4.480040e+09 -2.041718e-01  -9.782300e-01
4.490040e+09 -2.064705e-01  -9.794665e-01
4.500040e+09 -2.122579e-01  -9.759131e-01
4.510040e+09 -2.145498e-01  -9.763064e-01
4.520040e+09 -2.268026e-01  -9.681302e-01
4.530040e+09 -2.285002e-01  -9.691843e-01
4.540039e+09 -2.300294e-01  -9.705426e-01
4.550039e+09 -2.309444e-01  -9.717706e-01
4.560039e+09 -2.337815e-01  -9.711891e-01
4.570039e+09 -2.458042e-01  -9.655774e-01
4.580039e+09 -2.437665e-01  -9.680218e-01
4.590039e+09 -2.422151e-01  -9.691288e-01
4.600039e+09 -2.566441e-01  -9.645887e-01
4.610039e+09 -2.591284e-01  -9.639013e-01
4.620038e+09 -2.727594e-01  -9.608907e-01
4.630038e+09 -2.604622e-01  -9.632178e-01
4.640038e+09 -2.605317e-01  -9.625752e-01
4.650038e+09 -2.749667e-01  -9.604776e-01
4.660038e+09 -2.632729e-01  -9.599358e-01
4.670038e+09 -2.814556e-01  -9.588158e-01
4.680038e+09 -2.752951e-01  -9.567980e-01
4.690037e+09 -2.966544e-01  -9.579984e-01
4.700037e+09 -2.908674e-01  -9.557260e-01
4.710037e+09 -2.926597e-01  -9.546331e-01
4.720037e+09 -3.020981e-01  -9.547293e-01
4.730037e+09 -3.019799e-01  -9.527163e-01
4.740037e+09 -2.961931e-01  -9.479558e-01
4.750037e+09 -3.071502e-01  -9.500401e-01
4.760037e+09 -3.040403e-01  -9.445893e-01
4.770036e+09 -3.191848e-01  -9.495892e-01
4.780036e+09 -3.198443e-01  -9.468209e-01
4.790036e+09 -3.251601e-01  -9.466160e-01
4.800036e+09 -3.272029e-01  -9.441186e-01
4.810036e+09 -3.283226e-01  -9.404069e-01
4.820036e+09 -3.426987e-01  -9.488481e-01
4.830036e+09 -3.411635e-01  -9.424013e-01
4.840035e+09 -3.439774e-01  -9.404685e-01
