# Hz S RI R 50.000000
! FREQ                re:S1  1             im:S1  1  
1.000000e+05 -1.010008e+00  -1.197468e-02
1.009987e+07 -1.000065e+00  4.054972e-03
2.009973e+07 -1.000596e+00  7.827544e-03
3.009960e+07 -9.995849e-01  1.171591e-02
4.009947e+07 -9.993347e-01  1.597445e-02
5.009933e+07 -9.994006e-01  1.996111e-02
6.009920e+07 -9.981565e-01  2.432531e-02
7.009907e+07 -1.000265e+00  2.771828e-02
8.009893e+07 -1.004546e+00  3.006168e-02
9.009880e+07 -9.989278e-01  3.596251e-02
1.000987e+08 -9.976511e-01  4.021590e-02
1.100985e+08 -1.002116e+00  4.197559e-02
1.200984e+08 -9.974049e-01  4.861431e-02
1.300983e+08 -1.003000e+00  4.885044e-02
1.400981e+08 -9.923907e-01  5.939308e-02
1.500980e+08 -1.002214e+00  5.677536e-02
1.600979e+08 -9.926534e-01  6.731416e-02
1.700977e+08 -9.993841e-01  6.591472e-02
1.800976e+08 -9.992714e-01  6.970542e-02
1.900975e+08 -1.000438e+00  7.215606e-02
2.000973e+08 -9.981116e-01  7.844197e-02
2.100972e+08 -9.932860e-01  8.805029e-02
2.200971e+08 -9.966641e-01  8.740815e-02
2.300969e+08 -9.966060e-01  9.096522e-02
2.400968e+08 -9.936509e-01  9.936964e-02
2.500967e+08 -9.981419e-01  9.477388e-02
2.600965e+08 -9.923699e-01  1.084394e-01
2.700964e+08 -9.953671e-01  1.053730e-01
2.800963e+08 -9.922909e-01  1.151669e-01
2.900961e+08 -9.896139e-01  1.255016e-01
3.000960e+08 -9.933048e-01  1.191262e-01
3.100959e+08 -9.914149e-01  1.229061e-01
3.200957e+08 -9.906120e-01  1.311506e-01
3.300956e+08 -9.907009e-01  1.293819e-01
3.400955e+08 -9.907016e-01  1.292851e-01
3.500953e+08 -9.890775e-01  1.458806e-01
3.600952e+08 -9.889101e-01  1.461504e-01
3.700951e+08 -9.881896e-01  1.465328e-01
3.800949e+08 -9.883164e-01  1.557221e-01
3.900948e+08 -9.879549e-01  1.606007e-01
4.000947e+08 -9.849878e-01  1.528345e-01
4.100945e+08 -9.855014e-01  1.604963e-01
4.200944e+08 -9.842787e-01  1.637837e-01
4.300943e+08 -9.836971e-01  1.672886e-01
4.400941e+08 -9.817108e-01  1.686344e-01
4.500940e+08 -9.829333e-01  1.774034e-01
4.600939e+08 -9.822260e-01  1.813156e-01
4.700937e+08 -9.804145e-01  1.829639e-01
4.800936e+08 -9.809612e-01  1.893099e-01
4.900935e+08 -9.835625e-01  1.978335e-01
5.000933e+08 -9.774852e-01  1.941615e-01
5.100932e+08 -9.842584e-01  2.077966e-01
5.200931e+08 -9.817285e-01  2.097064e-01
5.300929e+08 -9.777625e-01  2.098745e-01
5.400928e+08 -9.776438e-01  2.145948e-01
5.500927e+08 -9.762444e-01  2.180957e-01
5.600925e+08 -9.731900e-01  2.204000e-01
5.700924e+08 -9.781119e-01  2.281581e-01
5.800923e+08 -9.739485e-01  2.298309e-01
5.900921e+08 -9.735155e-01  2.340384e-01
6.000920e+08 -9.732757e-01  2.381527e-01
6.100919e+08 -9.725740e-01  2.419742e-01
6.200917e+08 -9.717705e-01  2.456473e-01
6.300916e+08 -9.693238e-01  2.491222e-01
6.400915e+08 -9.670892e-01  2.528027e-01
6.500913e+08 -9.669758e-01  2.566063e-01
6.600912e+08 -9.657881e-01  2.611338e-01
6.700911e+08 -9.646832e-01  2.643216e-01
6.800909e+08 -9.632992e-01  2.679906e-01
6.900908e+08 -9.621262e-01  2.717394e-01
7.000907e+08 -9.614900e-01  2.758183e-01
7.100905e+08 -9.604839e-01  2.797021e-01
7.200904e+08 -9.597948e-01  2.834744e-01
7.300903e+08 -9.594225e-01  2.872840e-01
7.400901e+08 -9.555596e-01  2.911223e-01
7.500900e+08 -9.576205e-01  2.948140e-01
7.600899e+08 -9.542067e-01  2.986732e-01
7.700897e+08 -9.517757e-01  3.027075e-01
7.800896e+08 -9.492373e-01  3.068996e-01
7.900895e+08 -9.505654e-01  3.102158e-01
8.000893e+08 -9.488915e-01  3.139602e-01
8.100892e+08 -9.512485e-01  3.164462e-01
8.200891e+08 -9.416324e-01  3.237256e-01
8.300889e+08 -9.479004e-01  3.241301e-01
8.400888e+08 -9.471085e-01  3.275188e-01
8.500887e+08 -9.438660e-01  3.321877e-01
8.600885e+08 -9.409211e-01  3.367923e-01
8.700884e+08 -9.386799e-01  3.413932e-01
8.800883e+08 -9.428322e-01  3.405236e-01
8.900881e+08 -9.372522e-01  3.479481e-01
9.000880e+08 -9.435769e-01  3.431408e-01
9.100879e+08 -9.395373e-01  3.498563e-01
9.200877e+08 -9.336567e-01  3.581828e-01
9.300876e+08 -9.338227e-01  3.600243e-01
9.400875e+08 -9.299663e-01  3.666259e-01
9.500873e+08 -9.285991e-01  3.702202e-01
9.600872e+08 -9.248283e-01  3.789669e-01
9.700871e+08 -9.244682e-01  3.804695e-01
9.800869e+08 -9.243139e-01  3.814734e-01
9.900868e+08 -9.255215e-01  3.774778e-01
1.000087e+09 -9.231636e-01  3.824852e-01
1.010087e+09 -9.198189e-01  3.914481e-01
1.020086e+09 -9.178077e-01  3.971489e-01
1.030086e+09 -9.163175e-01  4.004044e-01
1.040086e+09 -9.147238e-01  4.031496e-01
1.050086e+09 -9.128853e-01  4.068406e-01
1.060086e+09 -9.115439e-01  4.110584e-01
1.070086e+09 -9.094075e-01  4.103378e-01
1.080086e+09 -9.075336e-01  4.110651e-01
1.090085e+09 -9.064816e-01  4.224859e-01
1.100085e+09 -9.058216e-01  4.323773e-01
1.110085e+09 -9.038987e-01  4.346671e-01
1.120085e+09 -9.017266e-01  4.345478e-01
1.130085e+09 -8.999884e-01  4.379444e-01
1.140085e+09 -8.987987e-01  4.433850e-01
1.150085e+09 -8.979730e-01  4.481985e-01
1.160085e+09 -8.932556e-01  4.455178e-01
1.170084e+09 -8.903874e-01  4.463295e-01
1.180084e+09 -8.911772e-01  4.549999e-01
1.190084e+09 -8.887501e-01  4.579225e-01
1.200084e+09 -8.897875e-01  4.651813e-01
1.210084e+09 -8.852454e-01  4.648244e-01
1.220084e+09 -8.823248e-01  4.672989e-01
1.230084e+09 -8.825650e-01  4.731629e-01
1.240083e+09 -8.815526e-01  4.775154e-01
1.250083e+09 -8.753707e-01  4.771395e-01
1.260083e+09 -8.781032e-01  4.841165e-01
1.270083e+09 -8.741790e-01  4.862003e-01
1.280083e+09 -8.729585e-01  4.901065e-01
1.290083e+09 -8.702724e-01  4.932071e-01
1.300083e+09 -8.677822e-01  4.965582e-01
1.310083e+09 -8.664965e-01  4.999840e-01
1.320082e+09 -8.640060e-01  5.038461e-01
1.330082e+09 -8.623650e-01  5.072532e-01
1.340082e+09 -8.592982e-01  5.093778e-01
1.350082e+09 -8.586173e-01  5.140155e-01
1.360082e+09 -8.572370e-01  5.177730e-01
1.370082e+09 -8.532924e-01  5.200970e-01
1.380082e+09 -8.515484e-01  5.237296e-01
1.390081e+09 -8.505720e-01  5.274512e-01
1.400081e+09 -8.452460e-01  5.299905e-01
1.410081e+09 -8.471869e-01  5.342891e-01
1.420081e+09 -8.461892e-01  5.378418e-01
1.430081e+09 -8.411559e-01  5.405916e-01
1.440081e+09 -8.392130e-01  5.439291e-01
1.450081e+09 -8.382265e-01  5.471998e-01
1.460081e+09 -8.335285e-01  5.509053e-01
1.470080e+09 -8.305458e-01  5.542131e-01
1.480080e+09 -8.297425e-01  5.575101e-01
1.490080e+09 -8.307668e-01  5.598815e-01
1.500080e+09 -8.248163e-01  5.641639e-01
1.510080e+09 -8.273385e-01  5.656991e-01
1.520080e+09 -8.197681e-01  5.710760e-01
1.530080e+09 -8.126436e-01  5.766036e-01
1.540079e+09 -8.196062e-01  5.752169e-01
1.550079e+09 -8.143350e-01  5.798012e-01
1.560079e+09 -8.123407e-01  5.828891e-01
1.570079e+09 -8.164801e-01  5.805006e-01
1.580079e+09 -8.032236e-01  5.933207e-01
1.590079e+09 -8.031468e-01  5.942915e-01
1.600079e+09 -7.978868e-01  6.008298e-01
1.610079e+09 -8.004466e-01  5.988885e-01
1.620078e+09 -7.947705e-01  6.060175e-01
1.630078e+09 -7.985149e-01  5.995965e-01
1.640078e+09 -7.901460e-01  6.128698e-01
1.650078e+09 -7.842828e-01  6.228307e-01
1.660078e+09 -7.911099e-01  6.067970e-01
1.670078e+09 -7.881836e-01  6.090981e-01
1.680078e+09 -7.824843e-01  6.210591e-01
1.690077e+09 -7.816505e-01  6.181694e-01
1.700077e+09 -7.780640e-01  6.248154e-01
1.710077e+09 -7.746091e-01  6.327502e-01
1.720077e+09 -7.728746e-01  6.302416e-01
1.730077e+09 -7.700635e-01  6.356308e-01
1.740077e+09 -7.669641e-01  6.442799e-01
1.750077e+09 -7.645761e-01  6.508193e-01
1.760077e+09 -7.620133e-01  6.509496e-01
1.770076e+09 -7.596403e-01  6.578715e-01
1.780076e+09 -7.567367e-01  6.489270e-01
1.790076e+09 -7.539713e-01  6.512579e-01
1.800076e+09 -7.520948e-01  6.614359e-01
1.810076e+09 -7.483465e-01  6.568799e-01
1.820076e+09 -7.471001e-01  6.689843e-01
1.830076e+09 -7.450354e-01  6.729222e-01
1.840075e+09 -7.426473e-01  6.760564e-01
1.850075e+09 -7.391415e-01  6.752112e-01
1.860075e+09 -7.360760e-01  6.773713e-01
1.870075e+09 -7.324878e-01  6.786411e-01
1.880075e+09 -7.315399e-01  6.842723e-01
1.890075e+09 -7.286393e-01  6.873291e-01
1.900075e+09 -7.235218e-01  6.857545e-01
1.910075e+09 -7.237556e-01  6.936822e-01
1.920074e+09 -7.201808e-01  6.951718e-01
1.930074e+09 -7.178203e-01  6.982952e-01
1.940074e+09 -7.154939e-01  7.013734e-01
1.950074e+09 -7.122724e-01  7.035617e-01
1.960074e+09 -7.094479e-01  7.061314e-01
1.970074e+09 -7.059728e-01  7.085965e-01
1.980074e+09 -7.034289e-01  7.111863e-01
1.990073e+09 -7.001002e-01  7.144662e-01
2.000073e+09 -6.974164e-01  7.176693e-01
2.010073e+09 -6.937701e-01  7.184831e-01
2.020073e+09 -6.907878e-01  7.213647e-01
2.030073e+09 -6.882012e-01  7.244423e-01
2.040073e+09 -6.850230e-01  7.270403e-01
2.050073e+09 -6.833056e-01  7.307249e-01
2.060073e+09 -6.778140e-01  7.318746e-01
2.070072e+09 -6.755744e-01  7.351447e-01
2.080072e+09 -6.692439e-01  7.362065e-01
2.090072e+09 -6.684801e-01  7.401720e-01
2.100072e+09 -6.670691e-01  7.434723e-01
2.110072e+09 -6.661892e-01  7.465984e-01
2.120072e+09 -6.628347e-01  7.494436e-01
2.130072e+09 -6.613154e-01  7.519448e-01
2.140071e+09 -6.557120e-01  7.542795e-01
2.150071e+09 -6.501168e-01  7.567169e-01
2.160071e+09 -6.499912e-01  7.595460e-01
2.170071e+09 -6.468038e-01  7.619087e-01
2.180071e+09 -6.477075e-01  7.641337e-01
2.190071e+09 -6.402775e-01  7.671532e-01
2.200071e+09 -6.367922e-01  7.699526e-01
2.210071e+09 -6.313141e-01  7.730895e-01
2.220070e+09 -6.307075e-01  7.748038e-01
2.230070e+09 -6.298475e-01  7.766551e-01
2.240070e+09 -6.241349e-01  7.801893e-01
2.250070e+09 -6.163098e-01  7.852875e-01
2.260070e+09 -6.114233e-01  7.892858e-01
2.270070e+09 -6.211066e-01  7.836871e-01
2.280070e+09 -6.196316e-01  7.849579e-01
2.290069e+09 -6.102624e-01  7.912480e-01
2.300069e+09 -6.104323e-01  7.906876e-01
2.310069e+09 -5.966988e-01  8.030006e-01
2.320069e+09 -5.976674e-01  8.018537e-01
2.330069e+09 -5.966996e-01  8.017302e-01
2.340069e+09 -5.961945e-01  8.009285e-01
2.350069e+09 -5.874274e-01  8.107470e-01
2.360069e+09 -5.849176e-01  8.121327e-01
2.370068e+09 -5.856579e-01  8.080233e-01
2.380068e+09 -5.764204e-01  8.211915e-01
2.390068e+09 -5.769814e-01  8.168423e-01
2.400068e+09 -5.753710e-01  8.147631e-01
2.410068e+09 -5.702983e-01  8.212059e-01
2.420068e+09 -5.661237e-01  8.266077e-01
2.430068e+09 -5.623842e-01  8.324355e-01
2.440067e+09 -5.611116e-01  8.250757e-01
2.450067e+09 -5.569291e-01  8.319965e-01
2.460067e+09 -5.519266e-01  8.472335e-01
2.470067e+09 -5.501862e-01  8.397424e-01
2.480067e+09 -5.473921e-01  8.338404e-01
2.490067e+09 -5.438364e-01  8.424763e-01
2.500067e+09 -5.405304e-01  8.385811e-01
2.510067e+09 -5.370769e-01  8.414154e-01
2.520066e+09 -5.346530e-01  8.497266e-01
2.530066e+09 -5.296482e-01  8.419573e-01
2.540066e+09 -5.264678e-01  8.465678e-01
2.550066e+09 -5.243585e-01  8.540380e-01
2.560066e+09 -5.203368e-01  8.532806e-01
2.570066e+09 -5.161966e-01  8.538535e-01
2.580066e+09 -5.141326e-01  8.589635e-01
2.590065e+09 -5.113837e-01  8.621147e-01
2.600065e+09 -5.064263e-01  8.617308e-01
2.610065e+09 -5.033411e-01  8.640462e-01
2.620065e+09 -4.991635e-01  8.652408e-01
2.630065e+09 -4.963823e-01  8.679178e-01
2.640065e+09 -4.933706e-01  8.699243e-01
2.650065e+09 -4.896555e-01  8.719524e-01
2.660065e+09 -4.861062e-01  8.736369e-01
2.670064e+09 -4.827288e-01  8.762695e-01
2.680064e+09 -4.792476e-01  8.779736e-01
2.690064e+09 -4.768769e-01  8.822125e-01
2.700064e+09 -4.726332e-01  8.823068e-01
2.710064e+09 -4.695350e-01  8.844024e-01
2.720064e+09 -4.652180e-01  8.850881e-01
2.730064e+09 -4.607332e-01  8.861187e-01
2.740063e+09 -4.574435e-01  8.881850e-01
2.750063e+09 -4.510992e-01  8.877399e-01
2.760063e+09 -4.526147e-01  8.937132e-01
2.770063e+09 -4.486718e-01  8.952028e-01
2.780063e+09 -4.424728e-01  8.950853e-01
2.790063e+09 -4.402320e-01  8.977086e-01
2.800063e+09 -4.371262e-01  8.995702e-01
2.810063e+09 -4.396652e-01  9.034953e-01
2.820062e+09 -4.247553e-01  9.014089e-01
2.830062e+09 -4.278441e-01  9.049222e-01
2.840062e+09 -4.229960e-01  9.061174e-01
2.850062e+09 -4.231819e-01  9.081646e-01
2.860062e+09 -4.204200e-01  9.097128e-01
2.870062e+09 -4.083061e-01  9.109055e-01
2.880062e+09 -4.041879e-01  9.127289e-01
2.890061e+09 -3.971438e-01  9.149360e-01
2.900061e+09 -3.975718e-01  9.160168e-01
2.910061e+09 -3.979585e-01  9.171532e-01
2.920061e+09 -3.930538e-01  9.188393e-01
2.930061e+09 -3.881739e-01  9.206032e-01
2.940061e+09 -3.805900e-01  9.238631e-01
2.950061e+09 -3.879829e-01  9.201426e-01
2.960061e+09 -3.776762e-01  9.251475e-01
2.970060e+09 -3.741104e-01  9.263713e-01
2.980060e+09 -3.652471e-01  9.313410e-01
2.990060e+09 -3.603214e-01  9.344828e-01
3.000060e+09 -3.695020e-01  9.247483e-01
3.010060e+09 -3.542372e-01  9.369913e-01
3.020060e+09 -3.596482e-01  9.288071e-01
3.030060e+09 -3.454185e-01  9.460054e-01
3.040059e+09 -3.497375e-01  9.370418e-01
3.050059e+09 -3.454413e-01  9.395112e-01
3.060059e+09 -3.353016e-01  9.504821e-01
3.070059e+09 -3.414081e-01  9.353365e-01
3.080059e+09 -3.330004e-01  9.457564e-01
3.090059e+09 -3.274285e-01  9.505308e-01
3.100059e+09 -3.242123e-01  9.506074e-01
3.110059e+09 -3.189518e-01  9.555659e-01
3.120058e+09 -3.208239e-01  9.393355e-01
3.130058e+09 -3.149635e-01  9.480224e-01
3.140058e+09 -3.098410e-01  9.522876e-01
3.150058e+09 -3.070932e-01  9.488014e-01
3.160058e+09 -3.028781e-01  9.516114e-01
3.170058e+09 -2.989585e-01  9.524695e-01
3.180058e+09 -2.944560e-01  9.627358e-01
3.190057e+09 -2.910675e-01  9.556928e-01
3.200057e+09 -2.872792e-01  9.566178e-01
3.210057e+09 -2.832964e-01  9.620061e-01
3.220057e+09 -2.795089e-01  9.614288e-01
3.230057e+09 -2.755912e-01  9.609642e-01
3.240057e+09 -2.721759e-01  9.636573e-01
3.250057e+09 -2.665321e-01  9.597447e-01
3.260057e+09 -2.647205e-01  9.654622e-01
3.270056e+09 -2.589928e-01  9.633212e-01
3.280056e+09 -2.574828e-01  9.671677e-01
3.290056e+09 -2.521689e-01  9.672812e-01
3.300056e+09 -2.488375e-01  9.685944e-01
3.310056e+09 -2.451967e-01  9.695601e-01
3.320056e+09 -2.418979e-01  9.698312e-01
3.330056e+09 -2.380297e-01  9.706647e-01
3.340055e+09 -2.340193e-01  9.732616e-01
3.350055e+09 -2.299718e-01  9.719175e-01
3.360055e+09 -2.261172e-01  9.725515e-01
3.370055e+09 -2.228528e-01  9.752426e-01
3.380055e+09 -2.170089e-01  9.715414e-01
3.390055e+09 -2.156773e-01  9.778831e-01
3.400055e+09 -2.097645e-01  9.749839e-01
3.410055e+09 -2.075498e-01  9.784809e-01
3.420054e+09 -2.026557e-01  9.779092e-01
3.430054e+09 -1.978364e-01  9.780482e-01
3.440054e+09 -1.954743e-01  9.805152e-01
3.450054e+09 -1.884441e-01  9.780544e-01
3.460054e+09 -1.849006e-01  9.795289e-01
3.470054e+09 -1.884692e-01  9.853189e-01
3.480054e+09 -1.807829e-01  9.832348e-01
3.490053e+09 -1.702567e-01  9.801987e-01
3.500053e+09 -1.687123e-01  9.824497e-01
3.510053e+09 -1.670366e-01  9.838650e-01
3.520053e+09 -1.602371e-01  9.834333e-01
3.530053e+09 -1.571473e-01  9.844878e-01
3.540053e+09 -1.586261e-01  9.861394e-01
3.550053e+09 -1.477563e-01  9.855865e-01
3.560053e+09 -1.482509e-01  9.867921e-01
3.570052e+09 -1.413547e-01  9.874643e-01
3.580052e+09 -1.479896e-01  9.868120e-01
3.590052e+09 -1.435072e-01  9.869093e-01
3.600052e+09 -1.387507e-01  9.877790e-01
3.610052e+09 -1.302053e-01  9.884236e-01
3.620052e+09 -1.255957e-01  9.892202e-01
3.630052e+09 -1.213009e-01  9.896335e-01
3.640051e+09 -1.282082e-01  9.858478e-01
3.650051e+09 -1.094493e-01  9.925933e-01
3.660051e+09 -1.127234e-01  9.890325e-01
3.670051e+09 -1.076924e-01  9.901393e-01
3.680051e+09 -1.018268e-01  9.914662e-01
3.690051e+09 -8.983060e-02  9.980288e-01
3.700051e+09 -9.501860e-02  9.916490e-01
3.710051e+09 -9.513363e-02  9.883815e-01
3.720050e+09 -8.356973e-02  9.959173e-01
3.730050e+09 -8.498268e-02  9.905319e-01
3.740050e+09 -8.373144e-02  9.873400e-01
3.750050e+09 -7.123868e-02  9.984020e-01
3.760050e+09 -7.038793e-02  9.954437e-01
3.770050e+09 -6.736311e-02  9.937358e-01
3.780050e+09 -6.045050e-02  9.990454e-01
3.790049e+09 -5.657268e-02  9.998289e-01
3.800049e+09 -5.253842e-02  1.000306e+00
3.810049e+09 -4.941678e-02  9.983915e-01
3.820049e+09 -4.421811e-02  1.002462e+00
3.830049e+09 -4.035686e-02  1.003678e+00
3.840049e+09 -3.806693e-02  9.963546e-01
3.850049e+09 -3.380276e-02  9.974492e-01
3.860049e+09 -2.950246e-02  9.993839e-01
3.870048e+09 -2.523767e-02  1.001483e+00
3.880048e+09 -2.144467e-02  9.984537e-01
3.890048e+09 -1.757095e-02  1.001334e+00
3.900048e+09 -1.264592e-02  9.967081e-01
3.910048e+09 -8.873451e-03  9.985091e-01
3.920048e+09 -6.000511e-03  1.001126e+00
3.930048e+09 -2.605767e-04  9.989963e-01
3.940047e+09 2.497372e-03  1.000157e+00
3.950047e+09 7.812717e-03  1.000376e+00
3.960047e+09 1.174826e-02  1.000832e+00
3.970047e+09 1.479225e-02  1.000195e+00
3.980047e+09 1.909015e-02  1.000421e+00
3.990047e+09 2.249891e-02  9.999457e-01
4.000047e+09 2.663913e-02  1.000458e+00
4.010047e+09 3.046663e-02  9.979384e-01
4.020046e+09 3.432625e-02  9.992416e-01
4.030046e+09 3.808765e-02  1.000556e+00
4.040046e+09 4.281817e-02  9.978682e-01
4.050046e+09 4.716211e-02  9.961469e-01
4.060046e+09 5.251036e-02  9.927464e-01
4.070046e+09 5.400139e-02  9.983682e-01
4.080046e+09 5.973300e-02  9.954072e-01
4.090045e+09 6.500297e-02  9.930946e-01
4.100045e+09 7.152977e-02  9.900718e-01
4.110045e+09 6.744672e-02  1.000330e+00
4.120045e+09 7.417245e-02  9.963895e-01
4.130045e+09 7.636387e-02  9.977487e-01
4.140045e+09 8.069691e-02  9.969178e-01
4.150045e+09 8.914959e-02  9.937150e-01
4.160045e+09 9.091749e-02  9.944920e-01
4.170044e+09 9.521676e-02  9.937468e-01
4.180044e+09 9.734416e-02  9.948049e-01
4.190044e+09 1.074009e-01  9.917430e-01
4.200044e+09 1.098225e-01  9.924557e-01
4.210044e+09 1.069376e-01  9.936552e-01
4.220044e+09 1.190203e-01  9.908823e-01
4.230044e+09 1.238953e-01  9.908610e-01
4.240043e+09 1.219656e-01  9.912341e-01
4.250043e+09 1.244482e-01  9.899221e-01
4.260043e+09 1.283899e-01  9.895333e-01
4.270043e+09 1.269145e-01  9.885215e-01
4.280043e+09 1.383813e-01  9.879510e-01
4.290043e+09 1.504322e-01  9.885255e-01
4.300043e+09 1.491888e-01  9.869523e-01
4.310043e+09 1.483989e-01  9.854666e-01
4.320042e+09 1.536154e-01  9.849945e-01
4.330042e+09 1.676826e-01  9.875133e-01
4.340042e+09 1.637044e-01  9.845950e-01
4.350042e+09 1.632293e-01  9.814307e-01
4.360042e+09 1.859479e-01  9.896788e-01
4.370042e+09 1.771778e-01  9.827511e-01
4.380042e+09 1.809141e-01  9.827790e-01
4.390041e+09 1.818913e-01  9.798779e-01
4.400041e+09 1.844349e-01  9.788846e-01
4.410041e+09 1.985305e-01  9.851977e-01
4.420041e+09 1.956149e-01  9.794175e-01
4.430041e+09 1.924288e-01  9.724159e-01
4.440041e+09 2.001870e-01  9.750148e-01
4.450041e+09 2.048225e-01  9.748761e-01
4.460041e+09 2.100531e-01  9.752852e-01
4.470040e+09 2.130430e-01  9.732844e-01
4.480040e+09 2.188280e-01  9.759534e-01
4.490040e+09 2.228978e-01  9.753414e-01
4.500040e+09 2.256537e-01  9.726317e-01
4.510040e+09 2.261741e-01  9.653935e-01
4.520040e+09 2.323349e-01  9.691815e-01
4.530040e+09 2.354099e-01  9.649223e-01
4.540039e+09 2.413540e-01  9.711205e-01
4.550039e+09 2.450436e-01  9.700864e-01
4.560039e+09 2.485581e-01  9.657539e-01
4.570039e+09 2.526570e-01  9.657860e-01
4.580039e+09 2.553770e-01  9.676392e-01
4.590039e+09 2.603541e-01  9.650162e-01
4.600039e+09 2.627059e-01  9.650712e-01
4.610039e+09 2.677504e-01  9.632851e-01
4.620038e+09 2.711850e-01  9.618685e-01
4.630038e+09 2.746985e-01  9.607007e-01
4.640038e+09 2.782159e-01  9.590713e-01
4.650038e+09 2.823767e-01  9.581591e-01
4.660038e+09 2.860340e-01  9.567896e-01
4.670038e+09 2.895064e-01  9.545049e-01
4.680038e+09 2.936173e-01  9.547275e-01
4.690037e+09 2.981125e-01  9.560120e-01
4.700037e+09 3.016680e-01  9.547001e-01
4.710037e+09 3.051438e-01  9.500152e-01
4.720037e+09 3.089401e-01  9.553859e-01
4.730037e+09 3.125019e-01  9.487391e-01
4.740037e+09 3.166587e-01  9.443991e-01
4.750037e+09 3.211717e-01  9.404132e-01
4.760037e+09 3.231491e-01  9.469680e-01
4.770036e+09 3.248732e-01  9.510409e-01
4.780036e+09 3.294885e-01  9.453347e-01
4.790036e+09 3.369747e-01  9.366465e-01
4.800036e+09 3.409973e-01  9.355631e-01
4.810036e+09 3.376887e-01  9.441448e-01
4.820036e+09 3.376963e-01  9.461726e-01
4.830036e+09 3.472030e-01  9.379180e-01
4.840035e+09 3.525385e-01  9.347997e-01
4.850035e+09 3.552954e-01  9.342216e-01
4.860035e+09 3.636168e-01  9.286472e-01
4.870035e+09 3.612382e-01  9.313913e-01
