# Hz S RI R 50.000000
! FREQ                re:S1  1             im:S1  1    
1.000000e+05  1.121923e-03   -4.073601e-03
3.759900e+07  -2.233668e-04   -5.188019e-03
7.509800e+07  5.134364e-04   -5.390641e-03
1.125970e+08  -2.347810e-03   -1.826468e-03
1.500960e+08  1.337207e-03   -4.046880e-03
1.875950e+08  -1.202558e-03   -2.299128e-03
2.250940e+08  -1.516606e-03   -2.188220e-03
2.625930e+08  4.348054e-03   -5.857952e-04
3.000920e+08  1.734915e-03   -9.989818e-04
3.375910e+08  4.092471e-03   9.249468e-04
3.750900e+08  2.681403e-03   -5.780331e-04
4.125890e+08  2.600848e-03   -6.695877e-04
4.500880e+08  2.331504e-03   -2.788120e-04
4.875870e+08  -3.509917e-04   5.661256e-03
5.250860e+08  -3.409318e-04   4.390127e-03
5.625850e+08  -6.886138e-04   3.913299e-03
6.000840e+08  2.198233e-03   2.409817e-03
6.375830e+08  6.288300e-04   3.095331e-03
6.750820e+08  1.446058e-03   2.764906e-03
7.125810e+08  -3.101415e-04   2.320030e-03
7.500800e+08  8.568884e-04   3.060240e-03
7.875790e+08  -5.071989e-03   -2.660125e-03
8.250780e+08  -3.172020e-03   -3.659723e-05
8.625770e+08  -3.001756e-03   1.614007e-03
9.000760e+08  -3.323802e-03   -1.291590e-03
9.375750e+08  -2.041917e-03   -3.650642e-03
9.750740e+08  -6.250465e-04   -3.928357e-03
1.012573e+09  7.792711e-04   -3.859578e-03
1.050072e+09  2.800440e-03   -4.288545e-03
1.087571e+09  -1.920951e-03   -2.741797e-03
1.125070e+09  2.126563e-03   -2.891221e-03
1.162569e+09  3.793083e-03   -2.021901e-03
1.200068e+09  4.901591e-03   -5.594084e-04
1.237567e+09  2.542428e-03   -1.969708e-03
1.275066e+09  3.013474e-03   -1.191577e-03
1.312565e+09  3.585259e-03   1.321032e-03
1.350064e+09  3.297117e-03   2.714019e-03
1.387563e+09  3.010525e-03   2.560730e-03
1.425062e+09  2.683507e-03   2.909844e-03
1.462561e+09  4.238000e-03   6.880999e-04
1.500060e+09  3.544107e-03   1.718286e-03
1.537559e+09  -4.893582e-03   3.505360e-03
1.575058e+09  -2.468469e-03   2.914296e-03
1.612557e+09  -1.934973e-03   2.890614e-03
1.650056e+09  -3.739900e-05   4.617560e-03
1.687555e+09  -2.421341e-03   2.420792e-03
1.725054e+09  -2.742825e-03   2.189854e-03
1.762553e+09  -2.724832e-03   3.697647e-03
1.800052e+09  -2.583393e-03   -1.401577e-03
1.837551e+09  -1.208661e-03   -4.300712e-03
1.875050e+09  -2.596628e-03   -1.634418e-03
1.912549e+09  -4.244368e-03   -9.709594e-04
1.950048e+09  1.201484e-03   -3.971313e-03
1.987547e+09  -5.502846e-03   -2.658854e-03
2.025046e+09  2.228468e-03   -2.898138e-03
2.062545e+09  -1.216319e-03   -3.874193e-03
2.100044e+09  5.909013e-04   -3.456718e-03
2.137543e+09  2.295369e-03   -2.440067e-03
2.175042e+09  2.028576e-03   -4.051131e-03
2.212541e+09  3.875480e-03   3.381991e-03
2.250040e+09  3.160015e-03   1.077248e-03
2.287539e+09  1.382700e-03   4.718153e-03
2.325038e+09  1.663803e-03   2.864415e-03
2.362537e+09  1.947549e-03   2.306499e-03
2.400036e+09  2.293679e-03   2.453991e-03
2.437535e+09  -2.990019e-03   3.777489e-03
2.475034e+09  -2.468911e-03   3.144437e-03
2.512533e+09  -2.177676e-03   2.839005e-03
2.550032e+09  9.408360e-04   5.460244e-03
2.587531e+09  -1.870621e-03   3.603523e-03
2.625030e+09  -4.367570e-03   -1.563818e-03
2.662529e+09  -3.926751e-03   -2.068392e-03
2.700028e+09  -4.207957e-03   4.117886e-04
2.737527e+09  -4.037451e-03   -6.749197e-04
2.775026e+09  -2.933149e-03   -2.891444e-03
2.812525e+09  3.797285e-03   -7.187837e-03
2.850024e+09  5.777560e-03   -5.964616e-03
2.887523e+09  3.631579e-03   -4.001171e-03
2.925022e+09  3.442471e-04   -3.885778e-03
2.962521e+09  2.765903e-03   -2.888385e-03
3.000020e+09  1.756352e-03   -3.828163e-03
3.037519e+09  4.170485e-03   4.136619e-03
3.075018e+09  1.997309e-03   6.413279e-04
3.112517e+09  1.600495e-03   -6.549759e-03
3.150016e+09  1.834403e-03   3.825587e-04
3.187515e+09  2.218104e-03   1.297421e-03
3.225014e+09  -4.015246e-03   8.659605e-03
3.262513e+09  -1.948245e-03   6.101825e-03
3.300012e+09  -4.057118e-03   6.514997e-03
3.337511e+09  -1.127840e-02   5.898934e-03
3.375010e+09  -1.166333e-03   6.424802e-03
3.412509e+09  -5.761817e-03   4.360135e-03
3.450008e+09  -8.677915e-03   1.622291e-03
3.487507e+09  -8.453148e-03   1.380717e-03
3.525006e+09  -7.940490e-03   3.816248e-03
3.562505e+09  -8.465060e-03   2.302438e-03
3.600004e+09  -7.661223e-03   -6.464133e-04
3.637503e+09  -3.876302e-03   -7.235137e-03
3.675002e+09  -4.790567e-03   -4.984353e-03
3.712501e+09  -7.905909e-03   -3.677243e-03
3.750000e+09  -2.610004e-03   -6.221055e-03
3.787499e+09  1.278859e-03   -6.295005e-03
3.824998e+09  9.370046e-04   -5.988481e-03
3.862497e+09  4.407176e-03   -3.334646e-03
3.899996e+09  2.774112e-03   -4.112930e-03
3.937495e+09  4.695570e-03   -1.976191e-03
3.974994e+09  5.568757e-03   1.163174e-03
4.012493e+09  5.301745e-03   3.617874e-03
4.049992e+09  4.780320e-03   3.764395e-03
4.087491e+09  2.196401e-03   7.238530e-03
4.124990e+09  -1.578973e-04   8.344122e-03
4.162489e+09  -8.739587e-04   8.377494e-03
4.199988e+09  2.488565e-03   8.222915e-03
4.237487e+09  -1.024963e-03   9.210361e-03
4.274986e+09  -3.778368e-03   8.793620e-03
4.312485e+09  -5.433619e-03   8.240533e-03
4.349984e+09  -8.065969e-03   5.311363e-03
4.387483e+09  -4.705316e-03   1.154141e-02
4.424982e+09  -1.065626e-02   -3.934876e-03
4.462481e+09  -9.822567e-03   5.122628e-03
4.499980e+09  -1.033424e-02   1.951766e-03
4.537479e+09  -1.249498e-02   2.535758e-03
4.574978e+09  -4.818212e-03   -7.665785e-03
4.612477e+09  -4.276180e-03   -7.774177e-03
4.649976e+09  1.537093e-03   -9.683810e-03
4.687475e+09  -1.407570e-03   -9.685268e-03
4.724974e+09  7.101990e-03   -7.476419e-03
4.762473e+09  -9.947979e-04   -1.196213e-02
4.799972e+09  9.547497e-04   -1.207420e-02
4.837471e+09  3.970749e-03   -9.957367e-03
4.874970e+09  7.217663e-03   -6.844573e-03
4.912469e+09  9.407647e-03   -2.944784e-03
4.949968e+09  9.830888e-03   -2.728050e-04
4.987467e+09  8.820547e-03   2.216172e-03
5.024966e+09  3.477445e-03   6.485012e-03
5.062465e+09  1.050010e-02   2.407770e-03
5.099964e+09  8.612033e-03   5.320362e-03
5.137463e+09  3.218839e-03   6.982508e-03
5.174962e+09  6.230069e-03   9.306328e-03
5.212461e+09  4.246874e-03   9.699587e-03
5.249960e+09  -1.347194e-03   4.986745e-03
5.287459e+09  2.063979e-03   1.166316e-02
5.324958e+09  -2.682778e-03   4.649036e-03
5.362457e+09  -4.467213e-03   3.840416e-03
5.399956e+09  -5.017644e-03   -1.036462e-03
5.437455e+09  -3.151384e-03   -4.981496e-03
5.474954e+09  -8.326348e-03   1.085482e-04
5.512453e+09  -9.983285e-03   -4.940887e-05
5.549952e+09  -3.516383e-04   -4.177546e-03
5.587451e+09  -6.868682e-03   -4.970157e-03
5.624950e+09  -5.449087e-03   -6.850123e-03
5.662449e+09  -1.040293e-03   -7.332853e-03
5.699948e+09  -3.005290e-05   -8.867058e-03
5.737447e+09  2.839447e-03   -8.516362e-03
5.774946e+09  6.213953e-03   -1.719595e-03
5.812445e+09  8.040774e-03   -7.277329e-03
5.849944e+09  8.638700e-03   -2.130170e-03
5.887443e+09  1.091117e-02   -1.916770e-03
5.924942e+09  9.974783e-03   2.010331e-03
5.962441e+09  7.588826e-03   4.141747e-03
5.999940e+09  1.668318e-02   4.163459e-03
6.037439e+09  2.557229e-03   5.563170e-03
6.074938e+09  5.827201e-03   7.312091e-03
6.112437e+09  6.772041e-03   9.393372e-03
6.149936e+09  4.512410e-03   8.632494e-03
6.187435e+09  4.163317e-03   1.075936e-02
6.224934e+09  2.671096e-03   9.287294e-03
6.262433e+09  1.107869e-03   1.002498e-02
6.299932e+09  -2.010349e-04   9.836893e-03
6.337431e+09  3.260705e-03   4.157020e-03
6.374930e+09  -1.384058e-03   6.326705e-03
6.412429e+09  2.741012e-03   3.974336e-03
6.449928e+09  -1.616049e-04   3.421960e-03
6.487427e+09  -7.163554e-03   -3.833353e-04
6.524926e+09  -3.117562e-03   -7.480422e-04
6.562425e+09  -1.982260e-04   5.532696e-04
6.599924e+09  -2.584810e-03   -4.928453e-03
6.637423e+09  7.438359e-04   1.123143e-03
6.674922e+09  1.430914e-03   -1.662310e-03
6.712421e+09  2.571528e-03   -9.500712e-04
6.749920e+09  3.386981e-03   -3.544645e-04
6.787419e+09  -2.223179e-03   5.263813e-03
6.824918e+09  -1.038882e-03   3.048133e-03
6.862417e+09  1.402561e-02   -6.960842e-04
6.899916e+09  8.777090e-04   1.475224e-03
6.937415e+09  3.145434e-03   1.482512e-03
6.974914e+09  3.976606e-04   -1.958431e-03
7.012413e+09  6.521026e-03   2.496963e-03
7.049912e+09  5.770801e-03   -7.785447e-04
7.087411e+09  6.061318e-03   6.095693e-03
7.124910e+09  5.103179e-03   4.257914e-03
7.162409e+09  5.772530e-03   1.955832e-03
7.199908e+09  4.156563e-03   4.603985e-03
7.237407e+09  3.451618e-03   4.151622e-03
7.274906e+09  5.485426e-03   2.737628e-03
7.312405e+09  7.542202e-03   1.952467e-03
7.349904e+09  1.269255e-02   3.768253e-03
7.387403e+09  9.492656e-03   4.026778e-03
7.424902e+09  9.797439e-03   6.379950e-03
7.462401e+09  3.576656e-03   1.549492e-03
7.499900e+09  2.996224e-04   -8.576523e-03
