# Hz S DB R 50.000000 
1.000000e+05 -9.190558e-03 -1.791287e+02
3.759900e+07 -5.200481e-03 1.788494e+02
7.509800e+07 7.580960e-04 1.777140e+02
1.125970e+08 8.479436e-03 1.766251e+02
1.500960e+08 -1.393546e-02 1.754114e+02
1.875950e+08 -7.280984e-03 1.743226e+02
2.250940e+08 2.946544e-02 1.736686e+02
2.625930e+08 -3.531421e-02 1.716327e+02
3.000920e+08 -5.500837e-03 1.710899e+02
3.375910e+08 -6.950545e-03 1.698608e+02
3.750900e+08 -1.281236e-02 1.687883e+02
4.125890e+08 -5.310616e-02 1.681971e+02
4.500880e+08 -5.628464e-02 1.668139e+02
4.875870e+08 -2.957269e-02 1.654950e+02
5.250860e+08 -1.983385e-02 1.643147e+02
5.625850e+08 1.741933e-02 1.630981e+02
6.000840e+08 -9.249885e-03 1.620527e+02
6.375830e+08 -1.249581e-02 1.609594e+02
6.750820e+08 -1.542794e-02 1.598477e+02
7.125810e+08 -2.195449e-02 1.587484e+02
7.500800e+08 -5.732228e-03 1.576792e+02
7.875790e+08 -2.681749e-02 1.565294e+02
8.250780e+08 -3.496997e-02 1.553430e+02
8.625770e+08 -3.382632e-02 1.542304e+02
9.000760e+08 -6.131621e-02 1.526446e+02
9.375750e+08 -3.701887e-02 1.518978e+02
9.750740e+08 -2.709704e-02 1.507009e+02
1.012573e+09 -3.414985e-02 1.503116e+02
1.050072e+09 -2.950755e-02 1.489728e+02
1.087571e+09 -2.005379e-02 1.477946e+02
1.125070e+09 1.160036e-02 1.461948e+02
1.162569e+09 -4.051741e-02 1.455258e+02
1.200068e+09 5.475420e-03 1.441533e+02
1.237567e+09 -7.016829e-02 1.432933e+02
1.275066e+09 -1.329580e-02 1.420664e+02
1.312565e+09 -2.319281e-02 1.409799e+02
1.350064e+09 -2.760099e-02 1.398466e+02
1.387563e+09 -3.495892e-02 1.386899e+02
1.425062e+09 -1.217723e-02 1.375997e+02
1.462561e+09 -1.669236e-02 1.365374e+02
1.500060e+09 -5.647052e-02 1.351406e+02
1.537559e+09 -1.747927e-02 1.345483e+02
1.575058e+09 8.154675e-03 1.337464e+02
1.612557e+09 -9.171450e-03 1.320682e+02
1.650056e+09 -2.163301e-02 1.306603e+02
1.687555e+09 -1.980077e-02 1.301168e+02
1.725054e+09 -1.266828e-02 1.288416e+02
1.762553e+09 -7.286809e-02 1.281265e+02
1.800052e+09 -5.920107e-02 1.269945e+02
1.837551e+09 -1.109073e-02 1.254984e+02
1.875050e+09 -1.991374e-02 1.243085e+02
1.912549e+09 -1.106677e-03 1.231480e+02
1.950048e+09 -8.421016e-03 1.220769e+02
1.987547e+09 -1.498604e-02 1.209901e+02
2.025046e+09 -9.261858e-03 1.198617e+02
2.062545e+09 -1.863868e-02 1.187114e+02
2.100044e+09 -2.784232e-03 1.176742e+02
2.137543e+09 4.557005e-03 1.165597e+02
2.175042e+09 -8.419210e-03 1.153874e+02
2.212541e+09 2.050211e-02 1.146097e+02
2.250040e+09 1.079967e-03 1.133729e+02
2.287539e+09 -2.218142e-02 1.116651e+02
2.325038e+09 1.344476e-04 1.105480e+02
2.362537e+09 2.659420e-04 1.100827e+02
2.400036e+09 -1.909682e-02 1.090895e+02
2.437535e+09 -3.107259e-03 1.076449e+02
2.475034e+09 4.130556e-02 1.061480e+02
2.512533e+09 -1.308158e-02 1.055324e+02
2.550032e+09 2.119317e-03 1.043178e+02
2.587531e+09 -5.267558e-03 1.032954e+02
2.625030e+09 -1.278068e-02 1.021670e+02
2.662529e+09 3.677199e-02 1.010570e+02
2.700028e+09 1.107535e-02 9.999987e+01
2.737527e+09 -5.430496e-02 9.865827e+01
2.775026e+09 -1.517620e-02 9.767287e+01
2.812525e+09 5.864306e-02 9.677247e+01
2.850024e+09 1.734971e-02 9.543950e+01
2.887523e+09 -1.625021e-02 9.392332e+01
2.925022e+09 4.028819e-02 9.325567e+01
2.962521e+09 1.316531e-02 9.224881e+01
3.000020e+09 1.669611e-03 9.101476e+01
3.037519e+09 1.504271e-02 9.034853e+01
3.075018e+09 3.409479e-02 8.889671e+01
3.112517e+09 2.122748e-02 8.765729e+01
3.150016e+09 5.988746e-02 8.643737e+01
3.187515e+09 6.843299e-03 8.557347e+01
3.225014e+09 -3.541232e-03 8.449810e+01
3.262513e+09 -1.161407e-02 8.339758e+01
3.300012e+09 4.083795e-02 8.229942e+01
3.337511e+09 5.193211e-03 8.109685e+01
3.375010e+09 -5.443352e-02 7.992855e+01
3.412509e+09 2.578679e-02 7.912543e+01
3.450008e+09 1.865923e-02 7.788841e+01
3.487507e+09 -2.312217e-03 7.654567e+01
3.525006e+09 3.661582e-02 7.600240e+01
3.562505e+09 4.193076e-03 7.474962e+01
3.600004e+09 -1.551901e-02 7.370740e+01
3.637503e+09 -1.364920e-02 7.279923e+01
3.675002e+09 1.105921e-02 7.127546e+01
3.712501e+09 7.512796e-03 7.004192e+01
3.750000e+09 1.812312e-02 6.907298e+01
3.787499e+09 6.993805e-02 6.748182e+01
3.824998e+09 -1.720129e-03 6.694230e+01
3.862497e+09 -1.183566e-02 6.576154e+01
3.899996e+09 4.421280e-02 6.448085e+01
3.937495e+09 1.241460e-02 6.346492e+01
3.974994e+09 4.399354e-02 6.242969e+01
4.012493e+09 6.315296e-02 6.149448e+01
4.049992e+09 -3.449584e-02 6.011250e+01
4.087491e+09 4.187208e-03 5.916095e+01
4.124990e+09 1.036100e-03 5.773728e+01
4.162489e+09 4.828107e-02 5.674792e+01
4.199988e+09 4.095992e-02 5.579651e+01
4.237487e+09 5.031575e-02 5.522360e+01
4.274986e+09 3.264880e-02 5.364322e+01
4.312485e+09 5.204737e-02 5.237585e+01
4.349984e+09 -4.659706e-02 5.115780e+01
4.387483e+09 -4.278693e-02 5.079917e+01
4.424982e+09 -3.153441e-02 4.929012e+01
4.462481e+09 6.597373e-04 4.785770e+01
4.499980e+09 -6.109636e-04 4.706158e+01
4.537479e+09 8.674840e-03 4.586598e+01
4.574978e+09 3.378640e-02 4.466503e+01
4.612477e+09 4.006450e-02 4.353815e+01
4.649976e+09 3.778422e-02 4.253778e+01
4.687475e+09 1.151389e-02 4.129462e+01
4.724974e+09 -4.643831e-02 4.012646e+01
4.762473e+09 3.152800e-02 3.912362e+01
4.799972e+09 3.284633e-02 3.808455e+01
4.837471e+09 3.305052e-02 3.699501e+01
4.874970e+09 -3.937644e-02 3.592569e+01
4.912469e+09 -7.330152e-03 3.433986e+01
4.949968e+09 -2.217183e-02 3.360765e+01
4.987467e+09 -1.917541e-02 3.240324e+01
5.024966e+09 5.792042e-02 3.141010e+01
5.062465e+09 1.226425e-02 3.045697e+01
5.099964e+09 -1.715128e-02 3.011830e+01
5.137463e+09 6.343601e-03 2.810542e+01
5.174962e+09 8.280752e-03 2.702073e+01
5.212461e+09 -4.283771e-03 2.594837e+01
5.249960e+09 -2.046308e-02 2.482153e+01
5.287459e+09 -1.634535e-02 2.362636e+01
5.324958e+09 -4.798620e-02 2.236462e+01
5.362457e+09 4.060008e-02 2.142025e+01
5.399956e+09 -3.791707e-02 2.048678e+01
5.437455e+09 -2.156940e-03 1.961635e+01
5.474954e+09 1.185161e-02 1.853085e+01
5.512453e+09 3.895206e-02 1.760947e+01
5.549952e+09 -2.844986e-02 1.604105e+01
5.587451e+09 1.259068e-02 1.506758e+01
5.624950e+09 -1.884597e-02 1.272870e+01
5.662449e+09 1.012512e-02 1.297516e+01
5.699948e+09 -3.469312e-03 1.098561e+01
5.737447e+09 5.778400e-02 9.936944e+00
5.774946e+09 3.115322e-02 9.286013e+00
5.812445e+09 3.355664e-03 8.068337e+00
5.849944e+09 1.677182e-03 6.972544e+00
5.887443e+09 6.072669e-02 5.632638e+00
5.924942e+09 1.709339e-02 4.609659e+00
5.962441e+09 -7.516214e-02 3.590974e+00
5.999940e+09 3.618585e-03 2.508242e+00
6.037439e+09 -5.371957e-02 1.375379e+00
6.074938e+09 -5.613717e-02 1.666659e-01
6.112437e+09 -6.009388e-02 -6.968903e-01
6.149936e+09 -9.467078e-03 -1.861044e+00
6.187435e+09 -4.458530e-03 -3.038186e+00
6.224934e+09 -1.604468e-02 -4.148357e+00
6.262433e+09 -8.724038e-03 -5.017998e+00
6.299932e+09 5.284515e-02 -5.550735e+00
6.337431e+09 1.301041e-02 -6.999027e+00
6.374930e+09 7.297005e-03 -8.822068e+00
6.412429e+09 -7.752670e-03 -9.741205e+00
6.449928e+09 1.100952e-03 -1.127979e+01
6.487427e+09 -6.597020e-03 -1.212787e+01
6.524926e+09 1.792024e-02 -1.335774e+01
6.562425e+09 1.087238e-03 -1.446271e+01
6.599924e+09 2.535982e-02 -1.534560e+01
6.637423e+09 3.086692e-02 -1.670030e+01
6.674922e+09 -5.865476e-02 -1.807928e+01
6.712421e+09 -8.288513e-02 -1.867109e+01
6.749920e+09 -3.439579e-02 -2.031816e+01
6.787419e+09 -3.901692e-02 -2.100897e+01
6.824918e+09 -7.606934e-02 -2.203968e+01
6.862417e+09 -2.567008e-02 -2.333545e+01
6.899916e+09 -2.639932e-02 -2.400976e+01
6.937415e+09 -1.246155e-01 -2.618282e+01
6.974914e+09 4.098145e-02 -2.631556e+01
7.012413e+09 -4.789457e-02 -2.828034e+01
7.049912e+09 -3.132001e-02 -2.948659e+01
7.087411e+09 -1.014296e-02 -3.084426e+01
7.124910e+09 -6.908411e-02 -3.114369e+01
7.162409e+09 -1.016319e-01 -3.230767e+01
7.199908e+09 -9.804398e-03 -3.376935e+01
7.237407e+09 1.701893e-02 -3.496806e+01
7.274906e+09 -9.163762e-02 -3.638803e+01
7.312405e+09 -4.124624e-02 -3.686661e+01
7.349904e+09 -7.823749e-02 -3.802902e+01
7.387403e+09 -6.635229e-02 -3.959870e+01
7.424902e+09 -1.109000e-02 -4.007025e+01
7.462401e+09 1.021420e-02 -4.175118e+01
7.499900e+09 -9.486852e-02 -4.280889e+01
