# Hz S DB R 50.000000 
1.000000e+05 -3.433020e+01 -7.548975e+00
3.759900e+07 -4.010868e+01 -2.416445e+00
7.509800e+07 -3.819008e+01 -1.322323e+01
1.125970e+08 -4.455390e+01 1.626092e+01
1.500960e+08 -4.058363e+01 -4.362682e+00
1.875950e+08 -3.836070e+01 -3.178174e+00
2.250940e+08 -4.165038e+01 -1.722757e+01
2.625930e+08 -4.000496e+01 -1.057522e+01
3.000920e+08 -4.008293e+01 -6.863758e+00
3.375910e+08 -4.015189e+01 8.315056e+00
3.750900e+08 -3.874916e+01 -2.464635e+01
4.125890e+08 -4.311455e+01 3.672002e+00
4.500880e+08 -3.793837e+01 -1.762954e+01
4.875870e+08 -4.071701e+01 -1.391967e+01
5.250860e+08 -4.416090e+01 -3.338032e+01
5.625850e+08 -4.245905e+01 -4.221453e+01
6.000840e+08 -3.965946e+01 -9.765738e+00
6.375830e+08 -3.867107e+01 1.160790e+01
6.750820e+08 -4.066301e+01 -1.258466e+01
7.125810e+08 -4.095106e+01 -1.713662e+01
7.500800e+08 -4.161305e+01 -1.972428e+01
7.875790e+08 -4.590117e+01 -1.723141e+01
8.250780e+08 -4.282004e+01 -3.057291e+01
8.625770e+08 -4.314503e+01 -4.332579e+01
9.000760e+08 -4.024077e+01 -2.800805e+01
9.375750e+08 -4.081905e+01 -6.067375e+01
9.750740e+08 -4.011406e+01 -4.516173e+01
1.012573e+09 -3.868975e+01 -5.033196e+01
1.050072e+09 -4.081761e+01 -3.199533e+01
1.087571e+09 -4.788320e+01 3.286958e+00
1.125070e+09 -3.943835e+01 -3.918804e+01
1.162569e+09 -4.056768e+01 -3.852723e+01
1.200068e+09 -3.726160e+01 -2.726511e+01
1.237567e+09 -3.987231e+01 -3.404587e+01
1.275066e+09 -4.054952e+01 -4.617723e+01
1.312565e+09 -4.035254e+01 -5.271563e+01
1.350064e+09 -4.058069e+01 -4.748484e+01
1.387563e+09 -3.778332e+01 -5.903903e+01
1.425062e+09 -3.887254e+01 -5.355825e+01
1.462561e+09 -4.132233e+01 -5.353951e+01
1.500060e+09 -4.111619e+01 -5.639869e+01
1.537559e+09 -4.219892e+01 -1.067182e+02
1.575058e+09 -4.072335e+01 -5.966742e+01
1.612557e+09 -4.053517e+01 -5.467326e+01
1.650056e+09 -3.864263e+01 -7.962731e+01
1.687555e+09 -4.095863e+01 -6.045020e+01
1.725054e+09 -4.209829e+01 -6.177245e+01
1.762553e+09 -3.885357e+01 -6.653458e+01
1.800052e+09 -4.779831e+01 -1.073050e+02
1.837551e+09 -4.353166e+01 -1.108565e+02
1.875050e+09 -3.971141e+01 -6.317731e+01
1.912549e+09 -4.014893e+01 -6.001207e+01
1.950048e+09 -4.085840e+01 -6.617608e+01
1.987547e+09 -3.960272e+01 -8.593520e+01
2.025046e+09 -4.005571e+01 -8.159395e+01
2.062545e+09 -3.853457e+01 -8.399091e+01
2.100044e+09 -4.136585e+01 -8.685846e+01
2.137543e+09 -3.817522e+01 -7.905327e+01
2.175042e+09 -3.928349e+01 -8.118724e+01
2.212541e+09 -3.993926e+01 -8.586451e+01
2.250040e+09 -4.021057e+01 -8.834834e+01
2.287539e+09 -3.930715e+01 -1.018581e+02
2.325038e+09 -3.974492e+01 -9.721067e+01
2.362537e+09 -4.265802e+01 -9.333240e+01
2.400036e+09 -4.045415e+01 -1.017513e+02
2.437535e+09 -3.869648e+01 -9.918990e+01
2.475034e+09 -3.721966e+01 -9.092409e+01
2.512533e+09 -3.968199e+01 -1.076620e+02
2.550032e+09 -3.940427e+01 -9.751752e+01
2.587531e+09 -3.829412e+01 -1.239232e+02
2.625030e+09 -3.779790e+01 -1.213486e+02
2.662529e+09 -4.274769e+01 -1.036014e+02
2.700028e+09 -4.178054e+01 -1.177198e+02
2.737527e+09 -3.666283e+01 -1.132391e+02
2.775026e+09 -3.909883e+01 -1.238656e+02
2.812525e+09 -3.757497e+01 -1.112206e+02
2.850024e+09 -3.814267e+01 -1.111335e+02
2.887523e+09 -3.905755e+01 -1.151167e+02
2.925022e+09 -4.090957e+01 -1.009148e+02
2.962521e+09 -3.853249e+01 -1.288181e+02
3.000020e+09 -3.748287e+01 -1.331413e+02
3.037519e+09 -3.900724e+01 -1.406880e+02
3.075018e+09 -3.742341e+01 -1.380737e+02
3.112517e+09 -3.583827e+01 -1.257747e+02
3.150016e+09 -3.718947e+01 -1.402989e+02
3.187515e+09 -3.719674e+01 -1.409058e+02
3.225014e+09 -3.629619e+01 -1.497903e+02
3.262513e+09 -3.520663e+01 -1.505348e+02
3.300012e+09 -4.062945e+01 -1.387455e+02
3.337511e+09 -3.415943e+01 -1.482835e+02
3.375010e+09 -3.448169e+01 -1.449735e+02
3.412509e+09 -3.735576e+01 -1.656935e+02
3.450008e+09 -3.588797e+01 -1.554932e+02
3.487507e+09 -3.551643e+01 -1.434689e+02
3.525006e+09 -3.544808e+01 -1.545524e+02
3.562505e+09 -3.493257e+01 -1.583073e+02
3.600004e+09 -3.432375e+01 -1.592880e+02
3.637503e+09 -3.484332e+01 -1.591600e+02
3.675002e+09 -3.627114e+01 -1.621657e+02
3.712501e+09 -3.509834e+01 -1.602367e+02
3.750000e+09 -3.525828e+01 -1.667126e+02
3.787499e+09 -3.463891e+01 -1.569527e+02
3.824998e+09 -3.459969e+01 -1.670711e+02
3.862497e+09 -3.477478e+01 -1.637791e+02
3.899996e+09 -3.542783e+01 -1.628932e+02
3.937495e+09 -3.491132e+01 -1.681667e+02
3.974994e+09 -3.622413e+01 -1.720284e+02
4.012493e+09 -3.718894e+01 1.758677e+02
4.049992e+09 -3.423991e+01 -1.743842e+02
4.087491e+09 -3.404984e+01 1.783202e+02
4.124990e+09 -3.371980e+01 -1.729003e+02
4.162489e+09 -3.387092e+01 -1.687177e+02
4.199988e+09 -3.404263e+01 -1.739022e+02
4.237487e+09 -3.327098e+01 -1.790934e+02
4.274986e+09 -3.374745e+01 1.788863e+02
4.312485e+09 -3.513842e+01 1.736135e+02
4.349984e+09 -3.068088e+01 -1.755825e+02
4.387483e+09 -3.307802e+01 1.722580e+02
4.424982e+09 -3.250183e+01 1.787577e+02
4.462481e+09 -3.251647e+01 1.793355e+02
4.499980e+09 -3.193547e+01 1.662597e+02
4.537479e+09 -3.232413e+01 1.709215e+02
4.574978e+09 -3.253837e+01 1.695417e+02
4.612477e+09 -3.305679e+01 1.680741e+02
4.649976e+09 -3.216429e+01 1.653277e+02
4.687475e+09 -3.118311e+01 1.677432e+02
4.724974e+09 -3.112563e+01 1.675999e+02
4.762473e+09 -3.113596e+01 1.689682e+02
4.799972e+09 -3.125353e+01 1.683591e+02
4.837471e+09 -3.148616e+01 1.665641e+02
4.874970e+09 -2.995062e+01 1.559224e+02
4.912469e+09 -3.115990e+01 1.613173e+02
4.949968e+09 -2.967465e+01 1.592251e+02
4.987467e+09 -2.943967e+01 1.618812e+02
5.024966e+09 -3.148203e+01 1.512411e+02
5.062465e+09 -3.068722e+01 1.537696e+02
5.099964e+09 -3.030297e+01 1.383157e+02
5.137463e+09 -3.023690e+01 1.530243e+02
5.174962e+09 -3.015317e+01 1.534439e+02
5.212461e+09 -2.999190e+01 1.523206e+02
5.249960e+09 -2.933004e+01 1.507475e+02
5.287459e+09 -2.934939e+01 1.512449e+02
5.324958e+09 -2.837280e+01 1.540752e+02
5.362457e+09 -2.968630e+01 1.480242e+02
5.399956e+09 -2.980430e+01 1.421323e+02
5.437455e+09 -2.915976e+01 1.343732e+02
5.474954e+09 -2.866887e+01 1.362761e+02
5.512453e+09 -2.859376e+01 1.396813e+02
5.549952e+09 -2.815464e+01 1.406025e+02
5.587451e+09 -2.883919e+01 1.422930e+02
5.624950e+09 -2.839224e+01 1.418617e+02
5.662449e+09 -2.914246e+01 1.391436e+02
5.699948e+09 -2.835661e+01 1.419515e+02
5.737447e+09 -2.868520e+01 1.343177e+02
5.774946e+09 -2.841915e+01 1.311416e+02
5.812445e+09 -2.817686e+01 1.336802e+02
5.849944e+09 -2.843756e+01 1.360780e+02
5.887443e+09 -2.921566e+01 1.368409e+02
5.924942e+09 -2.872907e+01 1.335990e+02
5.962441e+09 -2.694658e+01 1.343624e+02
5.999940e+09 -2.771900e+01 1.319815e+02
6.037439e+09 -2.766433e+01 1.319601e+02
6.074938e+09 -2.755955e+01 1.332018e+02
6.112437e+09 -2.741292e+01 1.261257e+02
6.149936e+09 -2.718699e+01 1.268417e+02
6.187435e+09 -2.701214e+01 1.270076e+02
6.224934e+09 -2.669450e+01 1.263373e+02
6.262433e+09 -2.647086e+01 1.276122e+02
6.299932e+09 -2.801213e+01 1.220778e+02
6.337431e+09 -2.729361e+01 1.209609e+02
6.374930e+09 -2.690817e+01 1.236353e+02
6.412429e+09 -2.670485e+01 1.189362e+02
6.449928e+09 -2.704293e+01 1.292433e+02
6.487427e+09 -2.626631e+01 1.201243e+02
6.524926e+09 -2.697014e+01 1.228651e+02
6.562425e+09 -2.639763e+01 1.207723e+02
6.599924e+09 -2.734620e+01 1.184729e+02
6.637423e+09 -2.652801e+01 1.181402e+02
6.674922e+09 -2.581620e+01 1.224494e+02
6.712421e+09 -2.644027e+01 1.133410e+02
6.749920e+09 -2.617258e+01 1.218341e+02
6.787419e+09 -2.601100e+01 1.152729e+02
6.824918e+09 -2.553581e+01 1.136830e+02
6.862417e+09 -2.611850e+01 1.154077e+02
6.899916e+09 -2.568300e+01 1.150076e+02
6.937415e+09 -2.477763e+01 1.161253e+02
6.974914e+09 -2.691539e+01 1.070435e+02
7.012413e+09 -2.548589e+01 1.162107e+02
7.049912e+09 -2.570807e+01 1.151563e+02
7.087411e+09 -2.594389e+01 1.199926e+02
7.124910e+09 -2.590796e+01 1.122536e+02
7.162409e+09 -2.522791e+01 1.081263e+02
7.199908e+09 -2.544073e+01 1.077738e+02
7.237407e+09 -2.560702e+01 1.073186e+02
7.274906e+09 -2.434479e+01 1.100437e+02
7.312405e+09 -2.602083e+01 1.022486e+02
7.349904e+09 -2.579338e+01 9.929714e+01
7.387403e+09 -2.539847e+01 1.049306e+02
7.424902e+09 -2.498016e+01 9.808571e+01
7.462401e+09 -2.553235e+01 1.051480e+02
7.499900e+09 -2.459519e+01 1.001266e+02
