# Hz S DB R 50.000000 
1.000000e+05 -1.110596e-01 4.727456e-01
3.759900e+07 -1.541950e-02 -7.615953e-01
7.509800e+07 6.128307e-03 -2.379983e+00
1.125970e+08 2.282445e-02 -3.677324e+00
1.500960e+08 5.467048e-04 -4.565282e+00
1.875950e+08 -8.813126e-03 -5.670082e+00
2.250940e+08 -1.662059e-02 -6.818335e+00
2.625930e+08 -2.335074e-02 -7.964423e+00
3.000920e+08 -7.722988e-03 -9.152714e+00
3.375910e+08 -5.044181e-03 -1.029085e+01
3.750900e+08 1.158255e-02 -1.140956e+01
4.125890e+08 2.131585e-02 -1.254426e+01
4.500880e+08 -2.379168e-04 -1.369128e+01
4.875870e+08 5.144983e-02 -1.454027e+01
5.250860e+08 1.547593e-02 -1.590535e+01
5.625850e+08 6.449981e-03 -1.709506e+01
6.000840e+08 -3.273125e-03 -1.828521e+01
6.375830e+08 -9.296346e-03 -1.922832e+01
6.750820e+08 -5.860192e-03 -2.046076e+01
7.125810e+08 1.538394e-03 -2.180719e+01
7.500800e+08 -1.117353e-02 -2.275435e+01
7.875790e+08 -4.394846e-02 -2.370813e+01
8.250780e+08 -2.017445e-02 -2.506443e+01
8.625770e+08 1.589159e-02 -2.639982e+01
9.000760e+08 -1.823384e-02 -2.739514e+01
9.375750e+08 -9.855843e-03 -2.858995e+01
9.750740e+08 1.883446e-04 -2.972571e+01
1.012573e+09 -1.597595e-04 -3.085568e+01
1.050072e+09 1.724116e-03 -3.200091e+01
1.087571e+09 -2.275763e-02 -3.326214e+01
1.125070e+09 1.143491e-02 -3.419831e+01
1.162569e+09 2.175670e-02 -3.526676e+01
1.200068e+09 -9.688365e-03 -3.644767e+01
1.237567e+09 1.268696e-02 -3.734336e+01
1.275066e+09 -1.537432e-02 -3.904966e+01
1.312565e+09 -5.934926e-03 -3.981906e+01
1.350064e+09 -2.178083e-02 -4.055140e+01
1.387563e+09 3.585414e-03 -4.230720e+01
1.425062e+09 -5.229785e-02 -4.283804e+01
1.462561e+09 -6.543298e-03 -4.461120e+01
1.500060e+09 -7.427268e-03 -4.573667e+01
1.537559e+09 -1.500142e-02 -4.693951e+01
1.575058e+09 1.504272e-03 -4.804818e+01
1.612557e+09 -3.274025e-02 -4.913736e+01
1.650056e+09 8.645357e-03 -5.027974e+01
1.687555e+09 -1.434042e-02 -5.146071e+01
1.725054e+09 1.667712e-03 -5.260150e+01
1.762553e+09 -2.601199e-02 -5.375704e+01
1.800052e+09 -2.713174e-02 -5.513150e+01
1.837551e+09 5.333411e-03 -5.610139e+01
1.875050e+09 -1.244694e-02 -5.711911e+01
1.912549e+09 -1.729253e-02 -5.817682e+01
1.950048e+09 -2.153452e-02 -5.948374e+01
1.987547e+09 -2.614236e-03 -6.091337e+01
2.025046e+09 -1.358585e-02 -6.175241e+01
2.062545e+09 -2.772121e-02 -6.251844e+01
2.100044e+09 1.922569e-02 -6.446953e+01
2.137543e+09 -1.960476e-02 -6.505943e+01
2.175042e+09 -2.066368e-02 -6.626933e+01
2.212541e+09 -8.412051e-03 -6.749002e+01
2.250040e+09 -2.621614e-02 -6.859369e+01
2.287539e+09 8.579075e-03 -6.977793e+01
2.325038e+09 -7.605642e-03 -7.092429e+01
2.362537e+09 -4.922583e-02 -7.210111e+01
2.400036e+09 -2.778107e-02 -7.324803e+01
2.437535e+09 5.300188e-03 -7.423186e+01
2.475034e+09 -2.262394e-02 -7.534047e+01
2.512533e+09 -4.859690e-02 -7.688615e+01
2.550032e+09 -3.103162e-02 -7.784993e+01
2.587531e+09 1.154153e-02 -7.873775e+01
2.625030e+09 -5.304730e-03 -8.042914e+01
2.662529e+09 -3.689544e-02 -8.162987e+01
2.700028e+09 -4.246154e-02 -8.239737e+01
2.737527e+09 -4.218672e-02 -8.311498e+01
2.775026e+09 -5.208214e-02 -8.446726e+01
2.812525e+09 -2.598927e-02 -8.568760e+01
2.850024e+09 -3.001537e-02 -8.690114e+01
2.887523e+09 -1.881201e-02 -8.813014e+01
2.925022e+09 -6.259113e-02 -8.918969e+01
2.962521e+09 -3.509211e-02 -9.041378e+01
3.000020e+09 -2.579643e-02 -9.153348e+01
3.037519e+09 -4.741431e-02 -9.277837e+01
3.075018e+09 2.639336e-03 -9.382377e+01
3.112517e+09 -6.131438e-03 -9.481612e+01
3.150016e+09 -3.960878e-02 -9.631837e+01
3.187515e+09 6.485466e-03 -9.715800e+01
3.225014e+09 2.640396e-03 -9.855028e+01
3.262513e+09 6.726116e-03 -9.977332e+01
3.300012e+09 -6.251050e-02 -1.006437e+02
3.337511e+09 1.937831e-02 -1.023769e+02
3.375010e+09 -1.768138e-02 -1.029437e+02
3.412509e+09 -4.790174e-02 -1.044394e+02
3.450008e+09 -6.877981e-02 -1.051918e+02
3.487507e+09 -1.829363e-02 -1.065354e+02
3.525006e+09 1.374415e-02 -1.078291e+02
3.562505e+09 -3.007839e-02 -1.088245e+02
3.600004e+09 -2.288761e-03 -1.099605e+02
3.637503e+09 -3.298308e-02 -1.111559e+02
3.675002e+09 -3.113709e-02 -1.123615e+02
3.712501e+09 -2.505204e-02 -1.133836e+02
3.750000e+09 -6.543357e-02 -1.146604e+02
3.787499e+09 -1.046276e-02 -1.153964e+02
3.824998e+09 -9.159704e-03 -1.168223e+02
3.862497e+09 -7.771408e-04 -1.177771e+02
3.899996e+09 -9.314118e-02 -1.200476e+02
3.937495e+09 -6.676732e-03 -1.201213e+02
3.974994e+09 -3.986920e-02 -1.213265e+02
4.012493e+09 -4.957736e-02 -1.228387e+02
4.049992e+09 -4.565134e-02 -1.231913e+02
4.087491e+09 -8.089084e-03 -1.251188e+02
4.124990e+09 -2.187938e-02 -1.259375e+02
4.162489e+09 -4.166251e-02 -1.269837e+02
4.199988e+09 -1.416717e-02 -1.283715e+02
4.237487e+09 -2.163503e-02 -1.294513e+02
4.274986e+09 -4.630500e-02 -1.306634e+02
4.312485e+09 -5.527916e-02 -1.319418e+02
4.349984e+09 4.702304e-02 -1.327042e+02
4.387483e+09 -8.130467e-02 -1.342853e+02
4.424982e+09 2.071020e-03 -1.351420e+02
4.462481e+09 -3.130460e-02 -1.362575e+02
4.499980e+09 7.365118e-03 -1.376539e+02
4.537479e+09 4.667337e-03 -1.383443e+02
4.574978e+09 -5.908274e-02 -1.401248e+02
4.612477e+09 -6.208221e-02 -1.410984e+02
4.649976e+09 -4.739645e-02 -1.425473e+02
4.687475e+09 -6.252956e-03 -1.434409e+02
4.724974e+09 -1.354873e-02 -1.441264e+02
4.762473e+09 1.011416e-02 -1.455556e+02
4.799972e+09 4.014873e-04 -1.466426e+02
4.837471e+09 -6.611479e-02 -1.475397e+02
4.874970e+09 3.728364e-02 -1.492073e+02
4.912469e+09 -1.014869e-02 -1.501710e+02
4.949968e+09 2.610947e-02 -1.512713e+02
4.987467e+09 3.403192e-02 -1.523164e+02
5.024966e+09 -5.564593e-02 -1.537111e+02
5.062465e+09 -6.630114e-02 -1.547708e+02
5.099964e+09 -7.146206e-02 -1.566288e+02
5.137463e+09 -5.137080e-02 -1.572349e+02
5.174962e+09 1.260058e-03 -1.580502e+02
5.212461e+09 -1.018185e-02 -1.594119e+02
5.249960e+09 2.710671e-02 -1.605934e+02
5.287459e+09 1.876596e-02 -1.614107e+02
5.324958e+09 6.925111e-02 -1.625385e+02
5.362457e+09 1.292539e-02 -1.639688e+02
5.399956e+09 -2.436025e-02 -1.651419e+02
5.437455e+09 -1.089798e-03 -1.667367e+02
5.474954e+09 1.259885e-02 -1.675782e+02
5.512453e+09 5.492507e-03 -1.684291e+02
5.549952e+09 3.348730e-02 -1.695947e+02
5.587451e+09 -6.517706e-03 -1.706033e+02
5.624950e+09 7.285389e-02 -1.717552e+02
5.662449e+09 -3.769673e-02 -1.730683e+02
5.699948e+09 8.038600e-03 -1.738666e+02
5.737447e+09 -1.684394e-02 -1.753305e+02
5.774946e+09 4.751941e-02 -1.765220e+02
5.812445e+09 -1.265609e-02 -1.777005e+02
5.849944e+09 -2.121541e-02 -1.787355e+02
5.887443e+09 -8.961860e-02 1.799484e+02
5.924942e+09 -4.041001e-02 1.789442e+02
5.962441e+09 5.874327e-02 1.783169e+02
5.999940e+09 1.926915e-02 1.768583e+02
6.037439e+09 -2.533746e-02 1.761838e+02
6.074938e+09 2.181862e-02 1.746696e+02
6.112437e+09 -4.343388e-04 1.733014e+02
6.149936e+09 3.573637e-02 1.722272e+02
6.187435e+09 2.706879e-02 1.712633e+02
6.224934e+09 4.873802e-02 1.700780e+02
6.262433e+09 5.064261e-02 1.690112e+02
6.299932e+09 -9.022020e-02 1.677200e+02
6.337431e+09 -7.866732e-03 1.663165e+02
6.374930e+09 2.790759e-02 1.654644e+02
6.412429e+09 3.099837e-04 1.640179e+02
6.449928e+09 3.665585e-03 1.635523e+02
6.487427e+09 4.142575e-02 1.617890e+02
6.524926e+09 7.988293e-03 1.610876e+02
6.562425e+09 1.079516e-02 1.594061e+02
6.599924e+09 -3.795012e-02 1.586627e+02
6.637423e+09 2.858132e-02 1.571973e+02
6.674922e+09 7.011671e-02 1.566861e+02
6.712421e+09 1.968527e-02 1.551228e+02
6.749920e+09 2.912393e-02 1.547977e+02
6.787419e+09 3.657435e-02 1.533381e+02
6.824918e+09 1.343230e-01 1.518590e+02
6.862417e+09 3.885110e-02 1.511303e+02
6.899916e+09 2.897315e-02 1.501219e+02
6.937415e+09 1.712750e-01 1.490460e+02
6.974914e+09 -4.352295e-02 1.473089e+02
7.012413e+09 9.834689e-02 1.470898e+02
7.049912e+09 8.946820e-02 1.459421e+02
7.087411e+09 -9.779760e-03 1.450086e+02
7.124910e+09 1.310388e-01 1.438721e+02
7.162409e+09 1.720998e-01 1.425196e+02
7.199908e+09 6.298178e-02 1.405513e+02
7.237407e+09 4.000700e-02 1.391942e+02
7.274906e+09 1.816298e-01 1.386899e+02
7.312405e+09 3.175565e-02 1.375888e+02
7.349904e+09 3.503319e-02 1.361843e+02
7.387403e+09 2.484364e-02 1.361835e+02
7.424902e+09 9.155998e-02 1.337584e+02
7.462401e+09 2.123933e-02 1.335110e+02
7.499900e+09 1.060946e-01 1.321079e+02
