# Hz S RI R 50.000000
! FREQ                re:S1  1             im:S1  1  
1.000000e+05 -2.101495e-03  1.799973e-03
3.759900e+07 3.461560e-04  -1.204727e-03
7.509800e+07 -1.451089e-03  1.448491e-03
1.125970e+08 -3.177449e-03  2.066690e-03
1.500960e+08 -1.211688e-03  5.116790e-04
1.875950e+08 -2.482571e-03  -6.509064e-04
2.250940e+08 3.628588e-03  1.923125e-03
2.625930e+08 -9.169109e-04  -1.276666e-03
3.000920e+08 2.187571e-03  4.680847e-03
3.375910e+08 -1.978151e-04  -5.521392e-04
3.750900e+08 -5.638442e-04  1.087045e-03
4.125890e+08 -2.318336e-03  2.485034e-03
4.500880e+08 -2.903106e-03  2.241707e-03
4.875870e+08 -7.375658e-03  2.017156e-03
5.250860e+08 -4.122839e-03  -5.150814e-04
5.625850e+08 3.244344e-03  1.725111e-03
6.000840e+08 9.743126e-04  1.190016e-03
6.375830e+08 -1.050084e-04  -1.396954e-04
6.750820e+08 3.745336e-04  3.590254e-03
7.125810e+08 -1.789305e-04  7.058849e-05
7.500800e+08 1.688345e-03  -2.170546e-03
7.875790e+08 2.653946e-03  -1.797231e-03
8.250780e+08 1.169344e-03  -3.023053e-04
8.625770e+08 5.223907e-03  3.474214e-04
9.000760e+08 -1.102796e-03  -4.848296e-04
9.375750e+08 1.816637e-03  1.431823e-03
9.750740e+08 2.105425e-03  3.956455e-03
1.012573e+09 6.671632e-05  1.153676e-03
1.050072e+09 -6.404226e-04  3.776745e-03
1.087571e+09 -1.791650e-03  3.176655e-03
1.125070e+09 -1.552013e-03  1.627121e-03
1.162569e+09 3.939165e-03  -1.433012e-03
1.200068e+09 -3.623246e-03  1.438681e-04
1.237567e+09 3.450986e-03  1.186878e-03
1.275066e+09 -1.521966e-03  -1.001276e-03
1.312565e+09 2.768960e-03  4.577830e-03
1.350064e+09 3.455319e-04  1.336254e-03
1.387563e+09 -2.914692e-04  1.733192e-03
1.425062e+09 2.573272e-03  -5.163219e-03
1.462561e+09 1.335414e-03  -1.139912e-03
1.500060e+09 -1.782555e-03  7.904335e-04
1.537559e+09 4.222190e-05  2.301187e-05
1.575058e+09 -6.423221e-05  8.500436e-05
1.612557e+09 -3.436784e-04  -1.095662e-04
1.650056e+09 -3.250188e-04  -5.570814e-04
1.687555e+09 1.270800e-04  8.152687e-04
1.725054e+09 1.607368e-04  -2.201944e-03
1.762553e+09 6.754288e-04  -1.556521e-03
1.800052e+09 3.692108e-04  -3.595458e-04
1.837551e+09 9.782701e-05  1.044060e-04
1.875050e+09 -6.416060e-04  -1.099486e-04
1.912549e+09 -4.931920e-03  -1.133904e-03
1.950048e+09 3.051722e-04  2.436088e-04
1.987547e+09 1.015558e-03  1.481592e-03
2.025046e+09 -8.884192e-05  -2.978724e-04
2.062545e+09 -1.745349e-04  -3.595775e-03
2.100044e+09 -3.209663e-05  1.980516e-04
2.137543e+09 1.707555e-03  -2.134564e-03
2.175042e+09 -9.655873e-04  7.072274e-04
2.212541e+09 -2.229862e-03  4.842799e-04
2.250040e+09 5.258507e-03  6.437802e-04
2.287539e+09 -1.966074e-03  -1.044613e-03
2.325038e+09 1.435759e-03  1.187078e-03
2.362537e+09 1.228883e-03  2.305376e-03
2.400036e+09 -8.519987e-05  -3.566570e-03
2.437535e+09 -1.802319e-04  1.892356e-03
2.475034e+09 1.411125e-03  -2.110699e-03
2.512533e+09 1.835935e-03  -1.029327e-03
2.550032e+09 -1.594384e-03  7.032926e-04
2.587531e+09 -2.390659e-04  1.105407e-04
2.625030e+09 2.730271e-03  1.312717e-03
2.662529e+09 1.831095e-03  1.874990e-03
2.700028e+09 1.663434e-05  1.467153e-04
2.737527e+09 -3.118876e-04  -1.763353e-03
2.775026e+09 9.274633e-04  -4.636985e-03
2.812525e+09 -3.382443e-03  5.287447e-03
2.850024e+09 -1.012120e-03  8.039446e-04
2.887523e+09 -4.200105e-04  3.584007e-04
2.925022e+09 -2.257694e-03  3.717668e-04
2.962521e+09 3.147997e-03  1.210720e-03
3.000020e+09 2.167318e-04  3.130050e-04
3.037519e+09 1.701436e-04  1.371817e-03
3.075018e+09 -2.441359e-04  2.424174e-03
3.112517e+09 -1.232942e-03  2.998894e-03
3.150016e+09 5.630512e-04  -1.534646e-03
3.187515e+09 -2.525115e-04  -4.283342e-04
3.225014e+09 2.528011e-03  -8.473491e-04
3.262513e+09 -2.273226e-03  2.250440e-04
3.300012e+09 -8.003685e-04  -5.791515e-05
3.337511e+09 -1.455467e-03  -5.442878e-04
3.375010e+09 -1.878900e-03  -1.859448e-03
3.412509e+09 -5.617725e-04  1.694716e-03
3.450008e+09 -1.565513e-03  4.707048e-03
3.487507e+09 -2.312317e-03  2.808233e-03
3.525006e+09 -1.353093e-03  2.368843e-05
3.562505e+09 6.182969e-03  -3.810823e-03
3.600004e+09 -1.589872e-04  -8.951250e-04
3.637503e+09 1.339550e-03  -5.642009e-04
3.675002e+09 -3.365904e-03  -2.966904e-03
3.712501e+09 1.205767e-03  1.000030e-03
3.750000e+09 -6.738424e-04  -3.877381e-03
3.787499e+09 1.858559e-04  -1.027319e-03
3.824998e+09 -1.839712e-03  3.532036e-03
3.862497e+09 -6.964550e-04  3.684866e-04
3.899996e+09 2.375101e-03  -1.603337e-03
3.937495e+09 3.103860e-03  -6.126805e-04
3.974994e+09 -7.805142e-05  -7.954349e-04
4.012493e+09 -3.044239e-03  -3.237039e-03
4.049992e+09 -3.224088e-04  -1.487758e-03
4.087491e+09 7.050444e-05  -1.898083e-03
4.124990e+09 6.576881e-04  -3.191187e-03
4.162489e+09 8.367534e-04  -1.074581e-03
4.199988e+09 6.011565e-04  -4.387311e-04
4.237487e+09 1.592829e-03  -1.413253e-03
4.274986e+09 -2.064781e-03  9.232598e-05
4.312485e+09 2.507608e-03  -2.674125e-04
4.349984e+09 1.565421e-03  -3.101929e-05
4.387483e+09 -2.527581e-03  -3.225651e-03
4.424982e+09 2.141322e-03  3.452101e-03
4.462481e+09 2.193495e-04  -2.794852e-03
4.499980e+09 2.683019e-04  -2.457182e-04
4.537479e+09 7.997445e-04  -6.868473e-04
4.574978e+09 -2.387857e-03  1.750844e-03
4.612477e+09 7.712872e-03  -1.272292e-03
4.649976e+09 -1.100903e-03  -1.039302e-04
4.687475e+09 9.152054e-04  6.139105e-04
4.724974e+09 4.752572e-04  4.711594e-04
4.762473e+09 9.313416e-04  1.811210e-03
4.799972e+09 6.032567e-05  4.017334e-03
4.837471e+09 1.995469e-04  -5.845934e-04
4.874970e+09 -1.014541e-03  8.685327e-04
4.912469e+09 8.401695e-04  -1.105412e-03
4.949968e+09 1.726886e-03  -1.260027e-03
4.987467e+09 -2.287467e-03  -6.832267e-04
5.024966e+09 -3.848191e-03  -1.875939e-03
5.062465e+09 5.673698e-03  3.641759e-03
5.099964e+09 -1.487804e-03  -3.607472e-03
5.137463e+09 -3.303639e-04  -3.328134e-03
5.174962e+09 6.222818e-06  1.427838e-03
5.212461e+09 -3.507085e-04  1.380157e-03
5.249960e+09 3.297257e-04  -2.401257e-04
5.287459e+09 -2.166667e-03  6.047942e-04
5.324958e+09 -1.383270e-03  -1.028101e-04
5.362457e+09 3.904075e-03  6.430817e-04
5.399956e+09 1.961237e-03  8.089140e-04
5.437455e+09 -9.214586e-04  -1.949942e-03
5.474954e+09 9.944150e-04  -2.601064e-04
5.512453e+09 6.478878e-04  -7.962973e-04
5.549952e+09 2.755159e-03  -4.037541e-03
5.587451e+09 -1.764508e-03  2.438072e-03
5.624950e+09 -3.970058e-04  6.020913e-04
5.662449e+09 -2.708240e-03  6.423691e-04
5.699948e+09 3.581500e-03  5.103381e-04
5.737447e+09 -2.871399e-03  -1.783050e-03
5.774946e+09 3.388377e-03  2.691306e-03
5.812445e+09 2.636926e-03  4.252378e-03
5.849944e+09 1.135888e-03  1.712516e-03
5.887443e+09 5.612427e-04  2.799143e-03
5.924942e+09 -3.172907e-04  2.734198e-03
5.962441e+09 6.442839e-04  1.530840e-03
5.999940e+09 7.858740e-04  1.164315e-03
6.037439e+09 4.791599e-03  1.971555e-03
6.074938e+09 1.922973e-03  2.069742e-03
6.112437e+09 -4.035699e-04  4.747681e-04
6.149936e+09 -3.573626e-05  6.208124e-04
6.187435e+09 3.314491e-04  3.305532e-03
6.224934e+09 1.227524e-03  -7.820280e-04
6.262433e+09 -1.897319e-03  4.052604e-03
6.299932e+09 1.313266e-03  8.127119e-04
6.337431e+09 8.675481e-04  1.460438e-03
6.374930e+09 3.209509e-03  2.483276e-03
6.412429e+09 -4.659404e-03  -1.137981e-03
6.449928e+09 2.347669e-03  5.335779e-03
6.487427e+09 -1.015677e-03  3.365949e-04
6.524926e+09 -8.484677e-04  4.865887e-03
6.562425e+09 -1.146339e-03  2.261341e-03
6.599924e+09 -2.908714e-03  3.822956e-03
6.637423e+09 -2.101541e-03  1.998339e-03
6.674922e+09 -2.084097e-03  1.537959e-03
6.712421e+09 -2.833147e-03  4.609960e-04
6.749920e+09 -6.850920e-03  -2.327011e-03
6.787419e+09 6.451764e-04  1.836039e-03
6.824918e+09 -1.064857e-03  1.563801e-03
6.862417e+09 -8.271347e-04  1.008290e-03
6.899916e+09 -1.402360e-03  1.510653e-03
6.937415e+09 3.193008e-05  -1.180881e-03
6.974914e+09 -2.000651e-03  9.928814e-04
7.012413e+09 -4.566421e-03  8.736357e-04
7.049912e+09 -5.403661e-03  -5.870508e-04
7.087411e+09 -2.055382e-04  -4.929711e-05
7.124910e+09 -2.839829e-03  -2.963577e-03
7.162409e+09 -1.827346e-03  -2.906883e-03
7.199908e+09 -3.713807e-04  5.781104e-03
7.237407e+09 -1.165165e-03  2.379091e-03
7.274906e+09 -1.159291e-04  -8.986869e-04
7.312405e+09 -1.127830e-03  2.879323e-04
7.349904e+09 8.837457e-04  -5.262371e-04
7.387403e+09 3.081512e-03  4.849591e-04
7.424902e+09 -4.360488e-03  -1.961723e-03
7.462401e+09 -1.463016e-03  -7.291024e-04
7.499900e+09 2.525725e-03  6.985612e-03
