# Hz S DB R 50.000000 
1.000000e+05 -3.923471e+01 -2.435112e+01
3.759900e+07 -8.172388e+01 -1.313196e+02
7.509800e+07 -5.049972e+01 -4.718271e+01
1.125970e+08 -4.588980e+01 1.502779e+02
1.500960e+08 -7.644596e+01 3.627518e+01
1.875950e+08 -5.451068e+01 1.094117e+01
2.250940e+08 -5.390139e+01 -1.463355e+02
2.625930e+08 -6.702551e+01 -1.008902e+01
3.000920e+08 -6.351640e+01 6.602656e+01
3.375910e+08 -4.883221e+01 8.737720e+01
3.750900e+08 -5.065926e+01 -6.999686e+01
4.125890e+08 -4.955946e+01 1.336461e+02
4.500880e+08 -5.062441e+01 -2.726880e+01
4.875870e+08 -6.819381e+01 1.057730e+02
5.250860e+08 -4.795191e+01 -1.717194e+02
5.625850e+08 -4.762349e+01 -1.507595e+02
6.000840e+08 -5.540225e+01 5.115010e+01
6.375830e+08 -4.361141e+01 6.711034e+01
6.750820e+08 -5.304830e+01 8.570949e+01
7.125810e+08 -5.963529e+01 1.021597e+02
7.500800e+08 -5.627849e+01 1.277826e+02
7.875790e+08 -4.616992e+01 1.451340e+02
8.250780e+08 -5.268102e+01 1.642801e+02
8.625770e+08 -4.921379e+01 -1.760323e+02
9.000760e+08 -6.619667e+01 2.366624e+01
9.375750e+08 -4.653226e+01 -1.403768e+02
9.750740e+08 -5.321948e+01 -1.179790e+02
1.012573e+09 -4.941114e+01 -9.642720e+01
1.050072e+09 -6.315514e+01 8.998920e+01
1.087571e+09 -4.327305e+01 1.209417e+02
1.125070e+09 -5.855960e+01 -4.565941e+01
1.162569e+09 -7.433437e+01 3.492702e+01
1.200068e+09 -4.632395e+01 -1.103901e+00
1.237567e+09 -5.585644e+01 2.175466e+01
1.275066e+09 -7.752746e+01 4.716868e+00
1.312565e+09 -5.878533e+01 -1.246623e+02
1.350064e+09 -7.118887e+01 7.279614e+01
1.387563e+09 -4.780325e+01 -8.156708e+01
1.425062e+09 -5.097437e+01 -6.467006e+01
1.462561e+09 -6.449357e+01 1.362938e+02
1.500060e+09 -6.724486e+01 1.548363e+02
1.537559e+09 -4.277187e+01 1.779485e+02
1.575058e+09 -6.662073e+01 -1.636374e+02
1.612557e+09 -5.869619e+01 2.672901e+01
1.650056e+09 -4.883477e+01 -1.245795e+02
1.687555e+09 -6.335967e+01 6.675387e+01
1.725054e+09 -5.398170e+01 9.638149e+01
1.762553e+09 -5.489976e+01 -6.435837e+01
1.800052e+09 -4.374604e+01 1.333324e+02
1.837551e+09 -4.490633e+01 1.538441e+02
1.875050e+09 -5.300592e+01 -7.442483e+00
1.912549e+09 -5.336444e+01 1.287466e+01
1.950048e+09 -5.511334e+01 3.187736e+01
1.987547e+09 -5.314296e+01 -1.319053e+02
2.025046e+09 -6.048668e+01 -1.046454e+02
2.062545e+09 -5.324391e+01 -8.985643e+01
2.100044e+09 -6.466395e+01 1.066024e+02
2.137543e+09 -5.030025e+01 -5.382642e+01
2.175042e+09 -5.606875e+01 -3.486231e+01
2.212541e+09 -6.565287e+01 -1.646685e+01
2.250040e+09 -6.189045e+01 6.363522e+00
2.287539e+09 -5.644986e+01 -1.521371e+02
2.325038e+09 -7.626438e+01 -5.406241e+01
2.362537e+09 -5.101441e+01 6.648080e+01
2.400036e+09 -6.515706e+01 9.150130e+01
2.437535e+09 -5.578960e+01 -7.139372e+01
2.475034e+09 -4.663247e+01 -5.541057e+01
2.512533e+09 -8.076399e+01 6.887545e+01
2.550032e+09 -5.291247e+01 -1.557250e+01
2.587531e+09 -5.200972e+01 -1.787234e+02
2.625030e+09 -5.302750e+01 -1.565265e+02
2.662529e+09 -4.670807e+01 4.285685e+01
2.700028e+09 -4.934013e+01 6.299223e+01
2.737527e+09 -4.971009e+01 -9.392041e+01
2.775026e+09 -6.842778e+01 1.140277e+02
2.812525e+09 -5.267697e+01 -5.782939e+01
2.850024e+09 -5.129760e+01 -3.865778e+01
2.887523e+09 -4.937077e+01 -1.409777e+01
2.925022e+09 -4.440163e+01 5.606221e+00
2.962521e+09 -6.121509e+01 1.283877e+01
3.000020e+09 -6.120979e+01 -1.380547e+02
3.037519e+09 -5.438748e+01 8.279076e+01
3.075018e+09 -6.520498e+01 1.566175e+02
3.112517e+09 -4.750051e+01 -8.418898e+01
3.150016e+09 -6.620723e+01 1.649680e+02
3.187515e+09 -7.607573e+01 -8.836549e+01
3.225014e+09 -5.353132e+01 1.634689e+02
3.262513e+09 -4.948285e+01 -1.730865e+02
3.300012e+09 -4.625556e+01 2.033411e+01
3.337511e+09 -4.690566e+01 -1.485344e+02
3.375010e+09 -4.725201e+01 -1.281639e+02
3.412509e+09 -4.777822e+01 8.735722e+01
3.450008e+09 -5.912996e+01 1.484239e+02
3.487507e+09 -5.152278e+01 -8.210223e+01
3.525006e+09 -6.077170e+01 -1.197907e+02
3.562505e+09 -5.733999e+01 -1.591739e+02
3.600004e+09 -5.128567e+01 -1.642384e+02
3.637503e+09 -5.798212e+01 -1.495355e+02
3.675002e+09 -5.424487e+01 2.544611e+01
3.712501e+09 -5.648428e+01 -1.000092e+02
3.750000e+09 -5.839834e+01 7.664712e+01
3.787499e+09 -5.043316e+01 -8.147563e+01
3.824998e+09 -6.533504e+01 1.543171e+02
3.862497e+09 -5.399149e+01 -5.524335e+01
3.899996e+09 -5.073010e+01 -3.648940e+01
3.937495e+09 -5.519561e+01 -2.260874e+01
3.974994e+09 -4.766904e+01 6.748749e+00
4.012493e+09 -4.328699e+01 2.807388e+01
4.049992e+09 -6.281194e+01 -2.449954e+00
4.087491e+09 -5.390535e+01 6.907921e+01
4.124990e+09 -5.329401e+01 -7.712674e+01
4.162489e+09 -4.828054e+01 -6.679309e+01
4.199988e+09 -5.247297e+01 -4.646567e+01
4.237487e+09 -6.035442e+01 -5.244991e+01
4.274986e+09 -5.522248e+01 -1.419821e+01
4.312485e+09 -4.528713e+01 5.794460e+00
4.349984e+09 -4.281086e+01 -1.461563e+02
4.387483e+09 -5.533808e+01 3.417323e+01
4.424982e+09 -5.225168e+01 -9.248162e+01
4.462481e+09 -5.066242e+01 -8.336392e+01
4.499980e+09 -5.166762e+01 9.892603e+01
4.537479e+09 -6.708266e+01 -2.037701e+01
4.574978e+09 -5.663307e+01 -2.316041e+01
4.612477e+09 -4.863527e+01 -1.488602e+01
4.649976e+09 -5.699000e+01 4.445813e+00
4.687475e+09 -5.940163e+01 -1.459237e+02
4.724974e+09 -5.316311e+01 -1.379881e+02
4.762473e+09 -5.242668e+01 -1.134812e+02
4.799972e+09 -5.372191e+01 -9.924917e+01
4.837471e+09 -5.199982e+01 -7.598049e+01
4.874970e+09 -4.739185e+01 1.222808e+02
4.912469e+09 -5.765565e+01 -6.093236e+01
4.949968e+09 -4.902944e+01 1.628165e+02
4.987467e+09 -4.698878e+01 -1.718849e+02
5.024966e+09 -4.583438e+01 1.475238e+01
5.062465e+09 -5.600357e+01 2.096285e+01
5.099964e+09 -4.092679e+01 5.656997e+01
5.137463e+09 -6.190663e+01 4.777209e+01
5.174962e+09 -6.397082e+01 -5.406631e+01
5.212461e+09 -7.146817e+01 -4.337122e+01
5.249960e+09 -5.912361e+01 1.456957e+02
5.287459e+09 -5.484191e+01 1.682848e+02
5.324958e+09 -4.413630e+01 -1.784001e+02
5.362457e+09 -6.069353e+01 -1.531703e+01
5.399956e+09 -4.825444e+01 3.026366e+01
5.437455e+09 -4.209148e+01 5.457760e+01
5.474954e+09 -4.346513e+01 7.077726e+01
5.512453e+09 -4.856179e+01 8.223236e+01
5.549952e+09 -4.695773e+01 1.118310e+02
5.587451e+09 -6.168301e+01 9.948131e+01
5.624950e+09 -5.547260e+01 1.472140e+02
5.662449e+09 -5.463635e+01 -2.104658e+00
5.699948e+09 -5.228964e+01 -1.696699e+02
5.737447e+09 -4.991798e+01 3.450965e+01
5.774946e+09 -4.759186e+01 4.255084e+01
5.812445e+09 -5.091826e+01 6.222707e+01
5.849944e+09 -6.159571e+01 -1.334444e+01
5.887443e+09 -4.660188e+01 -5.505781e+01
5.924942e+09 -5.108978e+01 -2.911444e+01
5.962441e+09 -4.632303e+01 1.349542e+02
5.999940e+09 -5.858424e+01 7.261440e+01
6.037439e+09 -5.751967e+01 6.320827e+01
6.074938e+09 -5.504833e+01 -1.707142e+02
6.112437e+09 -4.720120e+01 5.806438e+01
6.149936e+09 -5.115409e+01 7.584754e+01
6.187435e+09 -5.003268e+01 9.217719e+01
6.224934e+09 -4.882109e+01 1.024398e+02
6.262433e+09 -4.766274e+01 1.270254e+02
6.299932e+09 -4.599583e+01 -1.109470e+01
6.337431e+09 -4.786082e+01 2.031852e+01
6.374930e+09 -6.095476e+01 1.015764e+02
6.412429e+09 -4.897006e+01 5.363556e+01
6.449928e+09 -4.696986e+01 -1.339694e+02
6.487427e+09 -4.944772e+01 8.745349e+01
6.524926e+09 -5.733423e+01 -8.909529e+01
6.562425e+09 -5.588688e+01 1.167166e+02
6.599924e+09 -4.780246e+01 -3.839503e+01
6.637423e+09 -6.153286e+01 4.580331e+01
6.674922e+09 -4.506616e+01 1.630201e+02
6.712421e+09 -4.769199e+01 2.537901e+01
6.749920e+09 -4.868903e+01 -1.667322e+02
6.787419e+09 -5.439614e+01 8.223062e+01
6.824918e+09 -4.774284e+01 9.023513e+01
6.862417e+09 -6.560844e+01 1.344805e+02
6.899916e+09 -5.116290e+01 1.232639e+02
6.937415e+09 -4.219965e+01 1.331697e+02
6.974914e+09 -4.308613e+01 -2.621551e+01
7.012413e+09 -4.625030e+01 1.699826e+02
7.049912e+09 -5.053666e+01 -1.729893e+02
7.087411e+09 -4.202399e+01 -1.516891e+02
7.124910e+09 -5.462789e+01 -1.381672e+02
7.162409e+09 -5.115342e+01 9.550913e+01
7.199908e+09 -5.416252e+01 1.071201e+02
7.237407e+09 -6.431574e+01 -1.472735e+02
7.274906e+09 -4.040103e+01 1.348764e+02
7.312405e+09 -4.688702e+01 -3.027593e+01
7.349904e+09 -4.593067e+01 -8.223480e+00
7.387403e+09 -6.259485e+01 1.636764e+02
7.424902e+09 -4.613287e+01 3.661387e+01
7.462401e+09 -5.045010e+01 -1.388435e+02
7.499900e+09 -4.741484e+01 8.567128e+01
