# Hz S RI R 50.000000
! FREQ                re:S1  1             im:S1  1  
1.000000e+05 1.003243e+00  6.373426e-04
3.759900e+07 1.000150e+00  -1.672332e-02
7.509800e+07 1.001660e+00  -3.443578e-02
1.125970e+08 9.976030e-01  -4.222947e-02
1.500960e+08 1.003039e+00  -6.519706e-02
1.875950e+08 9.988430e-01  -7.571199e-02
2.250940e+08 1.000631e+00  -9.208680e-02
2.625930e+08 9.938442e-01  -1.040852e-01
3.000920e+08 9.931675e-01  -1.190405e-01
3.375910e+08 9.910618e-01  -1.338964e-01
3.750900e+08 9.897546e-01  -1.486966e-01
4.125890e+08 9.867696e-01  -1.634465e-01
4.500880e+08 9.818014e-01  -1.789211e-01
4.875870e+08 9.830142e-01  -1.914885e-01
5.250860e+08 9.748950e-01  -2.103772e-01
5.625850e+08 9.758214e-01  -2.206244e-01
6.000840e+08 9.757741e-01  -2.277765e-01
6.375830e+08 9.641054e-01  -2.628910e-01
6.750820e+08 9.646813e-01  -2.612324e-01
7.125810e+08 9.605784e-01  -2.822554e-01
7.500800e+08 9.562614e-01  -2.956028e-01
7.875790e+08 9.506382e-01  -3.060134e-01
8.250780e+08 9.459166e-01  -3.206568e-01
8.625770e+08 9.409960e-01  -3.350832e-01
9.000760e+08 9.349231e-01  -3.487528e-01
9.375750e+08 9.314767e-01  -3.640264e-01
9.750740e+08 9.260834e-01  -3.781294e-01
1.012573e+09 9.192809e-01  -3.912034e-01
1.050072e+09 9.152267e-01  -4.056842e-01
1.087571e+09 9.052874e-01  -4.189117e-01
1.125070e+09 9.033875e-01  -4.321294e-01
1.162569e+09 8.878212e-01  -4.485620e-01
1.200068e+09 8.901102e-01  -4.582022e-01
1.237567e+09 8.796739e-01  -4.735527e-01
1.275066e+09 8.805881e-01  -4.769691e-01
1.312565e+09 8.596173e-01  -5.109093e-01
1.350064e+09 8.587731e-01  -5.130586e-01
1.387563e+09 8.517451e-01  -5.219067e-01
1.425062e+09 8.438554e-01  -5.416794e-01
1.462561e+09 8.361758e-01  -5.536400e-01
1.500060e+09 8.241998e-01  -5.544491e-01
1.537559e+09 8.179302e-01  -5.726741e-01
1.575058e+09 8.120484e-01  -5.886748e-01
1.612557e+09 8.017228e-01  -5.986571e-01
1.650056e+09 7.924894e-01  -6.101045e-01
1.687555e+09 7.824198e-01  -6.210995e-01
1.725054e+09 7.740191e-01  -6.334326e-01
1.762553e+09 7.629486e-01  -6.445660e-01
1.800052e+09 7.539938e-01  -6.561709e-01
1.837551e+09 7.452501e-01  -6.673075e-01
1.875050e+09 7.352962e-01  -6.781035e-01
1.912549e+09 7.207685e-01  -6.920766e-01
1.950048e+09 7.258431e-01  -6.870198e-01
1.987547e+09 7.022453e-01  -7.127579e-01
2.025046e+09 6.899122e-01  -7.272493e-01
2.062545e+09 6.834728e-01  -7.284300e-01
2.100044e+09 6.709662e-01  -7.442970e-01
2.137543e+09 6.604939e-01  -7.505710e-01
2.175042e+09 6.491712e-01  -7.592316e-01
2.212541e+09 6.376154e-01  -7.683978e-01
2.250040e+09 6.265037e-01  -7.792103e-01
2.287539e+09 6.151927e-01  -7.889823e-01
2.325038e+09 6.032204e-01  -7.980989e-01
2.362537e+09 5.923737e-01  -8.084584e-01
2.400036e+09 5.781653e-01  -8.147184e-01
2.437535e+09 5.660639e-01  -8.235085e-01
2.475034e+09 5.529060e-01  -8.318999e-01
2.512533e+09 5.349788e-01  -8.405665e-01
2.550032e+09 5.315269e-01  -8.479556e-01
2.587531e+09 5.164847e-01  -8.563921e-01
2.625030e+09 5.021402e-01  -8.648074e-01
2.662529e+09 4.954221e-01  -8.662515e-01
2.700028e+09 4.753678e-01  -8.815572e-01
2.737527e+09 4.587443e-01  -8.970916e-01
2.775026e+09 4.502116e-01  -8.947964e-01
2.812525e+09 4.372416e-01  -9.013366e-01
2.850024e+09 4.242341e-01  -9.069636e-01
2.887523e+09 4.109276e-01  -9.143742e-01
2.925022e+09 3.966630e-01  -9.172025e-01
2.962521e+09 3.831437e-01  -9.235249e-01
3.000020e+09 3.692556e-01  -9.280881e-01
3.037519e+09 3.547201e-01  -9.335695e-01
3.075018e+09 3.426304e-01  -9.414414e-01
3.112517e+09 3.262319e-01  -9.440798e-01
3.150016e+09 3.075090e-01  -9.475143e-01
3.187515e+09 2.955075e-01  -9.544420e-01
3.225014e+09 2.874688e-01  -9.592145e-01
3.262513e+09 2.710573e-01  -9.630351e-01
3.300012e+09 2.535749e-01  -9.677982e-01
3.337511e+09 2.449302e-01  -9.666769e-01
3.375010e+09 2.296692e-01  -9.686649e-01
3.412509e+09 2.162103e-01  -9.689849e-01
3.450008e+09 1.965221e-01  -9.800267e-01
3.487507e+09 1.841181e-01  -9.776097e-01
3.525006e+09 1.687727e-01  -9.880965e-01
3.562505e+09 1.550846e-01  -9.890649e-01
3.600004e+09 1.399965e-01  -9.892315e-01
3.637503e+09 1.258377e-01  -9.928568e-01
3.675002e+09 1.116663e-01  -9.953652e-01
3.712501e+09 9.722303e-02  -9.957817e-01
3.750000e+09 8.531338e-02  -1.002184e+00
3.787499e+09 6.918564e-02  -9.996407e-01
3.824998e+09 4.838658e-02  -9.957610e-01
3.862497e+09 4.245181e-02  -1.001352e+00
3.899996e+09 2.186846e-02  -1.000622e+00
3.937495e+09 1.656123e-03  -1.001300e+00
3.974994e+09 -1.481793e-02  -1.003788e+00
4.012493e+09 -2.903368e-02  -1.005486e+00
4.049992e+09 -4.422731e-02  -1.006444e+00
4.087491e+09 -4.825498e-02  -9.970178e-01
4.124990e+09 -6.736731e-02  -9.987125e-01
4.162489e+09 -8.290254e-02  -9.980746e-01
4.199988e+09 -9.910198e-02  -1.000340e+00
4.237487e+09 -1.119747e-01  -9.920200e-01
4.274986e+09 -1.264940e-01  -9.931578e-01
4.312485e+09 -1.411026e-01  -9.900261e-01
4.349984e+09 -1.561510e-01  -9.872508e-01
4.387483e+09 -1.712053e-01  -9.871976e-01
4.424982e+09 -1.884444e-01  -9.741249e-01
4.462481e+09 -1.980776e-01  -9.839392e-01
4.499980e+09 -2.183335e-01  -9.728996e-01
4.537479e+09 -2.294984e-01  -9.724095e-01
4.574978e+09 -2.374161e-01  -9.722605e-01
4.612477e+09 -2.538886e-01  -9.660814e-01
4.649976e+09 -2.822066e-01  -9.608700e-01
4.687475e+09 -2.848049e-01  -9.568469e-01
4.724974e+09 -3.088444e-01  -9.558635e-01
4.762473e+09 -3.093938e-01  -9.455725e-01
4.799972e+09 -3.262206e-01  -9.414628e-01
4.837471e+09 -3.474589e-01  -9.440631e-01
4.874970e+09 -3.581944e-01  -9.354266e-01
4.912469e+09 -3.711657e-01  -9.286049e-01
4.949968e+09 -3.850303e-01  -9.234898e-01
4.987467e+09 -3.971564e-01  -9.174592e-01
5.024966e+09 -4.116171e-01  -9.124514e-01
5.062465e+09 -4.244764e-01  -9.065301e-01
5.099964e+09 -4.380445e-01  -9.008363e-01
5.137463e+09 -4.504092e-01  -8.949167e-01
5.174962e+09 -4.645188e-01  -8.872014e-01
5.212461e+09 -4.767248e-01  -8.808672e-01
5.249960e+09 -4.811298e-01  -8.769032e-01
5.287459e+09 -5.032531e-01  -8.662740e-01
5.324958e+09 -5.233140e-01  -8.581717e-01
5.362457e+09 -5.209556e-01  -8.503256e-01
5.399956e+09 -5.379727e-01  -8.423570e-01
5.437455e+09 -5.533952e-01  -8.344893e-01
5.474954e+09 -5.655043e-01  -8.262882e-01
5.512453e+09 -5.846959e-01  -8.236113e-01
5.549952e+09 -5.906433e-01  -8.080969e-01
5.587451e+09 -6.031192e-01  -8.012557e-01
5.624950e+09 -6.159253e-01  -7.897453e-01
5.662449e+09 -6.269109e-01  -7.810391e-01
5.699948e+09 -6.385795e-01  -7.716548e-01
5.737447e+09 -6.484331e-01  -7.574313e-01
5.774946e+09 -6.607886e-01  -7.496173e-01
5.812445e+09 -6.705647e-01  -7.469410e-01
5.849944e+09 -6.845427e-01  -7.247742e-01
5.887443e+09 -6.919346e-01  -7.214560e-01
5.924942e+09 -7.038572e-01  -7.082388e-01
5.962441e+09 -7.134589e-01  -6.978252e-01
5.999940e+09 -7.298020e-01  -6.849679e-01
6.037439e+09 -7.312187e-01  -6.756148e-01
6.074938e+09 -7.434601e-01  -6.641071e-01
6.112437e+09 -7.578946e-01  -6.539874e-01
6.149936e+09 -7.660432e-01  -6.425690e-01
6.187435e+09 -7.744982e-01  -6.300253e-01
6.224934e+09 -7.847241e-01  -6.194971e-01
6.262433e+09 -7.945394e-01  -6.084511e-01
6.299932e+09 -8.017335e-01  -5.961770e-01
6.337431e+09 -8.137439e-01  -5.857216e-01
6.374930e+09 -8.244646e-01  -5.776097e-01
6.412429e+09 -8.274764e-01  -5.526111e-01
6.449928e+09 -8.395179e-01  -5.506183e-01
6.487427e+09 -8.466100e-01  -5.367624e-01
6.524926e+09 -8.533595e-01  -5.290106e-01
6.562425e+09 -8.653159e-01  -5.083186e-01
6.599924e+09 -8.681054e-01  -5.018627e-01
6.637423e+09 -8.780537e-01  -4.876851e-01
6.674922e+09 -8.729565e-01  -4.830908e-01
6.712421e+09 -8.854717e-01  -4.658664e-01
6.749920e+09 -8.975916e-01  -4.512980e-01
6.787419e+09 -9.095494e-01  -4.386185e-01
6.824918e+09 -9.160861e-01  -4.266037e-01
6.862417e+09 -9.192449e-01  -4.117283e-01
6.899916e+09 -9.260464e-01  -3.989214e-01
6.937415e+09 -9.318702e-01  -3.855564e-01
6.974914e+09 -9.409746e-01  -3.729123e-01
7.012413e+09 -9.439422e-01  -3.575418e-01
7.049912e+09 -9.439815e-01  -3.344808e-01
7.087411e+09 -9.507196e-01  -3.182158e-01
7.124910e+09 -9.596763e-01  -3.151997e-01
7.162409e+09 -9.639281e-01  -2.875873e-01
7.199908e+09 -9.664525e-01  -2.861857e-01
7.237407e+09 -9.817236e-01  -2.433352e-01
7.274906e+09 -9.791257e-01  -2.437879e-01
7.312405e+09 -9.639760e-01  -2.501432e-01
7.349904e+09 -9.866298e-01  -2.154199e-01
7.387403e+09 -9.844537e-01  -2.037558e-01
7.424902e+09 -9.848432e-01  -1.906800e-01
7.462401e+09 -9.854594e-01  -1.761886e-01
7.499900e+09 -9.814536e-01  -1.619886e-01
