# Hz S DB R 50.000000 
1.000000e+05 -1.110169e-01 5.261632e-01
3.759900e+07 -1.542509e-02 -4.744738e-01
7.509800e+07 6.007500e-03 -1.809803e+00
1.125970e+08 2.555697e-02 -2.821491e+00
1.500960e+08 -8.585789e-04 -3.404620e+00
1.875950e+08 -5.580961e-03 -4.250028e+00
2.250940e+08 -1.828755e-02 -5.079571e+00
2.625930e+08 -2.416794e-02 -5.948132e+00
3.000920e+08 -6.099271e-03 -6.847846e+00
3.375910e+08 -9.283170e-04 -7.692123e+00
3.750900e+08 1.095146e-02 -8.538599e+00
4.125890e+08 2.480441e-02 -9.352388e+00
4.500880e+08 -4.414107e-03 -1.026912e+01
4.875870e+08 4.969096e-02 -1.079947e+01
5.250860e+08 1.037738e-02 -1.187888e+01
5.625850e+08 6.845573e-03 -1.270466e+01
6.000840e+08 1.225947e-03 -1.367892e+01
6.375830e+08 6.802325e-04 -1.437917e+01
6.750820e+08 -3.365710e-03 -1.523301e+01
7.125810e+08 7.866205e-03 -1.636837e+01
7.500800e+08 -7.123524e-03 -1.699464e+01
7.875790e+08 -3.941532e-02 -1.762734e+01
8.250780e+08 -2.200505e-02 -1.868133e+01
8.625770e+08 2.057094e-02 -1.973519e+01
9.000760e+08 -1.682095e-02 -2.047759e+01
9.375750e+08 -1.843297e-02 -2.135696e+01
9.750740e+08 -1.522473e-03 -2.222905e+01
1.012573e+09 2.928859e-03 -2.308139e+01
1.050072e+09 1.070164e-02 -2.391240e+01
1.087571e+09 -1.567140e-03 -2.479137e+01
1.125070e+09 9.465898e-03 -2.560051e+01
1.162569e+09 3.179704e-02 -2.627747e+01
1.200068e+09 -1.072132e-03 -2.737399e+01
1.237567e+09 2.485946e-02 -2.777049e+01
1.275066e+09 -4.034612e-03 -2.925110e+01
1.312565e+09 -1.400678e-03 -2.969329e+01
1.350064e+09 -2.326261e-02 -3.009711e+01
1.387563e+09 7.712333e-03 -3.170684e+01
1.425062e+09 -5.683219e-02 -3.193340e+01
1.462561e+09 4.770051e-03 -3.333904e+01
1.500060e+09 -2.113233e-03 -3.415707e+01
1.537559e+09 -1.420134e-02 -3.498018e+01
1.575058e+09 2.057915e-02 -3.591133e+01
1.612557e+09 -1.276712e-02 -3.673201e+01
1.650056e+09 2.448794e-03 -3.757585e+01
1.687555e+09 8.409439e-03 -3.844381e+01
1.725054e+09 2.578133e-02 -3.925742e+01
1.762553e+09 -9.401185e-05 -4.015659e+01
1.800052e+09 -4.376678e-04 -4.102441e+01
1.837551e+09 1.051346e-02 -4.177267e+01
1.875050e+09 9.577215e-03 -4.261719e+01
1.912549e+09 5.980560e-03 -4.348525e+01
1.950048e+09 2.233813e-03 -4.439786e+01
1.987547e+09 1.293258e-02 -4.558814e+01
2.025046e+09 1.368100e-03 -4.612341e+01
2.062545e+09 -2.887796e-02 -4.659340e+01
2.100044e+09 4.294610e-02 -4.818158e+01
2.137543e+09 3.194350e-04 -4.868117e+01
2.175042e+09 -1.390908e-03 -4.952607e+01
2.212541e+09 2.000872e-02 -5.043346e+01
2.250040e+09 1.378566e-03 -5.124441e+01
2.287539e+09 1.136570e-02 -5.209075e+01
2.325038e+09 3.873486e-03 -5.296169e+01
2.362537e+09 -1.131455e-02 -5.380967e+01
2.400036e+09 5.191133e-03 -5.466463e+01
2.437535e+09 2.833797e-02 -5.542050e+01
2.475034e+09 3.904174e-04 -5.639209e+01
2.512533e+09 -1.506478e-02 -5.741215e+01
2.550032e+09 1.473832e-03 -5.811440e+01
2.587531e+09 8.783747e-03 -5.866303e+01
2.625030e+09 8.508778e-03 -6.007637e+01
2.662529e+09 2.072099e-02 -6.101791e+01
2.700028e+09 3.325582e-04 -6.146994e+01
2.737527e+09 -3.929625e-02 -6.200374e+01
2.775026e+09 -2.677896e-02 -6.300963e+01
2.812525e+09 1.219217e-02 -6.407169e+01
2.850024e+09 9.284462e-03 -6.491397e+01
2.887523e+09 1.243138e-02 -6.575599e+01
2.925022e+09 -9.960076e-05 -6.660761e+01
2.962521e+09 4.059710e-03 -6.745995e+01
3.000020e+09 -5.212579e-03 -6.828841e+01
3.037519e+09 -1.634908e-03 -6.915564e+01
3.075018e+09 2.600425e-02 -6.995317e+01
3.112517e+09 2.028756e-02 -7.080385e+01
3.150016e+09 -1.783854e-02 -7.196055e+01
3.187515e+09 2.531636e-02 -7.239666e+01
3.225014e+09 1.336696e-02 -7.346013e+01
3.262513e+09 7.537688e-03 -7.441415e+01
3.300012e+09 -3.440676e-03 -7.497575e+01
3.337511e+09 2.276471e-02 -7.640758e+01
3.375010e+09 -1.456803e-02 -7.683475e+01
3.412509e+09 -3.241235e-03 -7.779743e+01
3.450008e+09 -4.980441e-02 -7.845055e+01
3.487507e+09 1.268001e-02 -7.954047e+01
3.525006e+09 5.515923e-02 -8.040935e+01
3.562505e+09 -4.952669e-03 -8.115928e+01
3.600004e+09 1.646141e-02 -8.194274e+01
3.637503e+09 6.433509e-03 -8.284508e+01
3.675002e+09 1.594701e-02 -8.368496e+01
3.712501e+09 3.482034e-03 -8.453566e+01
3.750000e+09 -2.630688e-02 -8.549049e+01
3.787499e+09 1.010653e-02 -8.620472e+01
3.824998e+09 1.538931e-02 -8.699753e+01
3.862497e+09 3.069941e-02 -8.755380e+01
3.899996e+09 -1.095328e-02 -8.976286e+01
3.937495e+09 1.392090e-02 -8.938290e+01
3.974994e+09 1.515669e-02 -9.036303e+01
4.012493e+09 2.968920e-02 -9.141035e+01
4.049992e+09 -4.417557e-02 -9.162308e+01
4.087491e+09 2.405601e-02 -9.305922e+01
4.124990e+09 7.492334e-03 -9.387476e+01
4.162489e+09 7.928512e-03 -9.476672e+01
4.199988e+09 3.759281e-02 -9.567633e+01
4.237487e+09 3.265940e-02 -9.647591e+01
4.274986e+09 7.487440e-03 -9.734309e+01
4.312485e+09 1.643430e-02 -9.821100e+01
4.349984e+09 3.096603e-02 -9.901272e+01
4.387483e+09 -1.878397e-02 -9.991120e+01
4.424982e+09 4.332270e-02 -1.005865e+02
4.462481e+09 2.026583e-03 -1.016015e+02
4.499980e+09 1.330095e-02 -1.023733e+02
4.537479e+09 2.013946e-02 -1.029826e+02
4.574978e+09 -7.011477e-04 -1.044561e+02
4.612477e+09 6.684025e-03 -1.050589e+02
4.649976e+09 2.170873e-02 -1.062355e+02
4.687475e+09 2.486807e-02 -1.068984e+02
4.724974e+09 -1.255430e-02 -1.073320e+02
4.762473e+09 4.206108e-02 -1.085459e+02
4.799972e+09 3.592181e-02 -1.093211e+02
4.837471e+09 -2.812689e-02 -1.100344e+02
4.874970e+09 1.928191e-02 -1.109563e+02
4.912469e+09 6.386265e-03 -1.118439e+02
4.949968e+09 1.066303e-02 -1.126992e+02
4.987467e+09 1.740257e-02 -1.135429e+02
5.024966e+09 -3.242683e-03 -1.143544e+02
5.062465e+09 -2.802580e-02 -1.153142e+02
5.099964e+09 -9.516991e-03 -1.161681e+02
5.137463e+09 -1.323031e-02 -1.171256e+02
5.174962e+09 1.771419e-02 -1.176220e+02
5.212461e+09 1.083567e-02 -1.186765e+02
5.249960e+09 1.310465e-02 -1.195443e+02
5.287459e+09 3.389366e-03 -1.202671e+02
5.324958e+09 2.182309e-02 -1.213526e+02
5.362457e+09 3.887799e-02 -1.223186e+02
5.399956e+09 -4.003926e-03 -1.228030e+02
5.437455e+09 7.267039e-03 -1.237613e+02
5.474954e+09 -6.489856e-03 -1.245628e+02
5.512453e+09 1.269111e-03 -1.254451e+02
5.549952e+09 -7.208486e-03 -1.263330e+02
5.587451e+09 1.202380e-02 -1.271667e+02
5.624950e+09 9.305769e-03 -1.280065e+02
5.662449e+09 1.642503e-02 -1.289044e+02
5.699948e+09 -1.584052e-02 -1.297459e+02
5.737447e+09 -3.487670e-02 -1.307076e+02
5.774946e+09 3.301639e-02 -1.312560e+02
5.812445e+09 -1.471602e-02 -1.324221e+02
5.849944e+09 -7.085906e-03 -1.332903e+02
5.887443e+09 -1.254689e-02 -1.344890e+02
5.924942e+09 1.319280e-04 -1.349369e+02
5.962441e+09 -1.309597e-02 -1.354384e+02
5.999940e+09 2.338495e-03 -1.365084e+02
6.037439e+09 -6.241843e-02 -1.369220e+02
6.074938e+09 3.369370e-03 -1.382004e+02
6.112437e+09 -3.023447e-02 -1.389848e+02
6.149936e+09 1.584979e-02 -1.399313e+02
6.187435e+09 -5.467854e-05 -1.407975e+02
6.224934e+09 1.281170e-02 -1.416543e+02
6.262433e+09 2.267730e-02 -1.425618e+02
6.299932e+09 -1.063965e-02 -1.433494e+02
6.337431e+09 2.457165e-02 -1.442705e+02
6.374930e+09 1.212437e-02 -1.451620e+02
6.412429e+09 -1.704824e-02 -1.462045e+02
6.449928e+09 1.670347e-02 -1.468880e+02
6.487427e+09 -1.399934e-02 -1.480634e+02
6.524926e+09 6.142106e-03 -1.486713e+02
6.562425e+09 8.812414e-04 -1.500346e+02
6.599924e+09 2.023646e-03 -1.504144e+02
6.637423e+09 3.021936e-02 -1.517108e+02
6.674922e+09 1.952567e-02 -1.522432e+02
6.712421e+09 -2.086770e-02 -1.526875e+02
6.749920e+09 -9.784982e-03 -1.536203e+02
6.787419e+09 -2.747106e-02 -1.544352e+02
6.824918e+09 5.215177e-02 -1.553700e+02
6.862417e+09 5.425518e-03 -1.561694e+02
6.899916e+09 5.150582e-03 -1.570566e+02
6.937415e+09 1.397685e-02 -1.578912e+02
6.974914e+09 1.618773e-03 -1.587287e+02
7.012413e+09 1.639118e-02 -1.595362e+02
7.049912e+09 2.835896e-02 -1.603898e+02
7.087411e+09 -3.245690e-03 -1.614813e+02
7.124910e+09 7.638770e-02 -1.613148e+02
7.162409e+09 4.142651e-02 -1.623206e+02
7.199908e+09 3.011446e-02 -1.643918e+02
7.237407e+09 4.049665e-02 -1.656032e+02
7.274906e+09 5.415121e-02 -1.661995e+02
7.312405e+09 6.909536e-03 -1.663258e+02
7.349904e+09 1.742496e-03 -1.672269e+02
7.387403e+09 -5.176363e-02 -1.677227e+02
7.424902e+09 7.081966e-02 -1.692290e+02
7.462401e+09 2.377808e-02 -1.698478e+02
7.499900e+09 2.105222e-03 -1.706397e+02
