# Hz S DB R 50.000000 
1.000000e+05 -1.247605e-02 -1.798418e+02
3.759900e+07 -2.214030e-03 1.791332e+02
7.509800e+07 -2.303491e-02 1.782338e+02
1.125970e+08 4.923145e-02 1.775929e+02
1.500960e+08 -3.088620e-02 1.763907e+02
1.875950e+08 -4.476098e-03 1.757018e+02
2.250940e+08 6.012087e-03 1.748895e+02
2.625930e+08 -1.421234e-02 1.737318e+02
3.000920e+08 4.485163e-03 1.734982e+02
3.375910e+08 -2.960896e-03 1.720648e+02
3.750900e+08 -2.038096e-02 1.716126e+02
4.125890e+08 -1.582936e-02 1.707079e+02
4.500880e+08 -1.517945e-02 1.698285e+02
4.875870e+08 3.166871e-02 1.686607e+02
5.250860e+08 1.042846e-02 1.679211e+02
5.625850e+08 2.142590e-02 1.670413e+02
6.000840e+08 9.116774e-03 1.662121e+02
6.375830e+08 -1.486087e-03 1.653710e+02
6.750820e+08 2.193619e-03 1.645103e+02
7.125810e+08 -1.203524e-03 1.636552e+02
7.500800e+08 3.239179e-02 1.628908e+02
7.875790e+08 6.513917e-04 1.619587e+02
8.250780e+08 -2.321275e-02 1.609443e+02
8.625770e+08 -4.733741e-03 1.602167e+02
9.000760e+08 -1.942682e-03 1.593556e+02
9.375750e+08 -2.631631e-02 1.578081e+02
9.750740e+08 -1.846688e-03 1.577605e+02
1.012573e+09 8.877975e-04 1.567058e+02
1.050072e+09 -1.279529e-02 1.561189e+02
1.087571e+09 -6.845596e-03 1.551026e+02
1.125070e+09 -2.164705e-02 1.543509e+02
1.162569e+09 2.231907e-02 1.532017e+02
1.200068e+09 -1.133485e-02 1.525189e+02
1.237567e+09 -6.133755e-02 1.517372e+02
1.275066e+09 -2.061423e-02 1.507857e+02
1.312565e+09 5.739032e-04 1.499207e+02
1.350064e+09 9.074921e-03 1.490556e+02
1.387563e+09 -4.846256e-02 1.481307e+02
1.425062e+09 -3.025978e-02 1.472468e+02
1.462561e+09 2.550426e-02 1.466251e+02
1.500060e+09 -2.045236e-02 1.454751e+02
1.537559e+09 -1.229059e-02 1.446216e+02
1.575058e+09 -1.844040e-02 1.434705e+02
1.612557e+09 -4.037167e-03 1.427415e+02
1.650056e+09 -8.982506e-03 1.424025e+02
1.687555e+09 -4.509956e-02 1.419870e+02
1.725054e+09 2.035540e-02 1.401916e+02
1.762553e+09 -4.081724e-02 1.399121e+02
1.800052e+09 1.547475e-02 1.386514e+02
1.837551e+09 -4.211155e-02 1.380567e+02
1.875050e+09 -1.055761e-02 1.370077e+02
1.912549e+09 -1.342996e-02 1.361596e+02
1.950048e+09 9.662587e-04 1.352856e+02
1.987547e+09 -1.393267e-03 1.344579e+02
2.025046e+09 -1.459768e-02 1.335635e+02
2.062545e+09 4.846531e-04 1.327105e+02
2.100044e+09 -1.413214e-02 1.317923e+02
2.137543e+09 -2.066859e-02 1.308682e+02
2.175042e+09 -5.318433e-03 1.301003e+02
2.212541e+09 -1.099904e-02 1.291602e+02
2.250040e+09 2.280481e-03 1.286269e+02
2.287539e+09 -4.775787e-03 1.276571e+02
2.325038e+09 -1.096385e-02 1.268807e+02
2.362537e+09 -1.144083e-02 1.259017e+02
2.400036e+09 2.922625e-02 1.246136e+02
2.437535e+09 8.415126e-03 1.239919e+02
2.475034e+09 1.142796e-02 1.231711e+02
2.512533e+09 -4.726006e-02 1.225149e+02
2.550032e+09 -1.531435e-02 1.215451e+02
2.587531e+09 6.586260e-03 1.206647e+02
2.625030e+09 2.759441e-03 1.198207e+02
2.662529e+09 4.539601e-03 1.189348e+02
2.700028e+09 -5.777246e-03 1.181027e+02
2.737527e+09 1.455896e-03 1.172588e+02
2.775026e+09 -3.345475e-03 1.163918e+02
2.812525e+09 2.740369e-03 1.155582e+02
2.850024e+09 -1.456670e-02 1.145323e+02
2.887523e+09 1.556495e-02 1.141636e+02
2.925022e+09 -4.160830e-03 1.127835e+02
2.962521e+09 -9.782128e-03 1.124920e+02
3.000020e+09 -1.059373e-02 1.114116e+02
3.037519e+09 3.223120e-02 1.103098e+02
3.075018e+09 -1.012664e-02 1.097858e+02
3.112517e+09 -1.217395e-02 1.088283e+02
3.150016e+09 -2.948265e-02 1.079592e+02
3.187515e+09 7.579484e-03 1.069308e+02
3.225014e+09 -1.135066e-02 1.060735e+02
3.262513e+09 -2.884453e-02 1.051730e+02
3.300012e+09 3.400114e-03 1.043778e+02
3.337511e+09 1.494455e-02 1.035067e+02
3.375010e+09 -3.190558e-02 1.026345e+02
3.412509e+09 -1.692388e-02 1.017693e+02
3.450008e+09 -7.921399e-03 1.009183e+02
3.487507e+09 -2.381929e-02 9.996036e+01
3.525006e+09 -6.055166e-02 9.855000e+01
3.562505e+09 -1.626394e-02 9.841764e+01
3.600004e+09 -2.533710e-02 9.775040e+01
3.637503e+09 -6.130394e-03 9.611160e+01
3.675002e+09 -8.423349e-03 9.557460e+01
3.712501e+09 -4.034816e-02 9.508321e+01
3.750000e+09 -3.769175e-04 9.397487e+01
3.787499e+09 -3.221514e-02 9.328354e+01
3.824998e+09 -2.172424e-02 9.235718e+01
3.862497e+09 1.151908e-02 9.144884e+01
3.899996e+09 1.361865e-02 9.061206e+01
3.937495e+09 -2.528326e-03 8.972193e+01
3.974994e+09 -7.216097e-03 8.887487e+01
4.012493e+09 -2.279447e-02 8.800110e+01
4.049992e+09 -1.191820e-02 8.713270e+01
4.087491e+09 3.334576e-02 8.648262e+01
4.124990e+09 5.691966e-03 8.547766e+01
4.162489e+09 -2.535768e-02 8.423567e+01
4.199988e+09 1.477943e-02 8.418021e+01
4.237487e+09 -2.239942e-03 8.328301e+01
4.274986e+09 -3.725166e-03 8.194460e+01
4.312485e+09 -2.411472e-02 8.149017e+01
4.349984e+09 -8.365581e-03 8.029259e+01
4.387483e+09 -2.837976e-02 7.959424e+01
4.424982e+09 -4.332149e-02 7.882421e+01
4.462481e+09 -1.741111e-03 7.777809e+01
4.499980e+09 -2.626976e-02 7.701021e+01
4.537479e+09 2.566796e-02 7.610953e+01
4.574978e+09 -1.792571e-02 7.516560e+01
4.612477e+09 6.725168e-03 7.435238e+01
4.649976e+09 2.026091e-02 7.350952e+01
4.687475e+09 3.323421e-02 7.270655e+01
4.724974e+09 1.449560e-02 7.184614e+01
4.762473e+09 3.515867e-02 7.114771e+01
4.799972e+09 -2.854293e-03 7.009327e+01
4.837471e+09 3.083003e-02 6.966489e+01
4.874970e+09 -1.169925e-02 6.811910e+01
4.912469e+09 3.050006e-03 6.735573e+01
4.949968e+09 -1.095837e-02 6.665377e+01
4.987467e+09 -1.684041e-02 6.594777e+01
5.024966e+09 4.000019e-02 6.445756e+01
5.062465e+09 -8.082591e-02 6.440927e+01
5.099964e+09 -7.826133e-02 6.341702e+01
5.137463e+09 -1.407945e-03 6.218845e+01
5.174962e+09 7.882050e-03 6.131693e+01
5.212461e+09 -1.684296e-02 6.050232e+01
5.249960e+09 -6.488509e-03 5.961756e+01
5.287459e+09 2.494345e-05 5.872328e+01
5.324958e+09 -2.401664e-03 5.794732e+01
5.362457e+09 2.205040e-02 5.706418e+01
5.399956e+09 -1.118310e-02 5.615653e+01
5.437455e+09 3.952289e-02 5.549923e+01
5.474954e+09 -2.863522e-03 5.437486e+01
5.512453e+09 1.945358e-02 5.386011e+01
5.549952e+09 5.735076e-03 5.273233e+01
5.587451e+09 4.288937e-03 5.230483e+01
5.624950e+09 -9.915512e-04 5.137761e+01
5.662449e+09 -2.097556e-03 5.041383e+01
5.699948e+09 1.801095e-02 4.929454e+01
5.737447e+09 3.124303e-04 4.867766e+01
5.774946e+09 2.185574e-02 4.768666e+01
5.812445e+09 2.609883e-02 4.683447e+01
5.849944e+09 2.293613e-02 4.600320e+01
5.887443e+09 2.270289e-02 4.512864e+01
5.924942e+09 2.411603e-02 4.430100e+01
5.962441e+09 3.086553e-02 4.353606e+01
5.999940e+09 3.641686e-03 4.278185e+01
6.037439e+09 3.215704e-02 4.189922e+01
6.074938e+09 7.410864e-02 4.116321e+01
6.112437e+09 2.773162e-02 4.013590e+01
6.149936e+09 9.561266e-02 3.964698e+01
6.187435e+09 4.579608e-02 3.837931e+01
6.224934e+09 4.675376e-02 3.735265e+01
6.262433e+09 5.827298e-02 3.617605e+01
6.299932e+09 4.583435e-02 3.597847e+01
6.337431e+09 3.724497e-02 3.511742e+01
6.374930e+09 4.475077e-02 3.404969e+01
6.412429e+09 8.324943e-02 3.296078e+01
6.449928e+09 1.767138e-02 3.235273e+01
6.487427e+09 4.804367e-02 3.142442e+01
6.524926e+09 -3.122932e-03 3.052470e+01
6.562425e+09 2.154238e-02 2.967772e+01
6.599924e+09 1.442165e-02 2.880888e+01
6.637423e+09 3.145386e-03 2.793401e+01
6.674922e+09 1.411436e-02 2.709141e+01
6.712421e+09 6.439176e-02 2.645472e+01
6.749920e+09 4.199323e-03 2.543625e+01
6.787419e+09 -3.301582e-02 2.432300e+01
6.824918e+09 1.175577e-02 2.402540e+01
6.862417e+09 1.534699e-03 2.310306e+01
6.899916e+09 -8.026454e-03 2.160669e+01
6.937415e+09 -7.732799e-03 2.118251e+01
6.974914e+09 -3.616203e-02 2.093915e+01
7.012413e+09 2.622306e-02 1.910824e+01
7.049912e+09 7.281107e-02 1.800659e+01
7.087411e+09 -1.751224e-02 1.775192e+01
7.124910e+09 -2.423711e-02 1.687130e+01
7.162409e+09 1.865679e-02 1.590498e+01
7.199908e+09 3.835473e-02 1.505886e+01
7.237407e+09 3.292871e-02 1.416673e+01
7.274906e+09 4.455823e-02 1.331656e+01
7.312405e+09 4.941531e-02 1.245082e+01
7.349904e+09 2.422161e-02 1.148650e+01
7.387403e+09 1.838477e-02 1.044136e+01
7.424902e+09 5.694423e-02 9.852148e+00
7.462401e+09 3.450602e-02 8.030245e+00
7.499900e+09 5.874483e-02 8.566752e+00
