# Hz S RI R 50.000000
! FREQ                re:S1  1             im:S1  1  
1.000000e+05 -9.991776e-01  -1.073464e-03
3.759900e+07 -9.996315e-01  1.513696e-02
7.509800e+07 -9.969046e-01  3.081373e-02
1.125970e+08 -1.005079e+00  4.228992e-02
1.500960e+08 -9.945661e-01  6.289684e-02
1.875950e+08 -9.968495e-01  7.492433e-02
2.250940e+08 -9.963317e-01  8.968941e-02
2.625930e+08 -9.925451e-01  1.085522e-01
3.000920e+08 -9.940924e-01  1.134808e-01
3.375910e+08 -9.902509e-01  1.385801e-01
3.750900e+08 -9.873529e-01  1.456509e-01
4.125890e+08 -9.849489e-01  1.602880e-01
4.500880e+08 -9.827753e-01  1.767544e-01
4.875870e+08 -9.836613e-01  1.971626e-01
5.250860e+08 -9.790055e-01  2.095162e-01
5.625850e+08 -9.773423e-01  2.250981e-01
6.000840e+08 -9.721045e-01  2.385605e-01
6.375830e+08 -9.673978e-01  2.525399e-01
6.750820e+08 -9.639280e-01  2.671842e-01
7.125810e+08 -9.596446e-01  2.814688e-01
7.500800e+08 -9.594006e-01  2.953418e-01
7.875790e+08 -9.504197e-01  3.099304e-01
8.250780e+08 -9.425168e-01  3.258157e-01
8.625770e+08 -9.402704e-01  3.385457e-01
9.000760e+08 -9.363428e-01  3.518742e-01
9.375750e+08 -9.229072e-01  3.770327e-01
9.750740e+08 -9.251964e-01  3.790675e-01
1.012573e+09 -9.187225e-01  3.951109e-01
1.050072e+09 -9.131456e-01  4.036936e-01
1.087571e+09 -9.064750e-01  4.216075e-01
1.125070e+09 -8.992369e-01  4.318110e-01
1.162569e+09 -8.951104e-01  4.525331e-01
1.200068e+09 -8.860401e-01  4.610194e-01
1.237567e+09 -8.746114e-01  4.703290e-01
1.275066e+09 -8.705283e-01  4.869607e-01
1.312565e+09 -8.652214e-01  5.013254e-01
1.350064e+09 -8.585163e-01  5.149749e-01
1.387563e+09 -8.445167e-01  5.252758e-01
1.425062e+09 -8.383187e-01  5.393806e-01
1.462561e+09 -8.372883e-01  5.519462e-01
1.500060e+09 -8.219780e-01  5.655870e-01
1.537559e+09 -8.140728e-01  5.783356e-01
1.575058e+09 -8.017675e-01  5.941291e-01
1.612557e+09 -7.960595e-01  6.045217e-01
1.650056e+09 -7.916165e-01  6.093438e-01
1.687555e+09 -7.840500e-01  6.118037e-01
1.725054e+09 -7.699418e-01  6.419599e-01
1.762553e+09 -7.614634e-01  6.400615e-01
1.800052e+09 -7.519591e-01  6.611378e-01
1.837551e+09 -7.401605e-01  6.648304e-01
1.875050e+09 -7.303507e-01  6.804335e-01
1.912549e+09 -7.203110e-01  6.916425e-01
1.950048e+09 -7.108630e-01  7.036118e-01
1.987547e+09 -7.003040e-01  7.135307e-01
2.025046e+09 -6.881040e-01  7.232927e-01
2.062545e+09 -6.785938e-01  7.347867e-01
2.100044e+09 -6.659458e-01  7.443602e-01
2.137543e+09 -6.526791e-01  7.543013e-01
2.175042e+09 -6.438813e-01  7.643714e-01
2.212541e+09 -6.299901e-01  7.746114e-01
2.250040e+09 -6.247435e-01  7.813185e-01
2.287539e+09 -6.111369e-01  7.910115e-01
2.325038e+09 -5.998808e-01  7.986342e-01
2.362537e+09 -5.859831e-01  8.088697e-01
2.400036e+09 -5.701633e-01  8.260935e-01
2.437535e+09 -5.599852e-01  8.296994e-01
2.475034e+09 -5.483219e-01  8.364369e-01
2.512533e+09 -5.347748e-01  8.372643e-01
2.550032e+09 -5.224371e-01  8.502544e-01
2.587531e+09 -5.103739e-01  8.602475e-01
2.625030e+09 -4.975456e-01  8.676719e-01
2.662529e+09 -4.841067e-01  8.754385e-01
2.700028e+09 -4.705088e-01  8.811042e-01
2.737527e+09 -4.575956e-01  8.886463e-01
2.775026e+09 -4.443174e-01  8.954740e-01
2.812525e+09 -4.311026e-01  9.023190e-01
2.850024e+09 -4.141347e-01  9.081823e-01
2.887523e+09 -4.106965e-01  9.139319e-01
2.925022e+09 -3.870560e-01  9.214732e-01
2.962521e+09 -3.811797e-01  9.233141e-01
3.000020e+09 -3.641515e-01  9.300253e-01
3.037519e+09 -3.479815e-01  9.413278e-01
3.075018e+09 -3.379746e-01  9.393629e-01
3.112517e+09 -3.220655e-01  9.448001e-01
3.150016e+09 -3.069659e-01  9.480692e-01
3.187515e+09 -2.911925e-01  9.568465e-01
3.225014e+09 -2.763053e-01  9.595382e-01
3.262513e+09 -2.606317e-01  9.616857e-01
3.300012e+09 -2.481014e-01  9.688674e-01
3.337511e+09 -2.338057e-01  9.738784e-01
3.375010e+09 -2.178875e-01  9.722982e-01
3.412509e+09 -2.034659e-01  9.769061e-01
3.450008e+09 -1.888708e-01  9.806524e-01
3.487507e+09 -1.717577e-01  9.818340e-01
3.525006e+09 -1.479826e-01  9.822231e-01
3.562505e+09 -1.468886e-01  9.875870e-01
3.600004e+09 -1.358876e-01  9.880219e-01
3.637503e+09 -1.076900e-01  9.935877e-01
3.675002e+09 -9.735408e-02  9.947167e-01
3.712501e+09 -8.913847e-02  9.913666e-01
3.750000e+09 -7.000721e-02  9.977159e-01
3.787499e+09 -5.768104e-02  9.949209e-01
3.824998e+09 -4.174780e-02  9.964816e-01
3.862497e+09 -2.591142e-02  1.001285e+00
3.899996e+09 -1.124426e-02  1.001523e+00
3.937495e+09 4.235498e-03  9.997748e-01
3.974994e+09 1.927424e-02  9.989644e-01
4.012493e+09 3.457543e-02  9.969599e-01
4.049992e+09 4.979068e-02  9.975489e-01
4.087491e+09 6.142356e-02  1.002243e+00
4.124990e+09 7.922347e-02  9.973863e-01
4.162489e+09 1.005427e-01  9.918904e-01
4.199988e+09 1.014749e-01  9.965734e-01
4.237487e+09 1.173604e-01  9.927777e-01
4.274986e+09 1.413051e-01  9.895654e-01
4.312485e+09 1.467943e-01  9.856898e-01
4.349984e+09 1.695263e-01  9.845822e-01
4.387483e+09 1.803112e-01  9.796089e-01
4.424982e+09 1.941796e-01  9.759993e-01
4.462481e+09 2.125301e-01  9.764110e-01
4.499980e+09 2.248994e-01  9.703884e-01
4.537479e+09 2.416910e-01  9.724320e-01
4.574978e+09 2.565169e-01  9.633941e-01
4.612477e+09 2.710225e-01  9.623868e-01
4.649976e+09 2.854909e-01  9.595843e-01
4.687475e+09 2.995776e-01  9.570741e-01
4.724974e+09 3.132964e-01  9.504034e-01
4.762473e+09 3.257188e-01  9.486002e-01
4.799972e+09 3.413741e-01  9.390297e-01
4.837471e+09 3.501010e-01  9.396966e-01
4.874970e+09 3.735117e-01  9.255576e-01
4.912469e+09 3.869490e-01  9.221589e-01
4.949968e+09 3.960702e-01  9.165207e-01
4.987467e+09 4.083635e-01  9.109005e-01
5.024966e+09 4.337167e-01  9.061266e-01
5.062465e+09 4.275912e-01  8.930438e-01
5.099964e+09 4.426166e-01  8.856450e-01
5.137463e+09 4.661887e-01  8.841927e-01
5.174962e+09 4.803239e-01  8.783845e-01
5.212461e+09 4.909864e-01  8.685718e-01
5.249960e+09 5.050347e-01  8.622680e-01
5.287459e+09 5.187264e-01  8.547613e-01
5.324958e+09 5.299584e-01  8.473022e-01
5.362457e+09 5.449269e-01  8.418447e-01
5.399956e+09 5.558145e-01  8.293141e-01
5.437455e+09 5.686632e-01  8.279730e-01
5.474954e+09 5.821230e-01  8.121914e-01
5.512453e+09 5.906381e-01  8.094959e-01
5.549952e+09 6.061664e-01  7.956079e-01
5.587451e+09 6.122263e-01  7.908837e-01
5.624950e+09 6.228477e-01  7.811116e-01
5.662449e+09 6.368197e-01  7.698304e-01
5.699948e+09 6.534894e-01  7.587844e-01
5.737447e+09 6.608148e-01  7.500916e-01
5.774946e+09 6.747436e-01  7.400669e-01
5.812445e+09 6.851314e-01  7.296854e-01
5.849944e+09 6.960384e-01  7.194784e-01
5.887443e+09 7.067268e-01  7.083851e-01
5.924942e+09 7.169583e-01  6.978516e-01
5.962441e+09 7.266543e-01  6.883999e-01
5.999940e+09 7.336856e-01  6.765428e-01
6.037439e+09 7.463793e-01  6.672494e-01
6.074938e+09 7.582010e-01  6.600913e-01
6.112437e+09 7.660037e-01  6.433881e-01
6.149936e+09 7.773911e-01  6.409527e-01
6.187435e+09 7.867732e-01  6.210549e-01
6.224934e+09 7.978690e-01  6.066717e-01
6.262433e+09 8.116057e-01  5.904937e-01
6.299932e+09 8.126055e-01  5.872298e-01
6.337431e+09 8.203309e-01  5.748271e-01
6.374930e+09 8.321752e-01  5.600851e-01
6.412429e+09 8.462351e-01  5.469977e-01
6.449928e+09 8.449086e-01  5.343213e-01
6.487427e+09 8.565942e-01  5.226389e-01
6.524926e+09 8.600628e-01  5.066603e-01
6.562425e+09 8.697232e-01  4.953614e-01
6.599924e+09 8.766015e-01  4.820210e-01
6.637423e+09 8.823530e-01  4.681160e-01
6.674922e+09 8.908565e-01  4.560547e-01
6.712421e+09 9.010218e-01  4.487390e-01
6.749920e+09 9.025347e-01  4.291646e-01
6.787419e+09 9.072797e-01  4.107075e-01
6.824918e+09 9.141967e-01  4.076553e-01
6.862417e+09 9.196435e-01  3.928720e-01
6.899916e+09 9.286253e-01  3.684416e-01
6.937415e+09 9.325727e-01  3.593071e-01
6.974914e+09 9.292252e-01  3.569224e-01
7.012413e+09 9.469163e-01  3.290123e-01
7.049912e+09 9.589394e-01  3.116032e-01
7.087411e+09 9.492525e-01  3.044850e-01
7.124910e+09 9.528016e-01  2.893765e-01
7.162409e+09 9.619696e-01  2.743553e-01
7.199908e+09 9.679805e-01  2.605985e-01
7.237407e+09 9.707177e-01  2.448489e-01
7.274906e+09 9.746786e-01  2.306868e-01
7.312405e+09 9.784380e-01  2.157752e-01
7.349904e+09 9.787987e-01  1.985154e-01
7.387403e+09 9.811345e-01  1.805393e-01
7.424902e+09 9.866220e-01  1.705948e-01
7.462401e+09 9.886569e-01  1.393392e-01
7.499900e+09 9.895428e-01  1.492723e-01
