# Hz S DB R 50.000000 
1.000000e+05 1.218764e-02 -1.791383e+02
3.759900e+07 -4.764763e-03 1.791364e+02
7.509800e+07 2.469390e-03 1.782807e+02
1.125970e+08 1.426521e-02 1.774662e+02
1.500960e+08 -7.254212e-03 1.765175e+02
1.875950e+08 -4.898416e-03 1.756449e+02
2.250940e+08 3.992107e-02 1.752951e+02
2.625930e+08 -2.404644e-02 1.734631e+02
3.000920e+08 7.512655e-03 1.732181e+02
3.375910e+08 6.080787e-03 1.722914e+02
3.750900e+08 3.679377e-03 1.714872e+02
4.125890e+08 -4.181988e-02 1.711006e+02
4.500880e+08 -4.101228e-02 1.700084e+02
4.875870e+08 -5.207254e-03 1.688744e+02
5.250860e+08 -2.796583e-04 1.679600e+02
5.625850e+08 4.543819e-02 1.669879e+02
6.000840e+08 1.063010e-02 1.662308e+02
6.375830e+08 1.753905e-03 1.653872e+02
6.750820e+08 4.387945e-03 1.645202e+02
7.125810e+08 -9.065235e-04 1.636657e+02
7.500800e+08 1.560582e-02 1.628416e+02
7.875790e+08 1.934633e-03 1.619431e+02
8.250780e+08 -8.009353e-03 1.610258e+02
8.625770e+08 -7.188952e-03 1.601473e+02
9.000760e+08 -3.892219e-02 1.587762e+02
9.375750e+08 -6.647637e-03 1.582743e+02
9.750740e+08 1.343296e-03 1.574076e+02
1.012573e+09 -8.345882e-03 1.572600e+02
1.050072e+09 -1.338617e-02 1.561828e+02
1.087571e+09 -1.721709e-03 1.551014e+02
1.125070e+09 4.060564e-02 1.539048e+02
1.162569e+09 -2.396877e-02 1.534741e+02
1.200068e+09 2.177511e-02 1.524389e+02
1.237567e+09 -4.662471e-02 1.517216e+02
1.275066e+09 6.835417e-03 1.507749e+02
1.312565e+09 3.078650e-03 1.499313e+02
1.350064e+09 4.721357e-04 1.490577e+02
1.387563e+09 -9.446616e-03 1.481807e+02
1.425062e+09 1.778181e-02 1.473881e+02
1.462561e+09 3.840797e-03 1.464894e+02
1.500060e+09 -3.254683e-02 1.453305e+02
1.537559e+09 1.464115e-02 1.449321e+02
1.575058e+09 1.849105e-02 1.444885e+02
1.612557e+09 1.014056e-03 1.430578e+02
1.650056e+09 9.325767e-03 1.418860e+02
1.687555e+09 -1.762663e-02 1.416090e+02
1.725054e+09 1.145554e-03 1.404428e+02
1.762553e+09 -5.621790e-02 1.400256e+02
1.800052e+09 -4.805701e-02 1.389962e+02
1.837551e+09 1.131351e-02 1.378221e+02
1.875050e+09 -7.105373e-03 1.370336e+02
1.912549e+09 4.948957e-03 1.361461e+02
1.950048e+09 -5.555301e-03 1.352928e+02
1.987547e+09 -1.786749e-04 1.344462e+02
2.025046e+09 5.633151e-03 1.335806e+02
2.062545e+09 4.211172e-03 1.327299e+02
2.100044e+09 -1.948151e-03 1.318359e+02
2.137543e+09 1.125281e-02 1.310832e+02
2.175042e+09 -2.530724e-03 1.301003e+02
2.212541e+09 2.002286e-02 1.295571e+02
2.250040e+09 3.717859e-03 1.286205e+02
2.287539e+09 7.895228e-05 1.271705e+02
2.325038e+09 1.212377e-02 1.262981e+02
2.362537e+09 -9.461078e-03 1.259484e+02
2.400036e+09 -2.441807e-02 1.251983e+02
2.437535e+09 3.543019e-03 1.240963e+02
2.475034e+09 4.951586e-02 1.230079e+02
2.512533e+09 -1.384639e-02 1.224539e+02
2.550032e+09 -3.894445e-03 1.215465e+02
2.587531e+09 1.376798e-02 1.206844e+02
2.625030e+09 -5.820087e-03 1.198158e+02
2.662529e+09 6.146377e-03 1.189360e+02
2.700028e+09 1.137801e-03 1.180990e+02
2.737527e+09 -3.577955e-02 1.171610e+02
2.775026e+09 -7.958210e-03 1.163465e+02
2.812525e+09 4.515960e-02 1.158329e+02
2.850024e+09 5.428703e-03 1.147156e+02
2.887523e+09 -2.534256e-02 1.133270e+02
2.925022e+09 2.877842e-03 1.129671e+02
2.962521e+09 -3.063909e-04 1.121510e+02
3.000020e+09 4.831060e-03 1.111707e+02
3.037519e+09 -6.411563e-03 1.106769e+02
3.075018e+09 2.722298e-02 1.095309e+02
3.112517e+09 2.440583e-02 1.086615e+02
3.150016e+09 5.907045e-02 1.076313e+02
3.187515e+09 5.926308e-03 1.069154e+02
3.225014e+09 -1.814816e-03 1.060551e+02
3.262513e+09 -1.971507e-03 1.052046e+02
3.300012e+09 4.025390e-03 1.043753e+02
3.337511e+09 1.182940e-02 1.035008e+02
3.375010e+09 -3.705158e-02 1.026290e+02
3.412509e+09 7.989386e-03 1.018297e+02
3.450008e+09 1.169864e-02 1.010138e+02
3.487507e+09 -1.816490e-02 9.998503e+01
3.525006e+09 1.578227e-02 9.957753e+01
3.562505e+09 -6.075830e-03 9.854482e+01
3.600004e+09 -1.654611e-02 9.774833e+01
3.637503e+09 -3.596128e-02 9.715745e+01
3.675002e+09 -1.403284e-02 9.575523e+01
3.712501e+09 -5.793272e-03 9.491060e+01
3.750000e+09 -1.671709e-03 9.411364e+01
3.787499e+09 6.439693e-02 9.299149e+01
3.824998e+09 -8.567307e-03 9.240857e+01
3.862497e+09 -1.854070e-02 9.152911e+01
3.899996e+09 -2.052693e-02 9.061925e+01
3.937495e+09 -2.991009e-03 8.972407e+01
3.974994e+09 5.591262e-03 8.888813e+01
4.012493e+09 6.001490e-03 8.804054e+01
4.049992e+09 -2.653652e-02 8.711618e+01
4.087491e+09 -1.092590e-02 8.627813e+01
4.124990e+09 -1.536907e-02 8.530112e+01
4.162489e+09 1.476975e-02 8.472281e+01
4.199988e+09 2.223682e-03 8.376368e+01
4.237487e+09 6.777045e-03 8.346289e+01
4.274986e+09 -1.000771e-02 8.218109e+01
4.312485e+09 2.308663e-03 8.095656e+01
4.349984e+09 -1.437692e-02 8.028132e+01
4.387483e+09 -8.277245e-02 7.986272e+01
4.424982e+09 -5.583425e-02 7.873845e+01
4.462481e+09 -2.204798e-02 7.770370e+01
4.499980e+09 -2.738966e-03 7.684083e+01
4.537479e+09 -5.361147e-03 7.598573e+01
4.574978e+09 -6.208513e-03 7.509779e+01
4.612477e+09 -7.211486e-04 7.420258e+01
4.649976e+09 -1.083973e-02 7.344253e+01
4.687475e+09 -4.233494e-03 7.254412e+01
4.724974e+09 -3.858659e-02 7.160912e+01
4.762473e+09 9.465768e-03 7.092041e+01
4.799972e+09 1.344331e-03 7.005496e+01
4.837471e+09 6.458035e-03 6.931425e+01
4.874970e+09 -1.706571e-02 6.811577e+01
4.912469e+09 -6.608499e-03 6.695389e+01
4.949968e+09 -2.727405e-03 6.659997e+01
4.987467e+09 -7.871512e-03 6.575753e+01
5.024966e+09 1.190977e-02 6.469471e+01
5.062465e+09 -2.300673e-02 6.404788e+01
5.099964e+09 -5.837860e-02 6.333520e+01
5.137463e+09 -1.465141e-02 6.225437e+01
5.174962e+09 2.079987e-03 6.136389e+01
5.212461e+09 -2.223906e-02 6.055561e+01
5.249960e+09 -1.097690e-02 5.965137e+01
5.287459e+09 2.086338e-03 5.883258e+01
5.324958e+09 -9.411817e-03 5.799084e+01
5.362457e+09 2.478842e-02 5.709570e+01
5.399956e+09 -3.960407e-02 5.610878e+01
5.437455e+09 -3.549652e-03 5.530638e+01
5.474954e+09 2.130725e-02 5.465996e+01
5.512453e+09 3.449974e-02 5.420246e+01
5.549952e+09 6.984067e-03 5.289462e+01
5.587451e+09 -8.450411e-04 5.231884e+01
5.624950e+09 3.620842e-02 5.023242e+01
5.662449e+09 -3.315000e-02 5.064436e+01
5.699948e+09 1.350154e-02 4.918300e+01
5.737447e+09 5.981513e-02 4.815328e+01
5.774946e+09 3.451982e-02 4.746419e+01
5.812445e+09 4.865460e-03 4.669234e+01
5.849944e+09 -1.559573e-02 4.589045e+01
5.887443e+09 -5.546916e-03 4.500378e+01
5.924942e+09 -1.146351e-02 4.406068e+01
5.962441e+09 -8.130981e-03 4.339646e+01
5.999940e+09 1.927369e-03 4.250320e+01
6.037439e+09 -2.909400e-02 4.163171e+01
6.074938e+09 -5.426836e-02 4.069060e+01
6.112437e+09 -2.769258e-02 3.981682e+01
6.149936e+09 1.249589e-02 3.913413e+01
6.187435e+09 1.808452e-02 3.834098e+01
6.224934e+09 1.326633e-02 3.742507e+01
6.262433e+09 6.504043e-03 3.686305e+01
6.299932e+09 -3.135713e-02 3.638621e+01
6.337431e+09 -1.518097e-02 3.502321e+01
6.374930e+09 2.710593e-02 3.380141e+01
6.412429e+09 9.423285e-03 3.302535e+01
6.449928e+09 -2.268151e-02 3.225160e+01
6.487427e+09 2.206153e-02 3.129643e+01
6.524926e+09 3.992023e-03 3.044268e+01
6.562425e+09 8.186290e-04 2.962533e+01
6.599924e+09 -1.596726e-02 2.879359e+01
6.637423e+09 1.715551e-02 2.788446e+01
6.674922e+09 -1.403660e-02 2.704390e+01
6.712421e+09 -5.343171e-02 2.603636e+01
6.749920e+09 -1.499818e-02 2.537168e+01
6.787419e+09 -8.908792e-03 2.457593e+01
6.824918e+09 -2.059924e-02 2.353665e+01
6.862417e+09 -5.923030e-03 2.289160e+01
6.899916e+09 -8.607850e-03 2.261526e+01
6.937415e+09 3.637270e-03 2.085173e+01
6.974914e+09 -8.431043e-03 2.036274e+01
7.012413e+09 -2.785647e-03 1.938764e+01
7.049912e+09 1.694930e-02 1.836509e+01
7.087411e+09 -2.398132e-02 1.769677e+01
7.124910e+09 -2.832928e-02 1.676770e+01
7.162409e+09 5.351714e-03 1.584090e+01
7.199908e+09 3.802959e-03 1.500033e+01
7.237407e+09 -6.893503e-03 1.413199e+01
7.274906e+09 -6.567482e-03 1.323719e+01
7.312405e+09 -2.563021e-02 1.232811e+01
7.349904e+09 -4.393968e-02 1.129932e+01
7.387403e+09 2.015016e-04 1.077641e+01
7.424902e+09 -5.224833e-03 1.011985e+01
7.462401e+09 -2.661021e-02 9.174039e+00
7.499900e+09 -3.361537e-02 8.051791e+00
