! This is a Touchstone .s1p format file
! It should be saved with .s1p extension 
! HEWLETT PACKARD,8720D,0,7.74  
! Date = 20 Mar 2018
! Time = 22:35:17
! S11 measured = FALSE
! S21 measured = FALSE
! S12 measured = FALSE
! S22 measured = TRUE
! Start frequency = 0.050000000 GHz
! Centre frequency  = 3.524999936 GHz
! Stop frequency  = 7.000000000 GHz
! IF bandwidth = 300 Hz
! Smoothing = OFF
! Smoothing aperture = 1.000000 %
! Averaging = OFF
! Averaging factor = 16
! Source power = On
! Source power = Auto mode
! Output power level = 5.000000 dBm
! Retrace power = Off
! Testset switching = Continuous
! Number of sweeps for test set switching (0=hold, 1=continuous,2-999 = number of sweeps) = 1
! Step sweep = On (check)
! List frequency sweep = Off (check)
! IFBW setting for a list-frequency table in swept list mode = Disabled (Check)
! Power setting for a list-frequency table in swept list mode = Disabled (Check)
! Measurement mode = Chop A and B
! Port extensions = OFF
! Port extension 1 = 0.000000 ps
! Port extension 2 = 41.370001 ps
! Points  = 1601
! Calibration kit = 3.5 mm D
! Calibration = S22 1-port
! Power = 5.000000 dBm
! Frequency magS22 angS22
! Magnitudes are in log form
! Angles are in degrees
# MHz S DB R 50
0.10000 0.00579 178.20312
50.00000 0.00579 178.20312
54.34375 0.00115 178.30469
58.68750 -0.00937 178.16406
63.03125 -0.01396 178.02344
67.37500 -0.00464 177.86719
71.71875 -0.00574 177.73438
76.06250 -0.00331 177.60156
80.40625 -0.00891 177.52344
84.75000 -0.00597 177.32812
89.09375 -0.00813 177.21875
93.43750 -0.01015 177.09375
97.78125 0.00129 176.92969
102.12500 -0.00243 176.79688
106.46875 -0.01576 176.74219
110.81250 -0.01415 176.56250
115.15625 -0.00740 176.40625
119.50000 -0.00988 176.33594
123.84375 -0.01883 176.16406
128.18750 -0.02788 176.00781
132.53125 -0.00758 175.85938
136.87500 -0.00207 175.69531
141.21875 -0.02076 175.60938
145.56250 -0.00597 175.48438
149.90625 -0.02260 175.39844
154.25000 -0.01419 175.24219
158.59375 -0.01066 175.13281
162.93750 -0.01631 174.99219
167.28125 -0.02136 174.89062
171.62500 -0.01980 174.73438
175.96875 -0.01741 174.60938
180.31250 -0.01672 174.44531
184.65625 -0.01631 174.31250
189.00000 -0.01879 174.19531
193.34375 -0.02099 174.01562
197.68750 -0.02825 173.95312
202.03125 -0.02526 173.79688
206.37500 -0.01654 173.65625
210.71875 -0.02370 173.48438
215.06250 -0.02333 173.38281
219.40625 -0.02168 173.26562
223.75000 -0.01957 173.11719
228.09375 -0.02448 173.03906
232.43750 -0.01856 172.87500
236.78125 -0.02816 172.75000
241.12500 -0.02085 172.59375
245.46875 -0.02012 172.40625
249.81250 -0.02200 172.34375
254.15625 -0.03128 172.21875
258.50000 -0.02825 172.07031
262.84375 -0.02724 171.95312
267.18750 -0.02389 171.82031
271.53125 -0.02577 171.69531
275.87500 -0.02531 171.57031
280.21875 -0.03124 171.41406
284.56250 -0.02623 171.31250
288.90625 -0.03059 171.12500
293.25000 -0.03064 171.04688
297.59375 -0.02912 170.89844
301.93750 -0.03454 170.77344
306.28125 -0.02940 170.64062
310.62500 -0.02692 170.49219
314.96875 -0.03238 170.40625
319.31250 -0.03032 170.24219
323.65625 -0.03229 170.10938
328.00000 -0.02917 169.99219
332.34375 -0.03349 169.85156
336.68750 -0.02921 169.74219
341.03125 -0.03183 169.57812
345.37500 -0.02921 169.44531
349.71875 -0.03009 169.30469
354.06250 -0.03082 169.21875
358.40625 -0.02802 169.06250
362.75000 -0.02940 168.89062
367.09375 -0.03390 168.78906
371.43750 -0.03275 168.66406
375.78125 -0.03620 168.56250
380.12500 -0.03477 168.42969
384.46875 -0.03509 168.29688
388.81250 -0.03753 168.14844
393.15625 -0.03661 168.05469
397.50000 -0.03523 167.87500
401.84375 -0.04024 167.78125
406.18750 -0.03606 167.64844
410.53125 -0.03817 167.48438
414.87500 -0.03542 167.37500
419.21875 -0.03748 167.27344
423.56250 -0.03358 167.09375
427.90625 -0.03491 166.97656
432.25000 -0.03229 166.81250
436.59375 -0.03675 166.75000
440.93750 -0.04029 166.60156
445.28125 -0.03610 166.50781
449.62500 -0.03464 166.32031
453.96875 -0.03845 166.17969
458.31250 -0.03776 166.07812
462.65625 -0.03693 165.93750
467.00000 -0.04029 165.83594
471.34375 -0.04084 165.67969
475.68750 -0.03771 165.56250
480.03125 -0.03652 165.42969
484.37500 -0.04001 165.27344
488.71875 -0.03872 165.15625
493.06250 -0.03840 165.00781
497.40625 -0.03845 164.89062
501.75000 -0.03776 164.78125
506.09375 -0.03849 164.64844
510.43750 -0.03969 164.52344
514.78125 -0.04226 164.38281
519.12500 -0.04088 164.25000
523.46875 -0.04378 164.12500
527.81250 -0.04157 163.99219
532.15625 -0.04198 163.85156
536.50000 -0.04130 163.71094
540.84375 -0.03881 163.59375
545.18750 -0.03946 163.45312
549.53125 -0.04217 163.32812
553.87500 -0.04359 163.21875
558.21875 -0.04309 163.06250
562.56250 -0.04162 162.96094
566.90625 -0.04152 162.78906
571.25000 -0.04630 162.66406
575.59375 -0.04400 162.50781
579.93750 -0.04708 162.42188
584.28125 -0.04589 162.28125
588.62500 -0.04424 162.15625
592.96875 -0.04157 162.00000
597.31250 -0.04254 161.90625
601.65625 -0.04396 161.77344
606.00000 -0.04456 161.63281
610.34375 -0.04185 161.52344
614.68750 -0.04534 161.36719
619.03125 -0.04557 161.23438
623.37500 -0.04295 161.11719
627.71875 -0.04281 161.01562
632.06250 -0.04506 160.85156
636.40625 -0.04768 160.73438
640.75000 -0.04566 160.60156
645.09375 -0.04708 160.50000
649.43750 -0.04607 160.33594
653.78125 -0.04910 160.23438
658.12500 -0.04910 160.08594
662.46875 -0.04970 159.98438
666.81250 -0.05108 159.80469
671.15625 -0.04988 159.68750
675.50000 -0.04860 159.57812
679.84375 -0.05048 159.43750
684.18750 -0.04566 159.30469
688.53125 -0.04717 159.15625
692.87500 -0.04809 159.03906
697.21875 -0.04910 158.91406
701.56250 -0.04497 158.78906
705.90625 -0.05034 158.62500
710.25000 -0.05090 158.52344
714.59375 -0.04777 158.38281
718.93750 -0.04993 158.26562
723.28125 -0.04805 158.15625
727.62500 -0.04869 158.00000
731.96875 -0.05030 157.85156
736.31250 -0.05177 157.74219
740.65625 -0.05227 157.59375
745.00000 -0.05287 157.47656
749.34375 -0.05062 157.32031
753.68750 -0.05048 157.21875
758.03125 -0.05195 157.10156
762.37500 -0.04809 156.97656
766.71875 -0.04777 156.82812
771.06250 -0.05044 156.71875
775.40625 -0.05260 156.57031
779.75000 -0.05076 156.44531
784.09375 -0.04966 156.32031
788.43750 -0.05122 156.20312
792.78125 -0.05269 156.03125
797.12500 -0.05296 155.91406
801.46875 -0.05278 155.79688
805.81250 -0.04929 155.66406
810.15625 -0.05659 155.51562
814.50000 -0.05402 155.39844
818.84375 -0.05260 155.29688
823.18750 -0.05443 155.12500
827.53125 -0.05204 155.03125
831.87500 -0.05163 154.89062
836.21875 -0.05429 154.75000
840.56250 -0.05448 154.61719
844.90625 -0.05292 154.51562
849.25000 -0.05613 154.36719
853.59375 -0.05338 154.23438
857.93750 -0.05406 154.11719
862.28125 -0.05333 153.96875
866.62500 -0.05471 153.85156
870.96875 -0.05361 153.71094
875.31250 -0.05347 153.59375
879.65625 -0.05136 153.44531
884.00000 -0.05443 153.32031
888.34375 -0.05507 153.18750
892.68750 -0.05429 153.07812
897.03125 -0.05112 152.93750
901.37500 -0.05521 152.80469
905.71875 -0.05085 152.69531
910.06250 -0.05480 152.53125
914.40625 -0.05609 152.41406
918.75000 -0.05374 152.28125
923.09375 -0.05236 152.13281
927.43750 -0.05870 152.01562
931.78125 -0.05700 151.85938
936.12500 -0.05448 151.76562
940.46875 -0.05457 151.60938
944.81250 -0.05383 151.50000
949.15625 -0.05140 151.38281
953.50000 -0.05567 151.22656
957.84375 -0.05324 151.14062
962.18750 -0.05558 150.98438
966.53125 -0.05333 150.85938
970.87500 -0.05742 150.72656
975.21875 -0.05439 150.60156
979.56250 -0.05737 150.43750
983.90625 -0.05636 150.34375
988.25000 -0.05664 150.20312
992.59375 -0.05397 150.05469
996.93750 -0.05857 149.96094
1001.28125 -0.05958 149.81250
1005.62500 -0.05379 149.68750
1009.96875 -0.05779 149.56250
1014.31250 -0.05393 149.44531
1018.65625 -0.05783 149.29688
1023.00000 -0.05824 149.16406
1027.34375 -0.05806 149.02344
1031.68750 -0.05278 148.89844
1036.03125 -0.05700 148.78906
1040.37500 -0.05861 148.64844
1044.71875 -0.05958 148.53906
1049.06250 -0.05737 148.39062
1053.40625 -0.06077 148.27344
1057.75000 -0.05567 148.10938
1062.09375 -0.05875 147.99219
1066.43750 -0.05990 147.85938
1070.78125 -0.05480 147.72656
1075.12500 -0.05907 147.60938
1079.46875 -0.05595 147.48438
1083.81250 -0.05737 147.35156
1088.15625 -0.05462 147.21094
1092.50000 -0.05847 147.08594
1096.84375 -0.05972 146.96875
1101.18750 -0.06192 146.81250
1105.53125 -0.05788 146.70312
1109.87500 -0.05990 146.58594
1114.21875 -0.05618 146.46875
1118.56250 -0.06123 146.32031
1122.90625 -0.05687 146.18750
1127.25000 -0.05902 146.06250
1131.59375 -0.05664 145.92969
1135.93750 -0.05645 145.77344
1140.28125 -0.05714 145.66406
1144.62500 -0.05572 145.53125
1148.96875 -0.05733 145.42188
1153.31250 -0.05622 145.25000
1157.65625 -0.05972 145.14844
1162.00000 -0.05847 145.01562
1166.34375 -0.05981 144.88281
1170.68750 -0.05889 144.75781
1175.03125 -0.05999 144.64062
1179.37500 -0.05985 144.50781
1183.71875 -0.05774 144.38281
1188.06250 -0.06017 144.21875
1192.40625 -0.05902 144.12500
1196.75000 -0.05834 143.98438
1201.09375 -0.05985 143.87500
1205.43750 -0.06224 143.71875
1209.78125 -0.05117 143.62500
1214.12500 -0.06853 143.46094
1218.46875 -0.06486 143.33594
1222.81250 -0.06174 143.20312
1227.15625 -0.06068 143.05469
1231.50000 -0.06169 142.93750
1235.84375 -0.06183 142.82031
1240.18750 -0.06210 142.66406
1244.53125 -0.06174 142.56250
1248.87500 -0.06050 142.43750
1253.21875 -0.06077 142.30469
1257.56250 -0.06431 142.17969
1261.90625 -0.06008 142.03906
1266.25000 -0.06343 141.88281
1270.59375 -0.06371 141.78125
1274.93750 -0.06298 141.63281
1279.28125 -0.06219 141.52344
1283.62500 -0.06541 141.38281
1287.96875 -0.06242 141.26562
1292.31250 -0.06068 141.14062
1296.65625 -0.06082 140.99219
1301.00000 -0.06063 140.88281
1305.34375 -0.06013 140.74219
1309.68750 -0.06072 140.61719
1314.03125 -0.06054 140.47656
1318.37500 -0.06201 140.33594
1322.71875 -0.05765 140.19531
1327.06250 -0.06210 140.10938
1331.40625 -0.06201 139.94531
1335.75000 -0.06266 139.80469
1340.09375 -0.06132 139.70312
1344.43750 -0.06137 139.57031
1348.78125 -0.05847 139.45312
1353.12500 -0.06371 139.32812
1357.46875 -0.05953 139.21094
1361.81250 -0.06385 139.06250
1366.15625 -0.06353 138.92969
1370.50000 -0.06054 138.78125
1374.84375 -0.06509 138.65625
1379.18750 -0.06059 138.52344
1383.53125 -0.05953 138.42969
1387.87500 -0.06201 138.27344
1392.21875 -0.06109 138.16406
1396.56250 -0.06495 138.01562
1400.90625 -0.06514 137.89062
1405.25000 -0.06371 137.78125
1409.59375 -0.06229 137.60938
1413.93750 -0.06183 137.51562
1418.28125 -0.06302 137.38281
1422.62500 -0.06454 137.26562
1426.96875 -0.06178 137.09375
1431.31250 -0.06564 137.00781
1435.65625 -0.06564 136.85156
1440.00000 -0.06330 136.71094
1444.34375 -0.06155 136.59375
1448.68750 -0.06215 136.44531
1453.03125 -0.06096 136.35938
1457.37500 -0.06118 136.18750
1461.71875 -0.06339 136.07812
1466.06250 -0.06408 135.95312
1470.40625 -0.06555 135.79688
1474.75000 -0.06279 135.67188
1479.09375 -0.06183 135.57031
1483.43750 -0.06468 135.43750
1487.78125 -0.06027 135.31250
1492.12500 -0.06527 135.17188
1496.46875 -0.06564 135.05469
1500.81250 -0.06583 134.89844
1505.15625 -0.06426 134.75781
1509.50000 -0.06325 134.64062
1513.84375 -0.06371 134.53906
1518.18750 -0.06500 134.39844
1522.53125 -0.06500 134.27344
1526.87500 -0.06615 134.11719
1531.21875 -0.06229 133.99219
1535.56250 -0.05898 133.88281
1539.90625 -0.06358 133.74219
1544.25000 -0.06279 133.62500
1548.59375 -0.06495 133.48438
1552.93750 -0.06164 133.37500
1557.28125 -0.06665 133.24219
1561.62500 -0.06358 133.10156
1565.96875 -0.06587 132.96094
1570.31250 -0.06316 132.84375
1574.65625 -0.06468 132.71875
1579.00000 -0.06454 132.57812
1583.34375 -0.06550 132.43750
1587.68750 -0.06688 132.33594
1592.03125 -0.06118 132.17188
1596.37500 -0.06683 132.07812
1600.71875 -0.06371 131.91406
1605.06250 -0.06587 131.81250
1609.40625 -0.06628 131.64062
1613.75000 -0.06302 131.53125
1618.09375 -0.06376 131.40625
1622.43750 -0.06514 131.28125
1626.78125 -0.06468 131.15625
1631.12500 -0.06417 131.03125
1635.46875 -0.06252 130.91406
1639.81250 -0.06491 130.78906
1644.15625 -0.06716 130.64844
1648.50000 -0.06619 130.50781
1652.84375 -0.06495 130.36719
1657.18750 -0.06766 130.25781
1661.53125 -0.06468 130.14062
1665.87500 -0.06697 129.99219
1670.21875 -0.06564 129.86719
1674.56250 -0.06789 129.72656
1678.90625 -0.06660 129.58594
1683.25000 -0.06399 129.48438
1687.59375 -0.06826 129.33594
1691.93750 -0.06826 129.21094
1696.28125 -0.06256 129.08594
1700.62500 -0.06550 128.97656
1704.96875 -0.06219 128.82812
1709.31250 -0.06578 128.71094
1713.65625 -0.07047 128.56250
1718.00000 -0.06707 128.45312
1722.34375 -0.06908 128.28906
1726.68750 -0.06725 128.17188
1731.03125 -0.06431 128.04688
1735.37500 -0.06559 127.94141
1739.71875 -0.06569 127.81250
1744.06250 -0.06514 127.64844
1748.40625 -0.06482 127.54688
1752.75000 -0.06518 127.40234
1757.09375 -0.06358 127.26562
1761.43750 -0.06674 127.14453
1765.78125 -0.06578 127.04688
1770.12500 -0.06583 126.88672
1774.46875 -0.06587 126.78125
1778.81250 -0.06532 126.66016
1783.15625 -0.06509 126.52344
1787.50000 -0.06422 126.35938
1791.84375 -0.06578 126.25391
1796.18750 -0.06569 126.12109
1800.53125 -0.06472 125.98047
1804.87500 -0.06628 125.86719
1809.21875 -0.06477 125.71094
1813.56250 -0.06371 125.60938
1817.90625 -0.06316 125.47656
1822.25000 -0.06784 125.34766
1826.59375 -0.06339 125.21875
1830.93750 -0.06431 125.09766
1835.28125 -0.06413 124.94531
1839.62500 -0.06224 124.83203
1843.96875 -0.06670 124.71484
1848.31250 -0.06720 124.58203
1852.65625 -0.06399 124.43750
1857.00000 -0.06702 124.31250
1861.34375 -0.06546 124.16797
1865.68750 -0.06867 124.06641
1870.03125 -0.06550 123.92188
1874.37500 -0.06454 123.78516
1878.71875 -0.06380 123.68359
1883.06250 -0.06463 123.55859
1887.40625 -0.06445 123.41016
1891.75000 -0.06132 123.29297
1896.09375 -0.06509 123.12500
1900.43750 -0.06362 122.98828
1904.78125 -0.06348 122.88281
1909.12500 -0.06739 122.74219
1913.46875 -0.06569 122.63672
1917.81250 -0.06863 122.50000
1922.15625 -0.06651 122.36328
1926.50000 -0.06711 122.23828
1930.84375 -0.06316 122.11328
1935.18750 -0.06256 121.98047
1939.53125 -0.06219 121.87109
1943.87500 -0.06256 121.73047
1948.21875 -0.06454 121.60547
1952.56250 -0.06169 121.48438
1956.90625 -0.06495 121.35156
1961.25000 -0.05953 121.20312
1965.59375 -0.06527 121.07031
1969.93750 -0.06766 120.95703
1974.28125 -0.06449 120.80859
1978.62500 -0.06348 120.68750
1982.96875 -0.06128 120.57031
1987.31250 -0.07019 120.42188
1991.65625 -0.06941 120.31250
1996.00000 -0.06707 120.16016
2000.34375 -0.06380 120.04688
2004.68750 -0.06808 119.92969
2009.03125 -0.06491 119.79688
2013.37500 -0.06536 119.66016
2017.71875 -0.06169 119.52734
2022.06250 -0.06284 119.40625
2026.40625 -0.06725 119.25781
2030.75000 -0.06463 119.15234
2035.09375 -0.06247 118.99609
2039.43750 -0.06371 118.87109
2043.78125 -0.06454 118.75391
2048.12500 -0.06615 118.64062
2052.46875 -0.06242 118.48438
2056.81250 -0.06394 118.37109
2061.15625 -0.06569 118.24609
2065.50000 -0.06734 118.11328
2069.84375 -0.06555 117.96875
2074.18750 -0.06440 117.85156
2078.53125 -0.06316 117.75781
2082.87500 -0.06578 117.58594
2087.21875 -0.06670 117.46875
2091.56250 -0.06592 117.33984
2095.90625 -0.06316 117.22266
2100.25000 -0.06596 117.09766
2104.59375 -0.06541 116.96094
2108.93750 -0.06045 116.80859
2113.28125 -0.06656 116.71094
2117.62500 -0.06587 116.55859
2121.96875 -0.06477 116.41797
2126.31250 -0.06390 116.30859
2130.65625 -0.06440 116.18359
2135.00000 -0.06633 116.04297
2139.34375 -0.06523 115.92188
2143.68750 -0.06693 115.80859
2148.03125 -0.06201 115.64062
2152.37500 -0.06536 115.55859
2156.71875 -0.06371 115.39453
2161.06250 -0.06362 115.28516
2165.40625 -0.06486 115.12891
2169.75000 -0.06334 115.02734
2174.09375 -0.06151 114.89844
2178.43750 -0.06592 114.73828
2182.78125 -0.06697 114.64453
2187.12500 -0.06541 114.50000
2191.46875 -0.06454 114.39453
2195.81250 -0.06316 114.22266
2200.15625 -0.06164 114.10938
2204.50000 -0.06665 114.00000
2208.84375 -0.06390 113.83203
2213.18750 -0.06132 113.73828
2217.53125 -0.06353 113.58984
2221.87500 -0.06141 113.44531
2226.21875 -0.06697 113.34375
2230.56250 -0.06210 113.19531
2234.90625 -0.06707 113.05469
2239.25000 -0.06628 112.95312
2243.59375 -0.06541 112.81250
2247.93750 -0.06284 112.69531
2252.28125 -0.06500 112.56250
2256.62500 -0.06316 112.43359
2260.96875 -0.06096 112.28906
2265.31250 -0.06169 112.15625
2269.65625 -0.06256 112.02734
2274.00000 -0.06151 111.91016
2278.34375 -0.06224 111.79688
2282.68750 -0.06330 111.65234
2287.03125 -0.06077 111.51953
2291.37500 -0.06275 111.41016
2295.71875 -0.06238 111.26953
2300.06250 -0.06210 111.15625
2304.40625 -0.06141 111.03125
2308.75000 -0.06141 110.88672
2313.09375 -0.06155 110.76172
2317.43750 -0.06417 110.62500
2321.78125 -0.06215 110.49609
2326.12500 -0.06463 110.38281
2330.46875 -0.06417 110.23828
2334.81250 -0.06284 110.10547
2339.15625 -0.06380 109.99609
2343.50000 -0.06472 109.85547
2347.84375 -0.06343 109.74219
2352.18750 -0.06293 109.58594
2356.53125 -0.06201 109.46484
2360.87500 -0.06275 109.33984
2365.21875 -0.06215 109.20312
2369.56250 -0.05994 109.10547
2373.90625 -0.06334 108.92969
2378.25000 -0.06210 108.82812
2382.59375 -0.06408 108.69141
2386.93750 -0.06118 108.56641
2391.28125 -0.06242 108.44141
2395.62500 -0.06422 108.30859
2399.96875 -0.06399 108.18750
2404.31250 -0.05870 108.05859
2408.65625 -0.06403 107.90234
2413.00000 -0.06523 107.78516
2417.34375 -0.06633 107.66797
2421.68750 -0.06270 107.53516
2426.03125 -0.06307 107.41406
2430.37500 -0.06367 107.28125
2434.71875 -0.05948 107.13281
2439.06250 -0.06279 107.01172
2443.40625 -0.06564 106.87891
2447.75000 -0.06486 106.77344
2452.09375 -0.06403 106.63281
2456.43750 -0.06477 106.50781
2460.78125 -0.06178 106.35938
2465.12500 -0.06523 106.28125
2469.46875 -0.06403 106.13281
2473.81250 -0.06197 106.02344
2478.15625 -0.06477 105.83984
2482.50000 -0.06385 105.72656
2486.84375 -0.06155 105.60547
2491.18750 -0.06426 105.48828
2495.53125 -0.06385 105.35156
2499.87500 -0.06022 105.21875
2504.21875 -0.06206 105.08203
2508.56250 -0.05893 104.97656
2512.90625 -0.06027 104.85938
2517.25000 -0.06174 104.73828
2521.59375 -0.05972 104.59375
2525.93750 -0.06031 104.44141
2530.28125 -0.06201 104.30469
2534.62500 -0.06050 104.19922
2538.96875 -0.06242 104.05859
2543.31250 -0.05866 103.92969
2547.65625 -0.05857 103.78516
2552.00000 -0.06105 103.70312
2556.34375 -0.06417 103.55078
2560.68750 -0.06096 103.42188
2565.03125 -0.06114 103.31641
2569.37500 -0.06059 103.16406
2573.71875 -0.06151 103.05078
2578.06250 -0.05847 102.90234
2582.40625 -0.06022 102.75781
2586.75000 -0.06284 102.66406
2591.09375 -0.05994 102.54297
2595.43750 -0.06252 102.41797
2599.78125 -0.06311 102.26562
2604.12500 -0.05824 102.11328
2608.46875 -0.06367 102.01172
2612.81250 -0.05916 101.84766
2617.15625 -0.06114 101.75000
2621.50000 -0.06380 101.63281
2625.84375 -0.06261 101.49219
2630.18750 -0.06160 101.35156
2634.53125 -0.06201 101.22656
2638.87500 -0.06219 101.11328
2643.21875 -0.05792 100.96484
2647.56250 -0.06592 100.83594
2651.90625 -0.06559 100.73828
2656.25000 -0.06174 100.56641
2660.59375 -0.06027 100.46484
2664.93750 -0.05705 100.34766
2669.28125 -0.05967 100.19141
2673.62500 -0.06160 100.07812
2677.96875 -0.06215 99.95703
2682.31250 -0.05645 99.81641
2686.65625 -0.06187 99.70312
2691.00000 -0.05792 99.56250
2695.34375 -0.06045 99.43750
2699.68750 -0.06008 99.30078
2704.03125 -0.06050 99.16797
2708.37500 -0.05935 99.07031
2712.71875 -0.06077 98.92969
2717.06250 -0.05948 98.77734
2721.40625 -0.05719 98.68359
2725.75000 -0.05902 98.53125
2730.09375 -0.05866 98.40234
2734.43750 -0.06036 98.27734
2738.78125 -0.05972 98.14844
2743.12500 -0.05990 98.01562
2747.46875 -0.05907 97.91406
2751.81250 -0.06040 97.75781
2756.15625 -0.06155 97.60938
2760.50000 -0.05806 97.47656
2764.84375 -0.06311 97.37109
2769.18750 -0.05714 97.21875
2773.53125 -0.05452 97.08984
2777.87500 -0.06036 96.99219
2782.21875 -0.06105 96.85156
2786.56250 -0.05893 96.73047
2790.90625 -0.05847 96.60547
2795.25000 -0.06027 96.47266
