! This is a Touchstone .s1p format file
! It should be saved with .s1p extension 
! HEWLETT PACKARD,8720D,0,7.74  
! Date = 20 Mar 2018
! Time = 22:40:10
! S11 measured = FALSE
! S21 measured = FALSE
! S12 measured = FALSE
! S22 measured = TRUE
! Start frequency = 0.050000000 GHz
! Centre frequency  = 3.524999936 GHz
! Stop frequency  = 7.000000000 GHz
! IF bandwidth = 300 Hz
! Smoothing = OFF
! Smoothing aperture = 1.000000 %
! Averaging = OFF
! Averaging factor = 16
! Source power = On
! Source power = Auto mode
! Output power level = 5.000000 dBm
! Retrace power = Off
! Testset switching = Continuous
! Number of sweeps for test set switching (0=hold, 1=continuous,2-999 = number of sweeps) = 1
! Step sweep = On (check)
! List frequency sweep = Off (check)
! IFBW setting for a list-frequency table in swept list mode = Disabled (Check)
! Power setting for a list-frequency table in swept list mode = Disabled (Check)
! Measurement mode = Chop A and B
! Port extensions = OFF
! Port extension 1 = 0.000000 ps
! Port extension 2 = 41.370001 ps
! Points  = 1601
! Calibration kit = 3.5 mm D
! Calibration = S22 1-port
! Power = 5.000000 dBm
! Frequency magS22 angS22
! Magnitudes are in log form
! Angles are in degrees
# MHz S DB R 50
0.10000 -0.03211 -1.36096
50.00000 -0.03211 -1.36096
54.34375 0.00758 -1.60400
58.68750 0.00055 -1.79767
63.03125 0.00119 -1.92676
67.37500 0.00326 -2.06689
71.71875 0.00280 -2.13135
76.06250 -0.00078 -2.32776
80.40625 -0.00239 -2.45276
84.75000 -0.00285 -2.58179
89.09375 0.00234 -2.72058
93.43750 0.01199 -2.81531
97.78125 0.00528 -2.97327
102.12500 0.00087 -3.07898
106.46875 -0.00308 -3.24097
110.81250 0.00248 -3.38928
115.15625 0.00524 -3.49365
119.50000 0.00772 -3.64343
123.84375 -0.00533 -3.79724
128.18750 -0.00707 -3.94006
132.53125 0.00358 -4.04443
136.87500 0.00239 -4.12817
141.21875 0.00234 -4.36035
145.56250 -0.00473 -4.48389
149.90625 -0.00473 -4.52930
154.25000 0.01383 -4.70508
158.59375 0.01424 -4.82031
162.93750 0.00055 -4.94678
167.28125 0.00501 -5.08545
171.62500 0.00000 -5.22144
175.96875 0.00799 -5.41626
180.31250 -0.00597 -5.47827
184.65625 -0.00078 -5.64697
189.00000 0.00188 -5.82422
193.34375 -0.00436 -5.86670
197.68750 0.00661 -6.09058
202.03125 0.00280 -6.14966
206.37500 0.00450 -6.31714
210.71875 0.00087 -6.44629
215.06250 0.00023 -6.56299
219.40625 0.00037 -6.69360
223.75000 0.00671 -6.81152
228.09375 0.00593 -6.94336
232.43750 0.00749 -7.08618
236.78125 0.00749 -7.26758
241.12500 0.00156 -7.37183
245.46875 -0.00119 -7.51611
249.81250 0.00533 -7.60254
254.15625 -0.00299 -7.79761
258.50000 0.00285 -7.92261
262.84375 0.00400 -8.00244
267.18750 0.00478 -8.17529
271.53125 0.00083 -8.28662
275.87500 -0.00060 -8.42676
280.21875 -0.00381 -8.60400
284.56250 0.00175 -8.76465
288.90625 0.00092 -8.86475
293.25000 0.00331 -8.96631
297.59375 0.00423 -9.09424
301.93750 -0.00083 -9.24805
306.28125 0.00418 -9.37305
310.62500 0.00216 -9.53906
314.96875 0.00390 -9.62842
319.31250 0.00239 -9.76562
323.65625 0.00216 -9.90186
328.00000 0.00335 -10.02783
332.34375 0.00482 -10.18164
336.68750 0.00491 -10.30273
341.03125 0.00280 -10.40137
345.37500 0.00014 -10.57617
349.71875 0.00303 -10.69678
354.06250 -0.00032 -10.80371
358.40625 0.00280 -10.94971
362.75000 0.00156 -11.08936
367.09375 -0.00170 -11.23242
371.43750 0.00657 -11.34619
375.78125 0.00427 -11.51807
380.12500 0.00570 -11.65137
384.46875 -0.00124 -11.75684
388.81250 0.00289 -11.88623
393.15625 0.00335 -12.03564
397.50000 0.00579 -12.12891
401.84375 -0.00211 -12.31738
406.18750 0.00133 -12.43652
410.53125 0.00289 -12.54932
414.87500 0.00547 -12.68799
419.21875 0.00441 -12.84717
423.56250 0.00344 -12.95996
427.90625 0.00064 -13.05078
432.25000 0.00294 -13.20850
436.59375 0.00092 -13.37207
440.93750 0.00193 -13.50537
445.28125 0.00446 -13.61230
449.62500 0.00510 -13.76904
453.96875 0.00432 -13.89502
458.31250 0.00487 -14.03369
462.65625 0.00156 -14.15332
467.00000 -0.00069 -14.29346
471.34375 0.00115 -14.39795
475.68750 -0.00220 -14.55029
480.03125 -0.00216 -14.68359
484.37500 0.00317 -14.78906
488.71875 0.00271 -14.92773
493.06250 0.00459 -15.06934
497.40625 0.00051 -15.19580
501.75000 -0.00211 -15.34521
506.09375 0.00308 -15.47021
510.43750 0.00620 -15.61035
514.78125 0.00142 -15.74365
519.12500 0.00372 -15.88770
523.46875 0.00253 -16.02441
527.81250 0.00276 -16.14355
532.15625 0.00680 -16.26758
536.50000 0.00248 -16.41699
540.84375 0.00165 -16.52832
545.18750 0.00606 -16.68164
549.53125 0.00409 -16.78906
553.87500 0.00055 -16.91699
558.21875 0.00400 -17.06348
562.56250 0.00083 -17.22168
566.90625 -0.00005 -17.34375
571.25000 0.00469 -17.49023
575.59375 0.00073 -17.61523
579.93750 0.00032 -17.75684
584.28125 0.00179 -17.85645
588.62500 0.00528 -18.01758
592.96875 0.00064 -18.13867
597.31250 0.00491 -18.25879
601.65625 0.00037 -18.37891
606.00000 0.00455 -18.54980
610.34375 0.00243 -18.66211
614.68750 0.00289 -18.82324
619.03125 -0.00032 -18.93359
623.37500 0.00354 -19.05078
627.71875 0.00643 -19.17480
632.06250 0.00225 -19.36133
636.40625 0.00216 -19.49023
640.75000 0.00648 -19.60254
645.09375 0.00294 -19.74609
649.43750 0.00110 -19.87500
653.78125 0.00188 -19.99316
658.12500 0.00239 -20.14355
662.46875 0.00133 -20.27734
666.81250 0.00280 -20.40332
671.15625 0.00069 -20.52148
675.50000 0.00496 -20.67676
679.84375 0.00005 -20.80566
684.18750 -0.00078 -20.94434
688.53125 -0.00188 -21.06836
692.87500 0.00220 -21.17090
697.21875 0.00478 -21.32812
701.56250 -0.00106 -21.48730
705.90625 -0.00096 -21.59668
710.25000 0.00432 -21.73730
714.59375 0.00225 -21.86328
718.93750 0.00322 -21.99805
723.28125 -0.00294 -22.12598
727.62500 0.00574 -22.24609
731.96875 0.00230 -22.37598
736.31250 0.00413 -22.51953
740.65625 0.00441 -22.66406
745.00000 -0.00106 -22.78223
749.34375 0.00331 -22.92773
753.68750 0.00354 -23.05566
758.03125 0.00932 -23.19434
762.37500 0.00409 -23.30762
766.71875 0.00423 -23.45898
771.06250 0.00207 -23.58496
775.40625 0.00110 -23.70898
779.75000 0.00280 -23.86426
784.09375 0.00473 -23.99609
788.43750 0.00266 -24.09473
792.78125 -0.00101 -24.26367
797.12500 0.00276 -24.38574
801.46875 0.00340 -24.52148
805.81250 0.00372 -24.64453
810.15625 0.00280 -24.78516
814.50000 0.00220 -24.91895
818.84375 0.00377 -25.05371
823.18750 -0.00335 -25.18359
827.53125 -0.00289 -25.32031
831.87500 0.00248 -25.42676
836.21875 0.00041 -25.57812
840.56250 0.00220 -25.71582
844.90625 0.00051 -25.83789
849.25000 0.00211 -25.99512
853.59375 0.00266 -26.13672
857.93750 0.00253 -26.25488
862.28125 0.00294 -26.39355
866.62500 0.00147 -26.49219
870.96875 0.00032 -26.67285
875.31250 0.00037 -26.78125
879.65625 0.00000 -26.92383
884.00000 0.00276 -27.06836
888.34375 -0.00253 -27.19141
892.68750 0.00083 -27.32617
897.03125 0.00234 -27.44141
901.37500 0.00317 -27.56836
905.71875 0.00216 -27.72168
910.06250 0.00106 -27.85059
914.40625 -0.00220 -27.97168
918.75000 0.00037 -28.10645
923.09375 0.00083 -28.24121
927.43750 0.00055 -28.36328
931.78125 0.00087 -28.52539
936.12500 0.00198 -28.64062
940.46875 -0.00023 -28.79297
944.81250 0.00078 -28.90723
949.15625 0.00138 -29.05371
953.50000 -0.00028 -29.17871
957.84375 -0.00432 -29.30078
962.18750 0.00312 -29.43652
966.53125 0.00083 -29.59375
970.87500 0.00018 -29.72168
975.21875 -0.00179 -29.82520
979.56250 0.00073 -29.97363
983.90625 0.00547 -30.10449
988.25000 -0.00211 -30.25586
992.59375 -0.00051 -30.38965
996.93750 -0.00101 -30.50293
1001.28125 0.00193 -30.60449
1005.62500 -0.00234 -30.77637
1009.96875 -0.00257 -30.90234
1014.31250 -0.00009 -31.03125
1018.65625 0.00119 -31.18066
1023.00000 0.00106 -31.32227
1027.34375 0.00243 -31.43066
1031.68750 -0.00046 -31.57422
1036.03125 -0.00142 -31.69629
1040.37500 -0.00060 -31.82520
1044.71875 0.00266 -31.97168
1049.06250 0.00014 -32.07812
1053.40625 -0.00064 -32.23438
1057.75000 0.00129 -32.39062
1062.09375 -0.00230 -32.49805
1066.43750 0.00014 -32.61914
1070.78125 -0.00110 -32.75000
1075.12500 -0.00280 -32.90625
1079.46875 0.00083 -33.03125
1083.81250 -0.00147 -33.17578
1088.15625 0.00041 -33.31055
1092.50000 -0.00248 -33.42773
1096.84375 0.00009 -33.58008
1101.18750 0.00009 -33.70508
1105.53125 0.00092 -33.85547
1109.87500 -0.00441 -33.94922
1114.21875 -0.00248 -34.11914
1118.56250 -0.00271 -34.23242
1122.90625 -0.00110 -34.38477
1127.25000 -0.00032 -34.48633
1131.59375 0.00009 -34.63477
1135.93750 0.00078 -34.74609
1140.28125 -0.00230 -34.90234
1144.62500 -0.00294 -35.04688
1148.96875 -0.00119 -35.16016
1153.31250 -0.00179 -35.31445
1157.65625 0.00101 -35.43555
1162.00000 -0.00170 -35.58789
1166.34375 -0.00032 -35.69922
1170.68750 -0.00041 -35.81055
1175.03125 -0.00069 -35.94531
1179.37500 0.00133 -36.08203
1183.71875 -0.00060 -36.21289
1188.06250 -0.00271 -36.33594
1192.40625 0.00230 -36.48047
1196.75000 -0.00055 -36.64258
1201.09375 -0.00220 -36.75391
1205.43750 0.00326 -36.88281
1209.78125 -0.01442 -37.07227
1214.12500 0.00638 -37.12500
1218.46875 0.00381 -37.28711
1222.81250 0.00220 -37.44141
1227.15625 0.00018 -37.56055
1231.50000 -0.00289 -37.71875
1235.84375 -0.00354 -37.79297
1240.18750 0.00175 -37.95117
1244.53125 -0.00129 -38.07422
1248.87500 -0.00276 -38.23633
1253.21875 -0.00014 -38.36719
1257.56250 -0.00087 -38.47266
1261.90625 0.00271 -38.61523
1266.25000 0.00069 -38.75977
1270.59375 -0.00340 -38.91602
1274.93750 -0.00289 -39.00391
1279.28125 -0.00358 -39.14258
1283.62500 -0.00634 -39.29688
1287.96875 -0.00289 -39.41797
1292.31250 -0.00165 -39.56641
1296.65625 -0.00225 -39.68750
1301.00000 -0.00276 -39.83008
1305.34375 -0.00073 -39.96094
1309.68750 0.00087 -40.08398
1314.03125 -0.00285 -40.22461
1318.37500 -0.00110 -40.37109
1322.71875 -0.00234 -40.47461
1327.06250 -0.00161 -40.63477
1331.40625 0.00005 -40.77344
1335.75000 -0.00446 -40.90234
1340.09375 -0.00161 -41.04297
1344.43750 0.00064 -41.17578
1348.78125 -0.00262 -41.29297
1353.12500 -0.00078 -41.42969
1357.46875 -0.00207 -41.55078
1361.81250 -0.00060 -41.67969
1366.15625 -0.00041 -41.80859
1370.50000 -0.00193 -41.94727
1374.84375 -0.00092 -42.05859
1379.18750 -0.00942 -42.20703
1383.53125 -0.00331 -42.35547
1387.87500 -0.00473 -42.50586
1392.21875 -0.00248 -42.62500
1396.56250 -0.00069 -42.76758
1400.90625 -0.00519 -42.88867
1405.25000 -0.00317 -43.00195
1409.59375 -0.00060 -43.16406
1413.93750 -0.00234 -43.29883
1418.28125 -0.00170 -43.41016
1422.62500 -0.00156 -43.55859
1426.96875 -0.00427 -43.68164
1431.31250 -0.00280 -43.80664
1435.65625 -0.00478 -43.96680
1440.00000 -0.00138 -44.10156
1444.34375 -0.00317 -44.22852
1448.68750 -0.00303 -44.36328
1453.03125 -0.00207 -44.47070
1457.37500 -0.00299 -44.61914
1461.71875 -0.00464 -44.77148
1466.06250 -0.00395 -44.90625
1470.40625 0.00018 -45.03320
1474.75000 -0.00354 -45.15430
1479.09375 -0.00308 -45.29297
1483.43750 -0.00335 -45.41992
1487.78125 -0.00354 -45.54102
1492.12500 -0.00482 -45.69531
1496.46875 -0.00271 -45.81445
1500.81250 -0.00326 -45.96680
1505.15625 -0.00345 -46.10156
1509.50000 -0.00459 -46.23047
1513.84375 -0.00266 -46.34180
1518.18750 -0.00156 -46.48633
1522.53125 -0.00363 -46.63086
1526.87500 -0.00547 -46.76367
1531.21875 -0.00758 -46.87500
1535.56250 -0.00602 -46.99414
1539.90625 -0.00147 -47.16992
1544.25000 -0.00220 -47.30273
1548.59375 -0.00239 -47.41992
1552.93750 -0.00473 -47.54883
1557.28125 -0.00179 -47.70117
1561.62500 -0.00312 -47.82812
1565.96875 -0.00308 -47.95703
1570.31250 -0.00570 -48.09766
1574.65625 -0.00198 -48.22656
1579.00000 -0.00220 -48.35156
1583.34375 -0.00450 -48.49609
1587.68750 -0.00744 -48.62109
1592.03125 -0.00450 -48.74805
1596.37500 -0.00427 -48.88281
1600.71875 -0.00106 -49.04492
1605.06250 -0.00340 -49.14258
1609.40625 -0.00634 -49.28320
1613.75000 -0.00602 -49.44141
1618.09375 -0.00661 -49.54883
1622.43750 -0.00478 -49.66992
1626.78125 -0.00648 -49.80273
1631.12500 -0.00464 -49.97461
1635.46875 -0.00377 -50.09766
1639.81250 -0.00363 -50.18945
1644.15625 -0.00510 -50.35352
1648.50000 -0.00340 -50.47266
1652.84375 -0.00216 -50.60547
1657.18750 -0.00436 -50.76172
1661.53125 -0.00570 -50.89453
1665.87500 -0.00308 -51.01172
1670.21875 -0.00220 -51.16016
1674.56250 -0.00106 -51.27344
1678.90625 -0.00781 -51.41211
1683.25000 -0.00450 -51.56055
1687.59375 -0.00469 -51.65820
1691.93750 -0.00547 -51.81445
1696.28125 -0.00243 -51.94727
1700.62500 -0.00436 -52.08789
1704.96875 -0.00289 -52.21484
1709.31250 -0.00234 -52.35938
1713.65625 -0.00303 -52.49609
1718.00000 -0.00721 -52.61133
1722.34375 -0.00211 -52.74805
1726.68750 -0.00675 -52.88086
1731.03125 -0.00464 -53.02539
1735.37500 -0.00349 -53.14648
1739.71875 -0.00308 -53.28906
1744.06250 -0.00606 -53.43555
1748.40625 -0.00400 -53.54492
1752.75000 -0.00574 -53.68359
1757.09375 -0.00322 -53.80664
1761.43750 -0.00638 -53.96094
1765.78125 -0.00698 -54.08594
1770.12500 -0.00464 -54.18945
1774.46875 -0.00152 -54.33203
1778.81250 -0.00528 -54.46289
1783.15625 -0.00560 -54.61328
1787.50000 -0.00331 -54.76172
1791.84375 -0.00657 -54.88281
1796.18750 -0.00707 -55.02344
1800.53125 -0.00620 -55.14648
1804.87500 -0.00547 -55.28711
1809.21875 -0.00436 -55.43555
1813.56250 -0.00299 -55.55273
1817.90625 -0.00813 -55.70703
1822.25000 -0.00459 -55.80273
1826.59375 -0.00593 -55.95508
1830.93750 -0.00795 -56.08008
1835.28125 -0.00593 -56.22266
1839.62500 -0.00969 -56.38477
1843.96875 -0.01130 -56.48828
1848.31250 -0.00955 -56.59375
1852.65625 -0.00684 -56.76367
1857.00000 -0.00859 -56.90430
1861.34375 -0.00381 -57.01758
1865.68750 -0.00813 -57.14453
1870.03125 -0.00955 -57.28711
1874.37500 -0.00891 -57.41211
1878.71875 -0.00772 -57.56055
1883.06250 -0.00432 -57.70508
1887.40625 -0.00565 -57.80859
1891.75000 -0.00721 -57.94531
1896.09375 -0.00845 -58.07422
1900.43750 -0.00969 -58.23047
1904.78125 -0.00795 -58.34375
1909.12500 -0.01171 -58.47461
1913.46875 -0.00905 -58.64648
1917.81250 -0.00960 -58.72070
1922.15625 -0.01213 -58.88672
1926.50000 -0.00951 -59.00781
1930.84375 -0.00928 -59.14258
1935.18750 -0.01070 -59.25586
1939.53125 -0.00868 -59.39844
1943.87500 -0.01190 -59.53516
1948.21875 -0.01020 -59.69922
1952.56250 -0.01121 -59.82617
1956.90625 -0.00813 -59.93945
1961.25000 -0.00666 -60.08203
1965.59375 -0.00698 -60.21484
1969.93750 -0.00643 -60.35938
1974.28125 -0.00730 -60.46875
1978.62500 -0.00845 -60.61719
1982.96875 -0.00877 -60.74805
1987.31250 -0.01056 -60.88086
1991.65625 -0.00965 -61.03516
1996.00000 -0.00923 -61.17383
2000.34375 -0.01107 -61.26562
2004.68750 -0.00859 -61.41797
2009.03125 -0.00753 -61.53906
2013.37500 -0.00978 -61.70508
2017.71875 -0.01102 -61.83203
2022.06250 -0.00744 -61.94336
2026.40625 -0.01084 -62.08203
2030.75000 -0.00726 -62.21875
2035.09375 -0.00905 -62.33789
2039.43750 -0.00482 -62.45117
2043.78125 -0.01305 -62.60742
2048.12500 -0.00808 -62.72656
2052.46875 -0.00740 -62.88867
2056.81250 -0.01254 -63.01562
2061.15625 -0.00937 -63.16016
2065.50000 -0.01158 -63.25000
2069.84375 -0.00804 -63.42188
2074.18750 -0.00717 -63.53320
2078.53125 -0.00473 -63.69336
2082.87500 -0.00804 -63.83789
2087.21875 -0.01465 -63.99023
2091.56250 -0.00703 -64.07422
2095.90625 -0.00813 -64.24219
2100.25000 -0.01075 -64.35156
2104.59375 -0.01231 -64.47656
2108.93750 -0.00960 -64.63281
2113.28125 -0.01323 -64.75000
2117.62500 -0.01034 -64.88672
2121.96875 -0.00905 -65.00781
2126.31250 -0.01162 -65.15234
2130.65625 -0.01158 -65.28906
2135.00000 -0.01622 -65.42578
2139.34375 -0.00942 -65.56250
2143.68750 -0.00997 -65.69531
2148.03125 -0.01034 -65.84766
2152.37500 -0.00841 -65.96094
2156.71875 -0.01277 -66.10156
2161.06250 -0.00942 -66.22656
2165.40625 -0.01061 -66.37891
2169.75000 -0.01217 -66.49609
2174.09375 -0.00951 -66.61719
2178.43750 -0.01387 -66.74609
2182.78125 -0.01130 -66.90234
2187.12500 -0.01130 -67.01562
2191.46875 -0.00854 -67.17578
2195.81250 -0.01107 -67.27734
2200.15625 -0.01318 -67.42188
2204.50000 -0.01158 -67.57031
2208.84375 -0.01199 -67.70312
2213.18750 -0.01254 -67.85938
2217.53125 -0.01640 -67.98047
2221.87500 -0.00951 -68.10938
2226.21875 -0.01130 -68.23438
2230.56250 -0.01107 -68.36328
2234.90625 -0.01314 -68.53125
2239.25000 -0.01263 -68.63672
2243.59375 -0.01447 -68.74609
2247.93750 -0.01419 -68.86719
2252.28125 -0.01562 -69.04688
2256.62500 -0.01185 -69.14062
2260.96875 -0.01341 -69.31641
2265.31250 -0.01029 -69.43750
2269.65625 -0.01107 -69.55469
2274.00000 -0.01084 -69.72266
2278.34375 -0.01332 -69.80469
2282.68750 -0.01479 -69.95703
2287.03125 -0.01801 -70.08203
2291.37500 -0.01971 -70.23438
2295.71875 -0.01300 -70.37891
2300.06250 -0.01309 -70.46484
2304.40625 -0.01433 -70.65625
2308.75000 -0.01314 -70.78906
2313.09375 -0.01419 -70.91406
2317.43750 -0.01511 -71.02344
2321.78125 -0.01828 -71.19141
2326.12500 -0.01576 -71.28906
2330.46875 -0.01677 -71.41016
2334.81250 -0.01888 -71.57422
2339.15625 -0.01383 -71.72266
2343.50000 -0.01948 -71.84375
2347.84375 -0.01860 -71.96875
2352.18750 -0.01860 -72.10547
2356.53125 -0.01337 -72.22656
2360.87500 -0.01052 -72.35547
2365.21875 -0.01410 -72.50391
2369.56250 -0.01644 -72.63281
2373.90625 -0.01566 -72.78906
2378.25000 -0.01847 -72.94531
2382.59375 -0.01383 -73.02344
2386.93750 -0.01562 -73.16016
2391.28125 -0.01539 -73.28906
2395.62500 -0.01364 -73.44531
2399.96875 -0.01222 -73.55859
2404.31250 -0.01424 -73.70703
2408.65625 -0.01553 -73.83594
2413.00000 -0.02067 -73.97656
2417.34375 -0.01718 -74.10156
2421.68750 -0.01511 -74.25781
2426.03125 -0.01644 -74.39453
2430.37500 -0.01571 -74.53125
2434.71875 -0.01791 -74.64062
2439.06250 -0.01870 -74.78906
2443.40625 -0.01387 -74.91406
2447.75000 -0.01419 -75.02734
2452.09375 -0.01424 -75.16797
2456.43750 -0.02076 -75.33203
2460.78125 -0.01562 -75.42188
2465.12500 -0.01736 -75.57812
2469.46875 -0.01681 -75.70703
2473.81250 -0.01599 -75.83984
2478.15625 -0.01677 -75.99219
2482.50000 -0.01980 -76.09375
2486.84375 -0.01507 -76.23828
2491.18750 -0.01589 -76.37109
2495.53125 -0.01837 -76.52344
2499.87500 -0.01470 -76.67188
2504.21875 -0.01759 -76.77344
2508.56250 -0.01424 -76.91406
2512.90625 -0.01635 -77.03125
2517.25000 -0.01525 -77.17969
2521.59375 -0.01856 -77.30859
2525.93750 -0.01465 -77.44141
2530.28125 -0.01429 -77.57812
2534.62500 -0.01447 -77.71484
2538.96875 -0.01594 -77.83203
2543.31250 -0.01892 -77.98438
2547.65625 -0.01755 -78.12891
2552.00000 -0.01286 -78.23438
2556.34375 -0.01576 -78.40625
2560.68750 -0.01507 -78.53125
2565.03125 -0.01534 -78.64453
2569.37500 -0.02007 -78.77344
2573.71875 -0.01879 -78.94141
2578.06250 -0.01805 -79.06250
2582.40625 -0.01870 -79.19531
2586.75000 -0.02035 -79.33203
2591.09375 -0.02030 -79.46094
2595.43750 -0.01649 -79.59766
2599.78125 -0.01888 -79.72266
2604.12500 -0.02035 -79.85547
2608.46875 -0.01447 -79.99609
2612.81250 -0.01557 -80.16016
2617.15625 -0.02035 -80.26172
2621.50000 -0.01626 -80.39453
2625.84375 -0.01819 -80.51172
2630.18750 -0.01658 -80.66406
2634.53125 -0.01672 -80.79688
2638.87500 -0.02095 -80.92578
2643.21875 -0.02062 -81.04688
2647.56250 -0.01934 -81.21875
2651.90625 -0.02343 -81.35156
2656.25000 -0.01635 -81.46484
2660.59375 -0.02173 -81.60547
2664.93750 -0.02361 -81.73828
2669.28125 -0.02347 -81.83203
2673.62500 -0.02191 -82.00781
2677.96875 -0.02265 -82.14453
2682.31250 -0.01883 -82.27344
2686.65625 -0.01686 -82.41016
2691.00000 -0.01686 -82.53125
2695.34375 -0.02375 -82.69141
2699.68750 -0.01879 -82.79688
2704.03125 -0.01856 -82.92188
2708.37500 -0.01902 -83.06250
2712.71875 -0.01833 -83.19922
2717.06250 -0.02435 -83.34375
2721.40625 -0.01957 -83.46875
2725.75000 -0.01938 -83.59766
2730.09375 -0.02274 -83.73047
2734.43750 -0.02398 -83.87109
2738.78125 -0.02090 -83.99609
2743.12500 -0.02026 -84.14453
2747.46875 -0.02104 -84.26172
2751.81250 -0.02035 -84.41016
2756.15625 -0.02072 -84.50781
2760.50000 -0.02049 -84.69922
2764.84375 -0.02053 -84.79688
2769.18750 -0.02421 -84.92578
2773.53125 -0.02159 -85.03516
2777.87500 -0.02356 -85.20703
2782.21875 -0.02136 -85.34766
2786.56250 -0.02278 -85.46875
2790.90625 -0.02104 -85.58984
2795.25000 -0.02173 -85.74219
2799.59375 -0.02191 -85.85547
2803.93750 -0.02563 -86.00000
2808.28125 -0.01966 -86.14453
2812.62500 -0.02090 -86.26953
2816.96875 -0.02315 -86.39062
2821.31250 -0.01920 -86.53906
2825.65625 -0.02159 -86.68359
