! This is a Touchstone .s1p format file
! It should be saved with .s1p extension 
! HEWLETT PACKARD,8720D,0,7.74  
! Date = 20 Mar 2018
! Time = 22:32:29
! S11 measured = FALSE
! S21 measured = FALSE
! S12 measured = FALSE
! S22 measured = TRUE
! Start frequency = 0.050000000 GHz
! Centre frequency  = 3.524999936 GHz
! Stop frequency  = 7.000000000 GHz
! IF bandwidth = 300 Hz
! Smoothing = OFF
! Smoothing aperture = 1.000000 %
! Averaging = OFF
! Averaging factor = 16
! Source power = On
! Source power = Auto mode
! Output power level = 5.000000 dBm
! Retrace power = Off
! Testset switching = Continuous
! Number of sweeps for test set switching (0=hold, 1=continuous,2-999 = number of sweeps) = 1
! Step sweep = On (check)
! List frequency sweep = Off (check)
! IFBW setting for a list-frequency table in swept list mode = Disabled (Check)
! Power setting for a list-frequency table in swept list mode = Disabled (Check)
! Measurement mode = Chop A and B
! Port extensions = OFF
! Port extension 1 = 0.000000 ps
! Port extension 2 = 73.250003 ps
! Points  = 1601
! Calibration kit = 3.5 mm D
! Calibration = S22 1-port
! Power = 5.000000 dBm
! Frequency magS22 angS22
! Magnitudes are in log form
! Angles are in degrees
# MHz S DB R 50
0.10000 -41.47266 -1.49829
50.00000 -41.47266 -1.49829
54.34375 -42.22656 -1.73309
58.68750 -43.37695 1.16455
63.03125 -41.11914 -1.83063
67.37500 -41.98047 -2.07642
71.71875 -42.30469 1.48590
76.06250 -42.71875 -3.21765
80.40625 -42.70312 -1.46533
84.75000 -41.71094 -5.68408
89.09375 -41.80078 -1.62323
93.43750 -41.96680 -7.66162
97.78125 -41.75000 -3.42371
102.12500 -42.13477 -6.73608
106.46875 -42.13477 -6.45312
110.81250 -42.49219 -5.65405
115.15625 -42.10938 -5.92993
119.50000 -42.19922 -8.27686
123.84375 -41.97266 -6.95166
128.18750 -42.24414 -4.82300
132.53125 -42.07422 -6.02612
136.87500 -41.36523 -5.85986
141.21875 -41.97070 -5.88062
145.56250 -41.85938 -8.17285
149.90625 -41.91406 -6.44214
154.25000 -41.92188 -9.90186
158.59375 -42.03320 -7.53271
162.93750 -42.03516 -7.68091
167.28125 -41.96094 -7.50928
171.62500 -41.91797 -7.46387
175.96875 -42.19727 -7.38281
180.31250 -41.99609 -9.02979
184.65625 -41.98633 -7.70703
189.00000 -42.27539 -8.97998
193.34375 -41.86328 -8.76172
197.68750 -41.79102 -10.21338
202.03125 -41.97656 -9.43359
206.37500 -42.13281 -11.00732
210.71875 -41.73633 -9.99512
215.06250 -41.99805 -10.27637
219.40625 -42.13281 -9.44971
223.75000 -42.00781 -10.57471
228.09375 -42.04688 -8.88965
232.43750 -42.08594 -10.93701
236.78125 -41.91797 -11.59473
241.12500 -42.16406 -10.81494
245.46875 -42.21875 -10.77100
249.81250 -42.04297 -12.58252
254.15625 -41.91406 -11.75146
258.50000 -42.11523 -13.63721
262.84375 -41.99219 -12.18701
267.18750 -42.26367 -12.01221
271.53125 -42.03711 -12.64014
275.87500 -42.25195 -12.29102
280.21875 -41.88672 -12.94922
284.56250 -42.13867 -13.69629
288.90625 -42.03516 -12.24707
293.25000 -42.03320 -12.67969
297.59375 -42.15430 -13.35840
301.93750 -42.12305 -13.68799
306.28125 -42.23242 -13.76611
310.62500 -41.91992 -14.19873
314.96875 -42.08203 -14.94580
319.31250 -41.96875 -14.08447
323.65625 -42.12109 -15.61328
328.00000 -42.04883 -15.06641
332.34375 -42.13477 -14.87158
336.68750 -42.07031 -15.01562
341.03125 -42.12305 -15.60791
345.37500 -42.13672 -14.59814
349.71875 -42.10938 -15.54443
354.06250 -42.07422 -15.53613
358.40625 -42.11328 -15.83838
362.75000 -42.07422 -16.17090
367.09375 -41.93359 -16.21582
371.43750 -42.07812 -17.05566
375.78125 -42.17383 -16.52344
380.12500 -42.10352 -17.26953
384.46875 -42.16406 -17.35449
388.81250 -42.12695 -17.47949
393.15625 -42.10547 -17.53711
397.50000 -42.13867 -16.79688
401.84375 -42.09180 -17.29004
406.18750 -42.05078 -17.58984
410.53125 -42.18359 -18.63086
414.87500 -42.13477 -18.74316
419.21875 -42.20117 -18.20605
423.56250 -42.07227 -19.01270
427.90625 -42.02734 -18.94336
432.25000 -42.12500 -18.81836
436.59375 -42.10742 -19.07422
440.93750 -42.07031 -19.85156
445.28125 -42.16406 -19.12500
449.62500 -42.04492 -20.22363
453.96875 -42.09570 -20.04395
458.31250 -42.18164 -20.83887
462.65625 -42.10938 -19.95703
467.00000 -42.10938 -20.38574
471.34375 -42.12695 -20.36523
475.68750 -42.13477 -21.06445
480.03125 -42.28906 -20.90234
484.37500 -42.13281 -21.42383
488.71875 -42.06641 -21.64453
493.06250 -42.13867 -22.06348
497.40625 -42.15234 -21.60352
501.75000 -42.12695 -22.15820
506.09375 -42.07227 -22.48535
510.43750 -42.11914 -22.71777
514.78125 -42.10742 -22.32324
519.12500 -42.19922 -22.78320
523.46875 -42.12305 -22.77832
527.81250 -42.13086 -23.02637
532.15625 -42.19141 -23.14355
536.50000 -42.22266 -23.60352
540.84375 -42.07422 -23.42480
545.18750 -42.18359 -24.21191
549.53125 -42.10352 -24.40918
553.87500 -42.16992 -24.56348
558.21875 -42.17578 -24.88965
562.56250 -42.20117 -24.64648
566.90625 -42.13867 -24.51953
571.25000 -42.18359 -25.08496
575.59375 -42.18555 -25.65918
579.93750 -42.22266 -25.00293
584.28125 -42.12891 -25.74023
588.62500 -42.23047 -25.26367
592.96875 -42.21680 -26.06836
597.31250 -42.18359 -25.90234
601.65625 -42.26562 -26.28809
606.00000 -42.27148 -25.80176
610.34375 -42.21484 -26.89648
614.68750 -42.14844 -26.36035
619.03125 -42.11719 -26.87305
623.37500 -42.20703 -27.48242
627.71875 -42.21289 -27.49512
632.06250 -42.26367 -27.55664
636.40625 -42.24023 -27.72949
640.75000 -42.25000 -27.42188
645.09375 -42.27930 -28.36426
649.43750 -42.27930 -27.91699
653.78125 -42.26562 -28.34082
658.12500 -42.28906 -28.28613
662.46875 -42.26367 -29.41211
666.81250 -42.23438 -28.83301
671.15625 -42.29102 -29.05762
675.50000 -42.24023 -29.46484
679.84375 -42.23828 -29.38770
684.18750 -42.24219 -30.18945
688.53125 -42.30664 -30.40527
692.87500 -42.28320 -30.25977
697.21875 -42.27930 -30.44043
701.56250 -42.24023 -30.55078
705.90625 -42.40234 -30.70898
710.25000 -42.27148 -31.38965
714.59375 -42.26758 -30.82227
718.93750 -42.24609 -31.56250
723.28125 -42.32617 -31.85156
727.62500 -42.28711 -32.36523
731.96875 -42.31641 -31.67578
736.31250 -42.24023 -32.12109
740.65625 -42.30078 -32.54102
745.00000 -42.35938 -32.19141
749.34375 -42.30273 -33.17578
753.68750 -42.36523 -32.65039
758.03125 -42.31836 -32.83594
762.37500 -42.33398 -33.39844
766.71875 -42.22656 -33.54297
771.06250 -42.24414 -33.94141
775.40625 -42.30078 -33.77930
779.75000 -42.32812 -34.17188
784.09375 -42.32617 -34.83789
788.43750 -42.27930 -34.65820
792.78125 -42.31055 -34.05273
797.12500 -42.34375 -34.92188
801.46875 -42.34766 -35.27734
805.81250 -42.35742 -35.30859
810.15625 -42.27344 -35.50586
814.50000 -42.30664 -35.62500
818.84375 -42.32422 -36.05859
823.18750 -42.33984 -35.90820
827.53125 -42.39258 -35.92969
831.87500 -42.36133 -36.25781
836.21875 -42.33008 -36.60938
840.56250 -42.33008 -36.75391
844.90625 -42.37891 -37.03125
849.25000 -42.40820 -36.77734
853.59375 -42.38477 -37.33789
857.93750 -42.36328 -37.53711
862.28125 -42.43359 -38.04883
866.62500 -42.33594 -37.52930
870.96875 -42.39258 -37.67383
875.31250 -42.37305 -37.92969
879.65625 -42.31250 -38.13477
884.00000 -42.40820 -38.60352
888.34375 -42.43945 -38.70312
892.68750 -42.35156 -38.96680
897.03125 -42.37891 -39.63477
901.37500 -42.42188 -39.20703
905.71875 -42.45312 -39.30078
910.06250 -42.43945 -39.96484
914.40625 -42.46875 -40.21680
918.75000 -42.41992 -40.37305
923.09375 -42.41016 -40.58203
927.43750 -42.49219 -40.75195
931.78125 -42.41797 -40.00000
936.12500 -42.58203 -41.07812
940.46875 -42.38867 -41.37109
944.81250 -42.45312 -41.49414
949.15625 -42.45312 -41.29102
953.50000 -42.51172 -41.27539
957.84375 -42.44922 -41.25977
962.18750 -42.45898 -42.14453
966.53125 -42.50391 -42.06641
970.87500 -42.43945 -42.57617
975.21875 -42.49023 -42.89648
979.56250 -42.47266 -42.87891
983.90625 -42.48438 -42.76367
988.25000 -42.52734 -43.48828
992.59375 -42.51367 -43.82617
996.93750 -42.47656 -43.81641
1001.28125 -42.55078 -44.27930
1005.62500 -42.55273 -44.64062
1009.96875 -42.51758 -44.59180
1014.31250 -42.55078 -44.83594
1018.65625 -42.49805 -45.33008
1023.00000 -42.54883 -45.22461
1027.34375 -42.48438 -45.71289
1031.68750 -42.55273 -45.26562
1036.03125 -42.54688 -46.29102
1040.37500 -42.62109 -45.69141
1044.71875 -42.55078 -46.23047
1049.06250 -42.55469 -45.97852
1053.40625 -42.57031 -46.56836
1057.75000 -42.61914 -47.22070
1062.09375 -42.60156 -46.56055
1066.43750 -42.50000 -46.98242
1070.78125 -42.59961 -47.71094
1075.12500 -42.55664 -47.53320
1079.46875 -42.55859 -47.87891
1083.81250 -42.63086 -48.39453
1088.15625 -42.56836 -48.07617
1092.50000 -42.58008 -48.35938
1096.84375 -42.59375 -48.95508
1101.18750 -42.64648 -48.60547
1105.53125 -42.59180 -48.82031
1109.87500 -42.63867 -49.38672
1114.21875 -42.62500 -49.70312
1118.56250 -42.62305 -49.77539
1122.90625 -42.58008 -49.96484
1127.25000 -42.65234 -50.17578
1131.59375 -42.60547 -50.25000
1135.93750 -42.56836 -50.53320
1140.28125 -42.57812 -50.86523
1144.62500 -42.57617 -50.99805
1148.96875 -42.56445 -51.38086
1153.31250 -42.56836 -50.80469
1157.65625 -42.63281 -51.42188
1162.00000 -42.67383 -51.65234
1166.34375 -42.71094 -52.30469
1170.68750 -42.63672 -52.87891
1175.03125 -42.62109 -52.59570
1179.37500 -42.63672 -53.07617
1183.71875 -42.60547 -53.03125
1188.06250 -42.69141 -53.21094
1192.40625 -42.66406 -52.95703
1196.75000 -42.57617 -53.83203
1201.09375 -42.68164 -54.03711
1205.43750 -42.62891 -54.05859
1209.78125 -42.65625 -54.28906
1214.12500 -42.69336 -54.53516
1218.46875 -42.72266 -54.54688
1222.81250 -42.73242 -54.89062
1227.15625 -42.62891 -55.01367
1231.50000 -42.67578 -55.32031
1235.84375 -42.61133 -55.57617
1240.18750 -42.71484 -55.61328
1244.53125 -42.78711 -55.51758
1248.87500 -42.69531 -56.31836
1253.21875 -42.67578 -56.62695
1257.56250 -42.69727 -56.88281
1261.90625 -42.75781 -56.73828
1266.25000 -42.60938 -57.16797
1270.59375 -42.75586 -57.12500
1274.93750 -42.74414 -57.11328
1279.28125 -42.71875 -57.37109
1283.62500 -42.79688 -58.07422
1287.96875 -42.66992 -58.09180
1292.31250 -42.70703 -58.50000
1296.65625 -42.70117 -57.92383
1301.00000 -42.72656 -58.26758
1305.34375 -42.73438 -58.77148
1309.68750 -42.79688 -59.45508
1314.03125 -42.71680 -59.44531
1318.37500 -42.69727 -59.74414
1322.71875 -42.81641 -59.80859
1327.06250 -42.76758 -59.43164
1331.40625 -42.75586 -60.54492
1335.75000 -42.77539 -60.91211
1340.09375 -42.72656 -60.38867
1344.43750 -42.79297 -61.09570
1348.78125 -42.86719 -61.03906
1353.12500 -42.76367 -61.58984
1357.46875 -42.81445 -61.67773
1361.81250 -42.81445 -61.71094
1366.15625 -42.71484 -61.94141
1370.50000 -42.74023 -61.66992
1374.84375 -42.69922 -62.46289
1379.18750 -42.80664 -62.70508
1383.53125 -42.68359 -63.02539
1387.87500 -42.75195 -63.66797
1392.21875 -42.75000 -63.67578
1396.56250 -42.71680 -63.27344
1400.90625 -42.77148 -64.13672
1405.25000 -42.73438 -63.86914
1409.59375 -42.84961 -64.18750
1413.93750 -42.75391 -64.91406
1418.28125 -42.75391 -65.27734
1422.62500 -42.77930 -65.03516
1426.96875 -42.78906 -65.36328
1431.31250 -42.79102 -65.16406
1435.65625 -42.79688 -66.03125
1440.00000 -42.76953 -65.87891
1444.34375 -42.72266 -65.91406
1448.68750 -42.78906 -66.56250
1453.03125 -42.75977 -66.61328
1457.37500 -42.83008 -66.53516
1461.71875 -42.89844 -67.37500
1466.06250 -42.81641 -67.31641
1470.40625 -42.69141 -67.67188
1474.75000 -42.79883 -67.68359
1479.09375 -42.68750 -68.25781
1483.43750 -42.79102 -67.84766
1487.78125 -42.77148 -68.45703
1492.12500 -42.72656 -68.70312
1496.46875 -42.81055 -68.37891
1500.81250 -42.70312 -68.88281
1505.15625 -42.69727 -69.01562
1509.50000 -42.75781 -69.23047
1513.84375 -42.73438 -69.94141
1518.18750 -42.76562 -69.67578
1522.53125 -42.77539 -70.25781
1526.87500 -42.83008 -70.89453
1531.21875 -42.83594 -70.28516
1535.56250 -42.77539 -70.80469
1539.90625 -42.83398 -71.12109
1544.25000 -42.79297 -71.83203
1548.59375 -42.80469 -71.94141
1552.93750 -42.84961 -71.98438
1557.28125 -42.83203 -71.67188
1561.62500 -42.79492 -72.10547
1565.96875 -42.78516 -72.51562
1570.31250 -42.88867 -72.04297
1574.65625 -42.75391 -72.75781
1579.00000 -42.82812 -73.11328
1583.34375 -42.80273 -73.38672
1587.68750 -42.83984 -73.55859
1592.03125 -42.77734 -73.56641
1596.37500 -42.78516 -73.91797
1600.71875 -42.82227 -74.47656
1605.06250 -42.75977 -74.41797
1609.40625 -42.83008 -75.08984
1613.75000 -42.86328 -74.32422
1618.09375 -42.70312 -75.51172
1622.43750 -42.77148 -75.46094
1626.78125 -42.80273 -75.93359
1631.12500 -42.87500 -75.34766
1635.46875 -42.85156 -76.06641
1639.81250 -42.80859 -76.41406
1644.15625 -42.72266 -76.28125
1648.50000 -42.76562 -76.43750
1652.84375 -42.74805 -77.02734
1657.18750 -42.79492 -77.10547
1661.53125 -42.76172 -76.91406
1665.87500 -42.74609 -77.33594
1670.21875 -42.76562 -77.83984
1674.56250 -42.77930 -77.74219
1678.90625 -42.77734 -78.50781
1683.25000 -42.79688 -78.03516
1687.59375 -42.72266 -78.58203
1691.93750 -42.73047 -78.73047
1696.28125 -42.79297 -79.14844
1700.62500 -42.82422 -79.25000
1704.96875 -42.66406 -79.44141
1709.31250 -42.84375 -80.03125
1713.65625 -42.83398 -80.43750
1718.00000 -42.82422 -80.37891
1722.34375 -42.79102 -80.17578
1726.68750 -42.79688 -80.60547
1731.03125 -42.79688 -81.23047
1735.37500 -42.75781 -80.90625
1739.71875 -42.78125 -81.70703
1744.06250 -42.74414 -81.89062
1748.40625 -42.82031 -82.20312
1752.75000 -42.76172 -82.33984
1757.09375 -42.75586 -82.30469
1761.43750 -42.91992 -82.66016
1765.78125 -42.80469 -83.05469
1770.12500 -42.77734 -82.97266
1774.46875 -42.82227 -83.68359
1778.81250 -42.80859 -83.27344
1783.15625 -42.67383 -83.54297
1787.50000 -42.81836 -84.01953
1791.84375 -42.77539 -83.96484
1796.18750 -42.70508 -84.89062
1800.53125 -42.70508 -85.29297
1804.87500 -42.78320 -85.08203
1809.21875 -42.62500 -85.64844
1813.56250 -42.75391 -85.26953
1817.90625 -42.76758 -86.07031
1822.25000 -42.82812 -85.32812
1826.59375 -42.82227 -86.14844
1830.93750 -42.74219 -86.66797
1835.28125 -42.76562 -86.69141
1839.62500 -42.76758 -87.13281
1843.96875 -42.76562 -87.46094
1848.31250 -42.76367 -87.45703
1852.65625 -42.75391 -87.98047
1857.00000 -42.66211 -87.88672
1861.34375 -42.75391 -88.32422
1865.68750 -42.77148 -88.03906
1870.03125 -42.67773 -88.98438
1874.37500 -42.74023 -88.70703
1878.71875 -42.69141 -89.56641
1883.06250 -42.66602 -90.00781
1887.40625 -42.66016 -89.37891
1891.75000 -42.65625 -89.99609
1896.09375 -42.66602 -89.45312
1900.43750 -42.75391 -89.80859
1904.78125 -42.69727 -90.68359
1909.12500 -42.68555 -90.98047
1913.46875 -42.66992 -91.11328
1917.81250 -42.61914 -91.36719
1922.15625 -42.66602 -90.67578
1926.50000 -42.65234 -91.62500
1930.84375 -42.56445 -91.68750
1935.18750 -42.66016 -92.44141
1939.53125 -42.72070 -91.63672
1943.87500 -42.63672 -92.60547
1948.21875 -42.68164 -92.66016
1952.56250 -42.68164 -93.04688
1956.90625 -42.68945 -93.00000
1961.25000 -42.62109 -93.90625
1965.59375 -42.65234 -92.83594
1969.93750 -42.63086 -94.05078
1974.28125 -42.59961 -94.11719
1978.62500 -42.60352 -94.21094
1982.96875 -42.70508 -94.87891
1987.31250 -42.62695 -95.21875
1991.65625 -42.55664 -95.52734
1996.00000 -42.53320 -95.63672
2000.34375 -42.67188 -95.53906
2004.68750 -42.62109 -96.00000
2009.03125 -42.62695 -95.75781
2013.37500 -42.52930 -96.85156
2017.71875 -42.71094 -97.19531
2022.06250 -42.53320 -96.89062
2026.40625 -42.56641 -97.04297
2030.75000 -42.60156 -97.48047
2035.09375 -42.57227 -97.49609
2039.43750 -42.48047 -97.55469
2043.78125 -42.60742 -98.10938
2048.12500 -42.56445 -98.27734
2052.46875 -42.47461 -98.76562
2056.81250 -42.53516 -98.46875
2061.15625 -42.55273 -99.46484
2065.50000 -42.58398 -99.41016
2069.84375 -42.58789 -99.41406
2074.18750 -42.56836 -99.45703
2078.53125 -42.46875 -100.37109
2082.87500 -42.56445 -100.59766
2087.21875 -42.61719 -99.94922
2091.56250 -42.55078 -100.84375
2095.90625 -42.53906 -101.02734
2100.25000 -42.52344 -100.94531
2104.59375 -42.55859 -101.87891
2108.93750 -42.59570 -102.40625
2113.28125 -42.49609 -102.14844
2117.62500 -42.52734 -102.73047
2121.96875 -42.47461 -102.23828
2126.31250 -42.56445 -103.16797
2130.65625 -42.39648 -102.71484
2135.00000 -42.52930 -102.48828
2139.34375 -42.49609 -103.47656
2143.68750 -42.41992 -103.64844
2148.03125 -42.44727 -104.64453
2152.37500 -42.41406 -104.48828
2156.71875 -42.39062 -104.41406
2161.06250 -42.39062 -104.86328
2165.40625 -42.40625 -104.93750
2169.75000 -42.33203 -105.27344
2174.09375 -42.45117 -105.46484
2178.43750 -42.37695 -106.16406
2182.78125 -42.46875 -105.97656
2187.12500 -42.40039 -106.57031
2191.46875 -42.37109 -105.57812
2195.81250 -42.38086 -106.49219
2200.15625 -42.33594 -106.82812
2204.50000 -42.39062 -107.67188
2208.84375 -42.39258 -107.52344
2213.18750 -42.38086 -107.91406
2217.53125 -42.31836 -108.15625
2221.87500 -42.30469 -108.22266
2226.21875 -42.30469 -108.80078
2230.56250 -42.35938 -108.58984
2234.90625 -42.25977 -108.56641
2239.25000 -42.34180 -108.71484
2243.59375 -42.27930 -109.35156
2247.93750 -42.31445 -109.81250
2252.28125 -42.23438 -109.55078
2256.62500 -42.28711 -110.14062
2260.96875 -42.28711 -110.15625
2265.31250 -42.18164 -110.67578
2269.65625 -42.25781 -110.83594
2274.00000 -42.25000 -111.33594
2278.34375 -42.19336 -111.55078
2282.68750 -42.20703 -111.39453
2287.03125 -42.23438 -111.48438
2291.37500 -42.12891 -112.08984
2295.71875 -42.14844 -112.35156
2300.06250 -42.14062 -112.32031
2304.40625 -42.16602 -112.65625
2308.75000 -42.14453 -113.54688
2313.09375 -42.14453 -113.53125
2317.43750 -42.12305 -113.58594
2321.78125 -42.17969 -113.79688
2326.12500 -42.14648 -114.11328
2330.46875 -42.08789 -114.58203
2334.81250 -42.10156 -114.14453
2339.15625 -42.11719 -114.84375
2343.50000 -42.10547 -114.76562
2347.84375 -42.04492 -114.96094
2352.18750 -42.03516 -115.83594
2356.53125 -42.11523 -115.86328
2360.87500 -42.03320 -115.67969
2365.21875 -42.04492 -116.38281
2369.56250 -41.98828 -116.16016
2373.90625 -41.94336 -116.82422
2378.25000 -41.91211 -117.23828
2382.59375 -42.00977 -117.19141
2386.93750 -41.93555 -117.29688
2391.28125 -42.00391 -117.53906
2395.62500 -41.91016 -118.09375
2399.96875 -41.92969 -117.93359
2404.31250 -41.97461 -118.19141
2408.65625 -41.90430 -118.46094
2413.00000 -41.91797 -118.28906
2417.34375 -41.91016 -119.42188
2421.68750 -41.88477 -119.24219
2426.03125 -41.84961 -119.50000
2430.37500 -41.81055 -119.58203
2434.71875 -41.90625 -119.62891
2439.06250 -41.86523 -120.20703
2443.40625 -41.84570 -120.45703
2447.75000 -41.81250 -120.63281
2452.09375 -41.83789 -121.10938
2456.43750 -41.83984 -121.08984
2460.78125 -41.82617 -121.61328
2465.12500 -41.77734 -121.42578
2469.46875 -41.77148 -121.90234
2473.81250 -41.79883 -122.50000
2478.15625 -41.77734 -122.05859
2482.50000 -41.73438 -122.32812
2486.84375 -41.77539 -122.79688
2491.18750 -41.75000 -122.86328
2495.53125 -41.72461 -123.41016
2499.87500 -41.68164 -123.48438
2504.21875 -41.66211 -124.31250
2508.56250 -41.72070 -124.01562
2512.90625 -41.69922 -124.33203
2517.25000 -41.62109 -124.13281
2521.59375 -41.62109 -124.92188
2525.93750 -41.63672 -124.84375
2530.28125 -41.55273 -125.50391
2534.62500 -41.60352 -125.27734
2538.96875 -41.59375 -125.82422
2543.31250 -41.59961 -126.06250
2547.65625 -41.46484 -125.75781
2552.00000 -41.55078 -126.49609
2556.34375 -41.55664 -126.28125
2560.68750 -41.47070 -126.82031
2565.03125 -41.46289 -127.30859
2569.37500 -41.53516 -127.50000
2573.71875 -41.41602 -127.53906
2578.06250 -41.47266 -127.63281
2582.40625 -41.40625 -128.09375
2586.75000 -41.47266 -128.44531
2591.09375 -41.42969 -127.97266
2595.43750 -41.44141 -128.72656
2599.78125 -41.44141 -128.27344
2604.12500 -41.34961 -128.78906
2608.46875 -41.39648 -129.34375
2612.81250 -41.32812 -129.53125
2617.15625 -41.36133 -129.75781
2621.50000 -41.38672 -129.66406
2625.84375 -41.34766 -130.24219
2630.18750 -41.29883 -130.78125
2634.53125 -41.29102 -130.32812
2638.87500 -41.26953 -130.91406
2643.21875 -41.31445 -131.03125
2647.56250 -41.27539 -131.62500
2651.90625 -41.32617 -131.41406
2656.25000 -41.26758 -132.31250
2660.59375 -41.26562 -131.89844
2664.93750 -41.16211 -132.59375
2669.28125 -41.18164 -131.93750
2673.62500 -41.21484 -133.02344
2677.96875 -41.22461 -132.95312
2682.31250 -41.16797 -132.83594
2686.65625 -41.10742 -133.24219
