# Hz S RI R 50.000000
! FREQ                re:S1  1             im:S1  1    
1.000000e+05  2.049519e-03   -3.399640e-03
3.759900e+07  4.438854e-04   -1.932277e-03
7.509800e+07  -2.479962e-03   3.689251e-03
1.125970e+08  -4.779427e-03   4.669621e-03
1.500960e+08  -2.339517e-03   1.101482e-03
1.875950e+08  -7.566979e-04   -2.022208e-05
2.250940e+08  8.907967e-04   -2.196519e-04
2.625930e+08  8.539345e-04   -1.113993e-04
3.000920e+08  -2.052530e-03   -1.031131e-03
3.375910e+08  1.032233e-03   7.604217e-04
3.750900e+08  -9.783775e-04   -1.274741e-03
4.125890e+08  1.890481e-04   3.106639e-04
4.500880e+08  3.258112e-04   1.807400e-03
4.875870e+08  1.026985e-04   -1.534834e-04
5.250860e+08  -2.439825e-04   1.315449e-03
5.625850e+08  -1.937082e-03   3.068729e-03
6.000840e+08  -6.261938e-06   3.438891e-04
6.375830e+08  -1.654730e-03   1.296630e-03
6.750820e+08  -2.857735e-03   1.175823e-03
7.125810e+08  1.014137e-03   2.483596e-04
7.500800e+08  3.580334e-03   9.546645e-04
7.875790e+08  5.889809e-04   6.851277e-04
8.250780e+08  2.465494e-03   2.603597e-03
8.625770e+08  3.517234e-03   5.288495e-03
9.000760e+08  -1.036966e-03   -1.371787e-03
9.375750e+08  1.056875e-04   3.229800e-03
9.750740e+08  -5.118563e-04   1.186087e-03
1.012573e+09  9.333443e-04   -3.618447e-03
1.050072e+09  1.313810e-03   -3.044424e-03
1.087571e+09  -1.035091e-03   6.327077e-04
1.125070e+09  1.925416e-03   -1.274183e-03
1.162569e+09  8.047758e-03   -2.933234e-03
1.200068e+09  -1.541249e-03   6.176622e-05
1.237567e+09  1.294562e-03   5.152901e-05
1.275066e+09  9.283403e-04   3.599338e-04
1.312565e+09  -2.897629e-04   -4.363333e-04
1.350064e+09  -5.064262e-04   -9.556962e-04
1.387563e+09  -7.425484e-04   -2.801474e-03
1.425062e+09  4.053974e-05   -1.582740e-03
1.462561e+09  1.983631e-04   2.555363e-03
1.500060e+09  -9.526770e-05   1.849977e-03
1.537559e+09  -1.158743e-03   2.938181e-03
1.575058e+09  -2.781593e-03   3.295574e-03
1.612557e+09  6.656800e-03   -3.226706e-03
1.650056e+09  -3.121104e-03   1.348200e-03
1.687555e+09  -2.183625e-03   5.745869e-04
1.725054e+09  1.580469e-03   8.934085e-04
1.762553e+09  4.215313e-03   2.482429e-03
1.800052e+09  -1.427948e-03   -7.938410e-04
1.837551e+09  9.581229e-04   1.834144e-03
1.875050e+09  -8.369447e-04   -8.219943e-04
1.912549e+09  -1.970997e-04   -1.099709e-04
1.950048e+09  -3.322783e-04   1.233630e-03
1.987547e+09  -2.505478e-05   -6.727435e-04
2.025046e+09  -5.284264e-04   6.413059e-04
2.062545e+09  -4.446019e-03   4.386242e-03
2.100044e+09  -2.971869e-03   1.590857e-03
2.137543e+09  -1.407175e-04   -1.600947e-04
2.175042e+09  3.267157e-03   -4.303174e-04
2.212541e+09  1.156786e-03   1.289814e-04
2.250040e+09  3.368481e-04   -3.460348e-04
2.287539e+09  3.100313e-03   1.988299e-03
2.325038e+09  1.799244e-03   1.660701e-03
2.362537e+09  -5.041203e-04   -2.256310e-03
2.400036e+09  2.386520e-05   -2.288988e-03
2.437535e+09  7.284396e-04   -1.418019e-03
2.475034e+09  1.577221e-03   -2.308297e-03
2.512533e+09  4.069524e-04   4.666727e-04
2.550032e+09  -2.279401e-04   8.506854e-04
2.587531e+09  2.433070e-03   -9.525997e-04
2.625030e+09  -6.606154e-04   5.982302e-04
2.662529e+09  4.065543e-03   1.062462e-04
2.700028e+09  3.497313e-03   9.510329e-04
2.737527e+09  -4.260169e-03   -1.552334e-03
2.775026e+09  -9.608693e-04   -7.271121e-04
2.812525e+09  1.019690e-03   1.444535e-03
2.850024e+09  4.139446e-04   1.148345e-03
2.887523e+09  1.941957e-05   1.150785e-03
2.925022e+09  -4.624898e-05   8.045618e-04
2.962521e+09  7.857548e-05   -5.260262e-04
3.000020e+09  -1.427392e-03   1.981545e-03
3.037519e+09  9.857142e-04   -3.604254e-04
3.075018e+09  3.884612e-03   -1.836732e-03
3.112517e+09  -3.899183e-03   1.019703e-03
3.150016e+09  1.585143e-03   9.499314e-05
3.187515e+09  -4.350989e-03   -1.201919e-03
3.225014e+09  5.232158e-04   -4.368420e-04
3.262513e+09  6.546308e-04   -7.627742e-05
3.300012e+09  1.386638e-03   -1.308091e-04
3.337511e+09  -3.375863e-04   -4.751247e-03
3.375010e+09  9.918061e-04   -2.197959e-03
3.412509e+09  1.746788e-03   -2.201963e-03
3.450008e+09  1.990854e-03   -6.492729e-04
3.487507e+09  -2.120287e-03   5.405239e-03
3.525006e+09  -5.781027e-04   2.402266e-03
3.562505e+09  6.691293e-03   -1.747247e-03
3.600004e+09  2.486881e-03   7.498288e-04
3.637503e+09  4.397229e-03   8.135448e-04
3.675002e+09  1.778460e-04   8.572153e-04
3.712501e+09  5.207578e-05   6.948192e-04
3.750000e+09  6.810075e-04   9.740719e-04
3.787499e+09  -1.415186e-03   -1.856120e-03
3.824998e+09  6.846646e-04   3.098534e-03
3.862497e+09  3.080110e-04   3.182032e-03
3.899996e+09  -4.404207e-04   1.175216e-03
3.937495e+09  4.664957e-03   -9.375650e-03
3.974994e+09  -1.846957e-03   2.232364e-03
4.012493e+09  -2.815232e-03   1.914859e-03
4.049992e+09  4.329820e-03   -2.220126e-03
4.087491e+09  1.799171e-03   -6.163609e-04
4.124990e+09  -3.680093e-03   -7.409786e-04
4.162489e+09  7.400060e-03   1.083746e-03
4.199988e+09  2.490701e-03   6.856863e-04
4.237487e+09  2.327826e-03   5.176017e-04
4.274986e+09  2.161821e-03   9.980253e-04
4.312485e+09  6.602372e-04   -1.908162e-03
4.349984e+09  1.112412e-03   7.514483e-05
4.387483e+09  1.176563e-03   5.426572e-05
4.424982e+09  1.678713e-03   -8.997349e-04
4.462481e+09  -3.148328e-04   2.325756e-03
4.499980e+09  2.110159e-03   -9.821110e-04
4.537479e+09  2.153797e-03   -5.454857e-04
4.574978e+09  7.546118e-04   3.643840e-04
4.612477e+09  8.985476e-04   7.528949e-04
4.649976e+09  1.970801e-03   8.608125e-04
4.687475e+09  -5.172734e-03   -2.127055e-03
4.724974e+09  -5.021012e-03   -3.754547e-03
4.762473e+09  -1.419356e-03   -1.210672e-03
4.799972e+09  -1.542412e-03   -2.081004e-03
4.837471e+09  -9.309557e-04   -3.426459e-03
4.874970e+09  -1.369263e-03   2.184714e-03
4.912469e+09  1.023747e-03   -5.341042e-03
4.949968e+09  -3.558680e-03   2.146936e-03
4.987467e+09  -8.308523e-04   -1.058329e-03
5.024966e+09  2.367778e-03   -2.516580e-03
5.062465e+09  6.296572e-03   -2.926286e-03
5.099964e+09  7.533512e-04   -1.038333e-03
5.137463e+09  -6.583090e-04   -7.076923e-04
5.174962e+09  5.288288e-03   1.884117e-03
5.212461e+09  7.014789e-04   1.536063e-04
5.249960e+09  -1.511598e-03   -2.225931e-03
5.287459e+09  1.181201e-03   3.349571e-03
5.324958e+09  6.331160e-05   3.588382e-03
5.362457e+09  2.914862e-04   -1.053683e-03
5.399956e+09  9.796278e-04   -2.808722e-03
5.437455e+09  -3.684071e-04   9.212444e-04
5.474954e+09  8.142493e-06   -4.619049e-05
5.512453e+09  -2.477601e-03   1.269805e-03
5.549952e+09  -1.060031e-03   3.140803e-04
5.587451e+09  4.702381e-04   1.096925e-04
5.624950e+09  -5.578187e-03   -9.789138e-04
5.662449e+09  -2.641380e-03   -7.693511e-04
5.699948e+09  -5.169092e-04   -3.827016e-05
5.737447e+09  -8.796381e-04   5.777697e-05
5.774946e+09  -1.781048e-03   -1.667225e-03
5.812445e+09  -1.322863e-03   -6.962281e-04
5.849944e+09  -1.850133e-03   2.850721e-03
5.887443e+09  -6.627232e-04   -3.123221e-03
5.924942e+09  -1.507817e-03   7.067635e-05
5.962441e+09  -2.261780e-04   -1.743033e-03
5.999940e+09  6.543989e-04   -1.761460e-03
6.037439e+09  -3.899537e-04   -1.005657e-03
6.074938e+09  -5.697184e-03   -7.004260e-04
6.112437e+09  2.027488e-03   4.622631e-04
6.149936e+09  -2.758699e-03   -1.518184e-03
6.187435e+09  -2.487410e-03   -2.206890e-03
6.224934e+09  -2.803586e-03   -3.346995e-03
6.262433e+09  -1.248491e-03   -6.883589e-04
6.299932e+09  -1.337689e-03   -3.022482e-04
6.337431e+09  -8.421491e-04   -8.825390e-04
6.374930e+09  -2.659974e-03   1.862754e-03
6.412429e+09  -1.761718e-03   6.163616e-04
6.449928e+09  -5.036238e-03   2.103657e-03
6.487427e+09  2.214822e-03   -6.117660e-04
6.524926e+09  -1.496245e-03   -4.371811e-05
6.562425e+09  -1.850640e-03   1.112574e-05
6.599924e+09  -4.174363e-03   -1.235419e-03
6.637423e+09  -5.418330e-04   8.733734e-04
6.674922e+09  -5.692811e-04   7.531425e-04
6.712421e+09  4.800452e-04   4.452994e-03
6.749920e+09  -1.503671e-03   -3.804593e-03
6.787419e+09  -1.052927e-03   3.547827e-03
6.824918e+09  -3.142766e-03   6.522429e-03
6.862417e+09  6.850680e-04   -1.426224e-03
6.899916e+09  1.124502e-05   -1.578186e-04
6.937415e+09  -5.815047e-03   3.503986e-03
6.974914e+09  -4.040341e-03   1.739736e-03
7.012413e+09  3.753412e-03   1.120286e-03
7.049912e+09  7.792690e-05   1.101499e-03
7.087411e+09  -2.188746e-04   1.063572e-03
7.124910e+09  2.479008e-03   4.032840e-03
7.162409e+09  -1.289557e-03   2.187907e-05
7.199908e+09  -2.266703e-03   -3.988710e-03
7.237407e+09  -4.796101e-04   3.410328e-03
7.274906e+09  -1.138571e-03   4.961764e-03
7.312405e+09  8.571759e-04   -1.944717e-03
7.349904e+09  -1.684130e-03   2.794255e-03
7.387403e+09  2.529930e-03   -1.237887e-03
7.424902e+09  -6.960710e-03   4.083047e-03
7.462401e+09  1.481334e-03   9.285543e-04
7.499900e+09  -5.372502e-03   9.894712e-04
