# Hz S RI R 50.000000
! FREQ                re:S1  1             im:S1  1    
1.000000e+05  9.957871e-01   -1.871557e-02
3.759900e+07  9.995592e-01   -1.922355e-02
7.509800e+07  9.979312e-01   -3.917305e-02
1.125970e+08  9.974426e-01   -6.389239e-02
1.500960e+08  9.951296e-01   -8.347024e-02
1.875950e+08  9.954133e-01   -1.087697e-01
2.250940e+08  9.936130e-01   -1.302673e-01
2.625930e+08  9.886190e-01   -1.492800e-01
3.000920e+08  9.873375e-01   -1.717994e-01
3.375910e+08  9.813395e-01   -1.913890e-01
3.750900e+08  9.763867e-01   -2.121026e-01
4.125890e+08  9.718119e-01   -2.332565e-01
4.500880e+08  9.672331e-01   -2.539734e-01
4.875870e+08  9.622707e-01   -2.746675e-01
5.250860e+08  9.562467e-01   -2.953040e-01
5.625850e+08  9.477626e-01   -3.156844e-01
6.000840e+08  9.423836e-01   -3.355576e-01
6.375830e+08  9.360663e-01   -3.553331e-01
6.750820e+08  9.230696e-01   -3.772326e-01
7.125810e+08  9.185751e-01   -3.952918e-01
7.500800e+08  9.071865e-01   -4.170813e-01
7.875790e+08  9.011536e-01   -4.338780e-01
8.250780e+08  8.874771e-01   -4.578817e-01
8.625770e+08  8.858026e-01   -4.648916e-01
9.000760e+08  8.700558e-01   -4.927950e-01
9.375750e+08  8.604768e-01   -5.082728e-01
9.750740e+08  8.485307e-01   -5.283095e-01
1.012573e+09  8.371751e-01   -5.459625e-01
1.050072e+09  8.251101e-01   -5.701117e-01
1.087571e+09  8.119392e-01   -5.753187e-01
1.125070e+09  8.013228e-01   -6.043122e-01
1.162569e+09  7.870579e-01   -6.165324e-01
1.200068e+09  7.758869e-01   -6.373567e-01
1.237567e+09  7.585514e-01   -6.478919e-01
1.275066e+09  7.460423e-01   -6.663803e-01
1.312565e+09  7.310793e-01   -6.817376e-01
1.350064e+09  7.167055e-01   -6.979461e-01
1.387563e+09  7.014550e-01   -7.127971e-01
1.425062e+09  6.869675e-01   -7.283910e-01
1.462561e+09  6.730228e-01   -7.437898e-01
1.500060e+09  6.545414e-01   -7.565320e-01
1.537559e+09  6.353546e-01   -7.700180e-01
1.575058e+09  6.206945e-01   -7.834646e-01
1.612557e+09  6.005759e-01   -7.971333e-01
1.650056e+09  5.863854e-01   -8.097541e-01
1.687555e+09  5.625365e-01   -8.248559e-01
1.725054e+09  5.511083e-01   -8.339491e-01
1.762553e+09  5.429518e-01   -8.377190e-01
1.800052e+09  5.171587e-01   -8.543630e-01
1.837551e+09  4.913232e-01   -8.737912e-01
1.875050e+09  4.761495e-01   -8.798026e-01
1.912549e+09  4.563397e-01   -8.913839e-01
1.950048e+09  4.393873e-01   -8.964434e-01
1.987547e+09  4.172225e-01   -9.137172e-01
2.025046e+09  3.969385e-01   -9.260839e-01
2.062545e+09  3.797038e-01   -9.250105e-01
2.100044e+09  3.601436e-01   -9.308972e-01
2.137543e+09  3.398323e-01   -9.409913e-01
2.175042e+09  3.199630e-01   -9.491068e-01
2.212541e+09  2.990519e-01   -9.542134e-01
2.250040e+09  2.784379e-01   -9.603255e-01
2.287539e+09  2.573125e-01   -9.643868e-01
2.325038e+09  2.374722e-01   -9.732121e-01
2.362537e+09  2.164993e-01   -9.768464e-01
2.400036e+09  1.949359e-01   -9.808873e-01
2.437535e+09  1.737747e-01   -9.846405e-01
2.475034e+09  1.575558e-01   -9.914951e-01
2.512533e+09  1.289882e-01   -9.903979e-01
2.550032e+09  1.101940e-01   -9.937462e-01
2.587531e+09  9.405106e-02   -9.968972e-01
2.625030e+09  6.937903e-02   -9.976090e-01
2.662529e+09  4.923500e-02   -9.982273e-01
2.700028e+09  2.587055e-02   -9.987718e-01
2.737527e+09  8.476650e-03   -9.969186e-01
2.775026e+09  -1.865614e-02   -9.990129e-01
2.812525e+09  -3.688311e-02   -9.960521e-01
2.850024e+09  -6.779718e-02   -1.001828e+00
2.887523e+09  -8.355502e-02   -9.953787e-01
2.925022e+09  -1.046007e-01   -9.924604e-01
2.962521e+09  -1.297222e-01   -9.955632e-01
3.000020e+09  -1.487810e-01   -9.891385e-01
3.037519e+09  -1.702238e-01   -9.870269e-01
3.075018e+09  -1.910724e-01   -9.822645e-01
3.112517e+09  -2.119838e-01   -9.776663e-01
3.150016e+09  -2.327839e-01   -9.721003e-01
3.187515e+09  -2.540465e-01   -9.670263e-01
3.225014e+09  -2.750245e-01   -9.630662e-01
3.262513e+09  -2.953521e-01   -9.568239e-01
3.300012e+09  -3.165839e-01   -9.455043e-01
3.337511e+09  -3.381662e-01   -9.348344e-01
3.375010e+09  -3.578173e-01   -9.311369e-01
3.412509e+09  -3.752654e-01   -9.267074e-01
3.450008e+09  -3.940085e-01   -9.193448e-01
3.487507e+09  -4.150154e-01   -9.078428e-01
3.525006e+09  -4.360946e-01   -8.969034e-01
3.562505e+09  -4.484504e-01   -8.902606e-01
3.600004e+09  -4.768228e-01   -8.767569e-01
3.637503e+09  -4.922801e-01   -8.675300e-01
3.675002e+09  -5.132210e-01   -8.570547e-01
3.712501e+09  -5.284676e-01   -8.467084e-01
3.750000e+09  -5.433005e-01   -8.343092e-01
3.787499e+09  -5.632614e-01   -8.231472e-01
3.824998e+09  -5.792869e-01   -8.099885e-01
3.862497e+09  -6.002013e-01   -7.984497e-01
3.899996e+09  -6.164704e-01   -7.844710e-01
3.937495e+09  -6.368201e-01   -7.739275e-01
3.974994e+09  -6.520315e-01   -7.581737e-01
4.012493e+09  -6.684611e-01   -7.433736e-01
4.049992e+09  -6.828497e-01   -7.288751e-01
4.087491e+09  -6.986677e-01   -7.137749e-01
4.124990e+09  -7.151023e-01   -6.999589e-01
4.162489e+09  -7.271385e-01   -6.785634e-01
4.199988e+09  -7.435620e-01   -6.664545e-01
4.237487e+09  -7.581846e-01   -6.526633e-01
4.274986e+09  -7.717162e-01   -6.361946e-01
4.312485e+09  -7.858737e-01   -6.160901e-01
4.349984e+09  -7.991250e-01   -5.979756e-01
4.387483e+09  -8.089935e-01   -5.876001e-01
4.424982e+09  -8.217748e-01   -5.668524e-01
4.462481e+09  -8.305648e-01   -5.521581e-01
4.499980e+09  -8.445143e-01   -5.302913e-01
4.537479e+09  -8.670461e-01   -5.033911e-01
4.574978e+09  -8.679796e-01   -4.923312e-01
4.612477e+09  -8.774087e-01   -4.743588e-01
4.649976e+09  -8.965774e-01   -4.520216e-01
4.687475e+09  -9.042167e-01   -4.346107e-01
4.724974e+09  -9.086249e-01   -4.158120e-01
4.762473e+09  -9.246457e-01   -3.964624e-01
4.799972e+09  -9.265541e-01   -3.760527e-01
4.837471e+09  -9.336227e-01   -3.552094e-01
4.874970e+09  -9.425033e-01   -3.360191e-01
4.912469e+09  -9.489036e-01   -3.165479e-01
4.949968e+09  -9.548242e-01   -2.951896e-01
4.987467e+09  -9.613837e-01   -2.741921e-01
5.024966e+09  -9.685048e-01   -2.542502e-01
5.062465e+09  -9.765219e-01   -2.353890e-01
5.099964e+09  -9.785333e-01   -2.130369e-01
5.137463e+09  -9.812144e-01   -1.894011e-01
5.174962e+09  -9.863419e-01   -1.710280e-01
5.212461e+09  -9.888477e-01   -1.451518e-01
5.249960e+09  -9.923147e-01   -1.304518e-01
5.287459e+09  -9.946870e-01   -1.029651e-01
5.324958e+09  -9.965305e-01   -8.364940e-02
5.362457e+09  -9.970734e-01   -6.370066e-02
5.399956e+09  -1.002493e+00   -3.337724e-02
5.437455e+09  -1.002012e+00   -1.573048e-02
5.474954e+09  -9.950045e-01   -2.719854e-03
5.512453e+09  -9.994554e-01   2.465767e-02
5.549952e+09  -1.006776e+00   5.264091e-02
5.587451e+09  -9.928117e-01   6.399577e-02
5.624950e+09  -9.956680e-01   8.876136e-02
5.662449e+09  -1.000843e+00   1.132410e-01
5.699948e+09  -9.878823e-01   1.317744e-01
5.737447e+09  -9.878656e-01   1.537535e-01
5.774946e+09  -9.871996e-01   1.741616e-01
5.812445e+09  -9.808867e-01   1.961209e-01
5.849944e+09  -9.761658e-01   2.178006e-01
5.887443e+09  -9.712908e-01   2.379380e-01
5.924942e+09  -9.706049e-01   2.592735e-01
5.962441e+09  -9.610251e-01   2.791334e-01
5.999940e+09  -9.566189e-01   2.986640e-01
6.037439e+09  -9.439106e-01   3.212840e-01
6.074938e+09  -9.411394e-01   3.397036e-01
6.112437e+09  -9.372978e-01   3.574771e-01
6.149936e+09  -9.186078e-01   3.886368e-01
6.187435e+09  -9.136325e-01   4.068269e-01
6.224934e+09  -9.090637e-01   4.210956e-01
6.262433e+09  -8.987116e-01   4.431295e-01
6.299932e+09  -8.898963e-01   4.580321e-01
6.337431e+09  -8.787717e-01   4.737283e-01
6.374930e+09  -8.678460e-01   4.976312e-01
6.412429e+09  -8.584142e-01   5.216759e-01
6.449928e+09  -8.453255e-01   5.360796e-01
6.487427e+09  -8.335960e-01   5.536000e-01
6.524926e+09  -8.215202e-01   5.724434e-01
6.562425e+09  -8.115467e-01   5.916483e-01
6.599924e+09  -7.963848e-01   6.070429e-01
6.637423e+09  -7.814276e-01   6.239407e-01
6.674922e+09  -7.687133e-01   6.397426e-01
6.712421e+09  -7.544886e-01   6.563910e-01
6.749920e+09  -7.408594e-01   6.728909e-01
6.787419e+09  -7.200600e-01   6.848676e-01
6.824918e+09  -7.130266e-01   7.042094e-01
6.862417e+09  -6.980819e-01   7.193846e-01
6.899916e+09  -6.741491e-01   7.337531e-01
6.937415e+09  -6.741108e-01   7.470844e-01
6.974914e+09  -6.520292e-01   7.620700e-01
7.012413e+09  -6.296553e-01   7.784258e-01
7.049912e+09  -6.163253e-01   7.899996e-01
7.087411e+09  -5.993642e-01   8.030249e-01
7.124910e+09  -5.680292e-01   8.279061e-01
7.162409e+09  -5.609184e-01   8.305345e-01
7.199908e+09  -5.372558e-01   8.505835e-01
7.237407e+09  -5.286556e-01   8.439491e-01
7.274906e+09  -5.113332e-01   8.486946e-01
7.312405e+09  -4.852918e-01   8.762871e-01
7.349904e+09  -4.664827e-01   8.866839e-01
7.387403e+09  -4.477507e-01   8.965916e-01
7.424902e+09  -4.291515e-01   9.067696e-01
7.462401e+09  -4.096054e-01   9.155920e-01
7.499900e+09  -3.894312e-01   9.208520e-01
