# Hz S RI R 50.000000
! FREQ                re:S1  1             im:S1  1    
1.000000e+05  -9.919563e-01   9.923814e-03
3.759900e+07  -9.994937e-01   2.159360e-02
7.509800e+07  -9.975994e-01   4.368525e-02
1.125970e+08  -9.941866e-01   6.622029e-02
1.500960e+08  -9.987853e-01   8.544828e-02
1.875950e+08  -9.954420e-01   1.076334e-01
2.250940e+08  -9.926288e-01   1.290098e-01
2.625930e+08  -9.924831e-01   1.475926e-01
3.000920e+08  -9.893813e-01   1.672217e-01
3.375910e+08  -9.816946e-01   1.930269e-01
3.750900e+08  -9.739759e-01   2.197317e-01
4.125890e+08  -9.712631e-01   2.370790e-01
4.500880e+08  -9.661105e-01   2.567134e-01
4.875870e+08  -9.604410e-01   2.760802e-01
5.250860e+08  -9.539327e-01   2.963708e-01
5.625850e+08  -9.482578e-01   3.247538e-01
6.000840e+08  -9.400502e-01   3.400403e-01
6.375830e+08  -9.301189e-01   3.545753e-01
6.750820e+08  -9.224711e-01   3.763832e-01
7.125810e+08  -9.187213e-01   4.042407e-01
7.500800e+08  -9.089569e-01   4.220874e-01
7.875790e+08  -8.977938e-01   4.395965e-01
8.250780e+08  -8.883899e-01   4.593285e-01
8.625770e+08  -8.789132e-01   4.786643e-01
9.000760e+08  -8.676242e-01   4.969411e-01
9.375750e+08  -8.563235e-01   5.158259e-01
9.750740e+08  -8.456141e-01   5.344635e-01
1.012573e+09  -8.346307e-01   5.527922e-01
1.050072e+09  -8.237844e-01   5.707825e-01
1.087571e+09  -8.132445e-01   5.881536e-01
1.125070e+09  -8.010051e-01   6.046077e-01
1.162569e+09  -7.792457e-01   6.235988e-01
1.200068e+09  -7.637549e-01   6.415101e-01
1.237567e+09  -7.523004e-01   6.571188e-01
1.275066e+09  -7.335058e-01   6.771852e-01
1.312565e+09  -7.286602e-01   6.842881e-01
1.350064e+09  -7.078356e-01   7.068674e-01
1.387563e+09  -6.957522e-01   7.177140e-01
1.425062e+09  -6.782540e-01   7.359221e-01
1.462561e+09  -6.664561e-01   7.368298e-01
1.500060e+09  -6.479440e-01   7.552835e-01
1.537559e+09  -6.298786e-01   7.775844e-01
1.575058e+09  -6.128444e-01   7.846240e-01
1.612557e+09  -5.961281e-01   8.034171e-01
1.650056e+09  -5.772746e-01   8.115341e-01
1.687555e+09  -5.601722e-01   8.276286e-01
1.725054e+09  -5.425432e-01   8.400340e-01
1.762553e+09  -5.238720e-01   8.512728e-01
1.800052e+09  -5.056469e-01   8.627763e-01
1.837551e+09  -4.868334e-01   8.733114e-01
1.875050e+09  -4.681673e-01   8.842981e-01
1.912549e+09  -4.496863e-01   8.945940e-01
1.950048e+09  -4.306301e-01   9.040015e-01
1.987547e+09  -4.109075e-01   9.127699e-01
2.025046e+09  -3.947567e-01   9.221664e-01
2.062545e+09  -3.711716e-01   9.291743e-01
2.100044e+09  -3.444848e-01   9.368246e-01
2.137543e+09  -3.285508e-01   9.441170e-01
2.175042e+09  -3.036428e-01   9.523494e-01
2.212541e+09  -2.926113e-01   9.554495e-01
2.250040e+09  -2.711075e-01   9.610788e-01
2.287539e+09  -2.456691e-01   9.691180e-01
2.325038e+09  -2.277593e-01   9.713676e-01
2.362537e+09  -2.115649e-01   9.701924e-01
2.400036e+09  -1.822247e-01   9.828779e-01
2.437535e+09  -1.615305e-01   9.856007e-01
2.475034e+09  -1.437109e-01   9.803340e-01
2.512533e+09  -1.160052e-01   9.978199e-01
2.550032e+09  -9.690907e-02   9.923184e-01
2.587531e+09  -7.502843e-02   9.952677e-01
2.625030e+09  -5.325652e-02   9.983007e-01
2.662529e+09  -3.124634e-02   9.987700e-01
2.700028e+09  -9.726756e-03   1.000247e+00
2.737527e+09  1.180326e-02   1.000299e+00
2.775026e+09  3.341795e-02   9.978655e-01
2.812525e+09  5.503143e-02   9.980567e-01
2.850024e+09  7.761546e-02   9.949810e-01
2.887523e+09  1.036774e-01   9.866736e-01
2.925022e+09  1.176620e-01   9.945241e-01
2.962521e+09  1.398656e-01   9.907850e-01
3.000020e+09  1.641877e-01   9.853918e-01
3.037519e+09  1.892710e-01   9.820700e-01
3.075018e+09  2.069367e-01   9.797360e-01
3.112517e+09  2.262768e-01   9.759435e-01
3.150016e+09  2.573271e-01   9.716554e-01
3.187515e+09  2.828332e-01   9.674015e-01
3.225014e+09  2.875983e-01   9.566490e-01
3.262513e+09  3.141327e-01   9.522492e-01
3.300012e+09  3.358021e-01   9.451172e-01
3.337511e+09  3.443723e-01   9.287846e-01
3.375010e+09  3.747463e-01   9.292802e-01
3.412509e+09  3.924852e-01   9.198736e-01
3.450008e+09  4.129342e-01   9.124659e-01
3.487507e+09  4.309125e-01   9.011328e-01
3.525006e+09  4.500994e-01   8.931774e-01
3.562505e+09  4.694558e-01   8.829008e-01
3.600004e+09  4.880918e-01   8.727700e-01
3.637503e+09  5.077673e-01   8.636412e-01
3.675002e+09  5.253180e-01   8.513101e-01
3.712501e+09  5.433886e-01   8.393110e-01
3.750000e+09  5.612361e-01   8.261805e-01
3.787499e+09  5.790151e-01   8.142267e-01
3.824998e+09  5.981246e-01   7.978165e-01
3.862497e+09  6.150137e-01   7.866133e-01
3.899996e+09  6.298010e-01   7.774423e-01
3.937495e+09  6.491137e-01   7.608707e-01
3.974994e+09  6.572737e-01   7.535924e-01
4.012493e+09  6.921301e-01   7.267008e-01
4.049992e+09  7.037741e-01   7.165369e-01
4.087491e+09  7.089489e-01   7.046572e-01
4.124990e+09  7.304573e-01   6.868973e-01
4.162489e+09  7.420581e-01   6.712884e-01
4.199988e+09  7.579327e-01   6.543186e-01
4.237487e+09  7.719575e-01   6.379322e-01
4.274986e+09  7.814179e-01   6.196966e-01
4.312485e+09  7.954080e-01   6.033709e-01
4.349984e+09  8.063285e-01   5.846450e-01
4.387483e+09  8.216661e-01   5.691562e-01
4.424982e+09  8.346735e-01   5.528868e-01
4.462481e+09  8.456733e-01   5.333578e-01
4.499980e+09  8.571483e-01   5.152558e-01
4.537479e+09  8.692853e-01   4.970391e-01
4.574978e+09  8.791378e-01   4.783591e-01
4.612477e+09  8.878106e-01   4.572788e-01
4.649976e+09  8.974311e-01   4.379636e-01
4.687475e+09  9.096387e-01   4.263754e-01
4.724974e+09  9.177846e-01   4.077476e-01
4.762473e+09  9.234240e-01   3.721551e-01
4.799972e+09  9.320069e-01   3.566906e-01
4.837471e+09  9.388373e-01   3.435368e-01
4.874970e+09  9.458218e-01   3.217101e-01
4.912469e+09  9.542662e-01   2.991071e-01
4.949968e+09  9.567742e-01   2.824525e-01
4.987467e+09  9.657887e-01   2.569969e-01
5.024966e+09  9.741029e-01   2.320613e-01
5.062465e+09  9.725648e-01   2.169961e-01
5.099964e+09  9.763377e-01   1.951085e-01
5.137463e+09  9.848779e-01   1.716619e-01
5.174962e+09  9.850220e-01   1.509916e-01
5.212461e+09  9.869175e-01   1.292268e-01
5.249960e+09  9.953386e-01   1.074010e-01
5.287459e+09  9.938333e-01   8.548446e-02
5.324958e+09  9.999867e-01   6.542316e-02
5.362457e+09  9.994045e-01   4.262132e-02
5.399956e+09  9.996561e-01   2.110009e-02
5.437455e+09  1.004459e+00   -1.869792e-03
5.474954e+09  1.002147e+00   -2.256125e-02
5.512453e+09  9.959316e-01   -4.504913e-02
5.549952e+09  9.971379e-01   -6.685875e-02
5.587451e+09  9.952229e-01   -8.871920e-02
5.624950e+09  9.900520e-01   -1.134038e-01
5.662449e+09  9.910724e-01   -1.304575e-01
5.699948e+09  9.889160e-01   -1.496863e-01
5.737447e+09  9.844255e-01   -1.728971e-01
5.774946e+09  9.796855e-01   -1.949851e-01
5.812445e+09  9.750243e-01   -2.127600e-01
5.849944e+09  9.703488e-01   -2.385623e-01
5.887443e+09  9.653984e-01   -2.607935e-01
5.924942e+09  9.629038e-01   -2.903362e-01
5.962441e+09  9.537417e-01   -3.013241e-01
5.999940e+09  9.440602e-01   -3.179400e-01
6.037439e+09  9.410638e-01   -3.432404e-01
6.074938e+09  9.347103e-01   -3.631950e-01
6.112437e+09  9.273706e-01   -3.827825e-01
6.149936e+09  9.179700e-01   -4.015004e-01
6.187435e+09  9.086485e-01   -4.207266e-01
6.224934e+09  8.983301e-01   -4.399782e-01
6.262433e+09  8.880763e-01   -4.596779e-01
6.299932e+09  8.796175e-01   -4.805645e-01
6.337431e+09  8.701635e-01   -5.002204e-01
6.374930e+09  8.601145e-01   -5.186130e-01
6.412429e+09  8.458826e-01   -5.365080e-01
6.449928e+09  8.369527e-01   -5.541631e-01
6.487427e+09  8.222513e-01   -5.714609e-01
6.524926e+09  8.107030e-01   -5.877228e-01
6.562425e+09  7.891634e-01   -6.092288e-01
6.599924e+09  7.820394e-01   -6.214391e-01
6.637423e+09  7.653181e-01   -6.405934e-01
6.674922e+09  7.508019e-01   -6.576409e-01
6.712421e+09  7.301657e-01   -6.834440e-01
6.749920e+09  7.192704e-01   -6.977985e-01
6.787419e+09  7.077668e-01   -7.083590e-01
6.824918e+09  6.961323e-01   -7.131259e-01
6.862417e+09  6.796260e-01   -7.345212e-01
6.899916e+09  6.639633e-01   -7.470979e-01
6.937415e+09  6.468037e-01   -7.582976e-01
6.974914e+09  6.325589e-01   -7.805351e-01
7.012413e+09  6.139323e-01   -7.896317e-01
7.049912e+09  5.960626e-01   -8.024016e-01
7.087411e+09  5.784072e-01   -8.157023e-01
7.124910e+09  5.609969e-01   -8.292615e-01
7.162409e+09  5.434450e-01   -8.405086e-01
7.199908e+09  5.259870e-01   -8.538033e-01
7.237407e+09  5.056475e-01   -8.635960e-01
7.274906e+09  4.812939e-01   -8.715542e-01
7.312405e+09  4.679235e-01   -8.848093e-01
7.349904e+09  4.521333e-01   -8.949751e-01
7.387403e+09  4.298083e-01   -9.035647e-01
7.424902e+09  3.997409e-01   -9.143237e-01
7.462401e+09  3.789696e-01   -9.238147e-01
7.499900e+09  3.666711e-01   -9.285011e-01
