# Hz S RI R 50.000000
! Metas.Vna.Tools, 2.1.6908.24816
! Metas.Vna.Data, 2.1.6908.24809
! Created: UTC 2019.06.23 00:58:44
! FREQ                re:S1,1             im:S1,1          
5.00E+07	6.51E-03	5.18E-04
5.47E+07	6.51E-03	5.18E-04
6.22E+07	7.08E-03	2.00E-04
6.96E+07	6.78E-03	-1.28E-03
7.71E+07	8.02E-03	7.89E-05
8.45E+07	6.94E-03	3.42E-04
9.20E+07	7.73E-03	-4.91E-04
9.94E+07	7.55E-03	6.33E-04
1.07E+08	7.91E-03	4.10E-04
1.14E+08	7.97E-03	1.09E-03
1.22E+08	7.26E-03	1.09E-03
1.29E+08	8.08E-03	1.10E-03
1.37E+08	8.40E-03	9.10E-04
1.44E+08	7.70E-03	8.83E-04
1.52E+08	7.74E-03	1.23E-03
1.59E+08	7.47E-03	1.24E-03
1.66E+08	7.83E-03	1.69E-03
1.74E+08	7.77E-03	1.49E-03
1.81E+08	7.40E-03	1.62E-03
1.89E+08	7.61E-03	1.68E-03
1.96E+08	7.46E-03	1.90E-03
2.04E+08	7.19E-03	2.33E-03
2.11E+08	7.21E-03	2.34E-03
2.19E+08	6.84E-03	2.45E-03
2.26E+08	6.76E-03	2.53E-03
2.34E+08	6.63E-03	2.56E-03
2.41E+08	6.45E-03	2.73E-03
2.48E+08	6.19E-03	2.11E-03
2.56E+08	6.20E-03	2.52E-03
2.63E+08	6.27E-03	2.54E-03
2.71E+08	5.76E-03	2.43E-03
2.78E+08	5.50E-03	2.89E-03
2.86E+08	5.31E-03	2.79E-03
2.93E+08	5.27E-03	2.74E-03
3.01E+08	5.19E-03	3.01E-03
3.08E+08	4.89E-03	2.55E-03
3.15E+08	4.78E-03	2.74E-03
3.23E+08	4.64E-03	2.37E-03
3.30E+08	4.50E-03	2.48E-03
3.38E+08	4.23E-03	2.58E-03
3.45E+08	3.99E-03	2.78E-03
3.53E+08	3.89E-03	2.56E-03
3.60E+08	3.65E-03	2.35E-03
3.68E+08	3.79E-03	2.41E-03
3.75E+08	3.50E-03	2.17E-03
3.83E+08	3.33E-03	2.12E-03
3.90E+08	3.05E-03	1.98E-03
3.97E+08	2.80E-03	1.95E-03
4.05E+08	2.73E-03	1.76E-03
4.12E+08	2.67E-03	1.81E-03
4.20E+08	2.43E-03	1.64E-03
4.27E+08	2.37E-03	1.81E-03
4.35E+08	2.18E-03	1.69E-03
4.42E+08	1.90E-03	1.20E-03
4.50E+08	1.77E-03	9.64E-04
4.57E+08	1.59E-03	8.82E-04
4.64E+08	1.52E-03	9.04E-04
4.72E+08	1.72E-03	5.72E-04
4.79E+08	1.37E-03	4.67E-04
4.87E+08	1.19E-03	3.02E-04
4.94E+08	1.30E-03	3.84E-04
5.02E+08	1.20E-03	-1.58E-05
5.09E+08	1.02E-03	-8.14E-05
5.17E+08	9.36E-04	-2.24E-04
5.24E+08	9.16E-04	-4.61E-04
5.32E+08	9.89E-04	-7.25E-04
5.39E+08	9.12E-04	-7.94E-04
5.46E+08	7.49E-04	-1.20E-03
5.54E+08	7.90E-04	-1.20E-03
5.61E+08	8.75E-04	-1.51E-03
5.69E+08	1.76E-04	-1.49E-03
5.76E+08	5.77E-04	-1.89E-03
5.84E+08	8.64E-04	-2.15E-03
5.91E+08	9.36E-04	-2.20E-03
5.99E+08	3.33E-04	-2.65E-03
6.06E+08	1.09E-03	-2.85E-03
6.13E+08	8.22E-04	-2.97E-03
6.21E+08	9.29E-04	-2.93E-03
6.28E+08	8.12E-04	-3.32E-03
6.36E+08	1.19E-03	-3.47E-03
6.43E+08	1.45E-03	-3.63E-03
6.51E+08	1.28E-03	-3.78E-03
6.58E+08	1.40E-03	-4.05E-03
6.66E+08	1.53E-03	-4.04E-03
6.73E+08	1.63E-03	-4.26E-03
6.81E+08	1.91E-03	-4.38E-03
6.88E+08	1.90E-03	-4.52E-03
6.95E+08	1.98E-03	-4.58E-03
7.03E+08	2.16E-03	-4.96E-03
7.10E+08	2.34E-03	-5.00E-03
7.18E+08	2.29E-03	-5.33E-03
7.25E+08	2.67E-03	-5.36E-03
7.33E+08	3.01E-03	-5.30E-03
7.40E+08	2.92E-03	-5.55E-03
7.48E+08	3.27E-03	-5.59E-03
7.55E+08	3.35E-03	-5.62E-03
7.62E+08	3.66E-03	-5.54E-03
7.70E+08	3.69E-03	-5.61E-03
7.77E+08	4.12E-03	-5.76E-03
7.85E+08	4.05E-03	-5.80E-03
7.92E+08	4.46E-03	-5.95E-03
8.00E+08	4.52E-03	-5.70E-03
8.07E+08	4.98E-03	-5.99E-03
8.15E+08	5.12E-03	-5.72E-03
8.22E+08	5.30E-03	-5.66E-03
8.30E+08	5.45E-03	-5.57E-03
8.37E+08	5.42E-03	-5.49E-03
8.44E+08	5.92E-03	-5.57E-03
8.52E+08	6.12E-03	-5.40E-03
8.59E+08	6.31E-03	-5.42E-03
8.67E+08	6.43E-03	-5.21E-03
8.74E+08	6.98E-03	-5.21E-03
8.82E+08	6.94E-03	-5.01E-03
8.89E+08	7.09E-03	-5.00E-03
8.97E+08	7.38E-03	-4.65E-03
9.04E+08	7.58E-03	-4.84E-03
9.11E+08	7.63E-03	-4.47E-03
9.19E+08	7.40E-03	-4.67E-03
9.26E+08	8.05E-03	-4.32E-03
9.34E+08	7.77E-03	-4.04E-03
9.41E+08	8.32E-03	-3.68E-03
9.49E+08	8.33E-03	-3.68E-03
9.56E+08	8.48E-03	-3.45E-03
9.64E+08	8.57E-03	-3.26E-03
9.71E+08	8.72E-03	-3.08E-03
9.79E+08	8.63E-03	-2.85E-03
9.86E+08	8.75E-03	-2.63E-03
9.93E+08	8.83E-03	-2.36E-03
1.00E+09	8.81E-03	-1.98E-03
1.01E+09	8.57E-03	-2.20E-03
1.02E+09	8.79E-03	-1.50E-03
1.02E+09	8.88E-03	-1.30E-03
1.03E+09	8.78E-03	-9.17E-04
1.04E+09	8.88E-03	-1.02E-03
1.05E+09	8.81E-03	-3.91E-04
1.05E+09	9.01E-03	-1.25E-04
1.06E+09	8.63E-03	2.13E-04
1.07E+09	8.69E-03	-1.30E-04
1.08E+09	8.57E-03	5.84E-04
1.08E+09	8.47E-03	9.46E-04
1.09E+09	8.28E-03	1.09E-03
1.10E+09	8.25E-03	8.88E-04
1.11E+09	8.18E-03	1.48E-03
1.11E+09	7.99E-03	1.99E-03
1.12E+09	7.77E-03	1.92E-03
1.13E+09	8.04E-03	2.14E-03
1.13E+09	7.29E-03	2.38E-03
1.14E+09	7.30E-03	2.66E-03
1.15E+09	6.89E-03	2.71E-03
1.16E+09	6.80E-03	3.01E-03
1.16E+09	6.53E-03	3.14E-03
1.17E+09	6.08E-03	3.36E-03
1.18E+09	6.12E-03	3.48E-03
1.19E+09	5.69E-03	3.61E-03
1.19E+09	5.50E-03	3.83E-03
1.20E+09	5.18E-03	3.91E-03
1.21E+09	4.89E-03	3.79E-03
1.22E+09	4.54E-03	3.93E-03
1.22E+09	4.15E-03	3.94E-03
1.23E+09	3.82E-03	4.00E-03
1.24E+09	3.87E-03	3.93E-03
1.25E+09	3.25E-03	4.18E-03
1.25E+09	2.92E-03	3.92E-03
1.26E+09	2.71E-03	3.95E-03
1.27E+09	2.40E-03	4.08E-03
1.28E+09	2.03E-03	3.78E-03
1.28E+09	1.76E-03	3.79E-03
1.29E+09	1.35E-03	3.81E-03
1.30E+09	1.31E-03	3.86E-03
1.31E+09	5.94E-04	3.34E-03
1.31E+09	6.13E-04	3.38E-03
1.32E+09	3.21E-04	2.84E-03
1.33E+09	6.67E-05	3.26E-03
1.34E+09	-2.55E-04	2.75E-03
1.34E+09	-4.21E-04	2.45E-03
1.35E+09	-6.65E-04	2.27E-03
1.36E+09	-1.09E-03	2.14E-03
1.37E+09	-1.17E-03	1.78E-03
1.37E+09	-1.54E-03	1.38E-03
1.38E+09	-1.78E-03	1.26E-03
1.39E+09	-1.69E-03	7.87E-04
1.40E+09	-2.17E-03	7.26E-04
1.40E+09	-2.17E-03	3.03E-04
1.41E+09	-2.49E-03	-7.36E-05
1.42E+09	-3.35E-03	1.63E-05
1.43E+09	-3.05E-03	-4.86E-04
1.43E+09	-2.71E-03	-6.87E-04
1.44E+09	-2.83E-03	-9.44E-04
1.45E+09	-4.05E-03	-9.43E-04
1.46E+09	-2.58E-03	-1.65E-03
1.46E+09	-2.84E-03	-1.95E-03
1.47E+09	-2.63E-03	-2.69E-03
1.48E+09	-2.63E-03	-2.96E-03
1.49E+09	-2.39E-03	-3.34E-03
1.49E+09	-2.15E-03	-3.72E-03
1.50E+09	-2.65E-03	-4.55E-03
