# Hz S RI R 50.000000
! Metas.Vna.Tools, 2.1.6908.24816
! Metas.Vna.Data, 2.1.6908.24809
! Created: UTC 2019.06.23 00:58:44
! FREQ                re:S1,1             im:S1,1          
5.17E+07	9.03E+01	-7.89E+00
5.47E+07	9.04E+01	-8.35E+00
5.77E+07	9.01E+01	-8.90E+00
6.07E+07	8.99E+01	-9.58E+00
6.36E+07	8.97E+01	-9.94E+00
6.66E+07	8.96E+01	-1.07E+01
6.96E+07	8.94E+01	-1.08E+01
7.26E+07	8.95E+01	-1.14E+01
7.56E+07	8.94E+01	-1.18E+01
7.85E+07	8.91E+01	-1.21E+01
8.15E+07	8.90E+01	-1.28E+01
8.45E+07	8.88E+01	-1.29E+01
8.75E+07	8.87E+01	-1.34E+01
9.05E+07	8.85E+01	-1.38E+01
9.34E+07	8.82E+01	-1.44E+01
9.64E+07	8.81E+01	-1.46E+01
9.94E+07	8.80E+01	-1.50E+01
1.02E+08	8.76E+01	-1.54E+01
1.05E+08	8.73E+01	-1.57E+01
1.08E+08	8.71E+01	-1.63E+01
1.11E+08	8.68E+01	-1.68E+01
1.14E+08	8.66E+01	-1.72E+01
1.17E+08	8.63E+01	-1.74E+01
1.20E+08	8.61E+01	-1.78E+01
1.23E+08	8.58E+01	-1.82E+01
1.26E+08	8.55E+01	-1.86E+01
1.29E+08	8.51E+01	-1.88E+01
1.32E+08	8.49E+01	-1.92E+01
1.35E+08	8.47E+01	-1.95E+01
1.38E+08	8.44E+01	-2.00E+01
1.41E+08	8.40E+01	-2.01E+01
1.44E+08	8.38E+01	-2.05E+01
1.47E+08	8.35E+01	-2.08E+01
1.50E+08	8.31E+01	-2.12E+01
1.53E+08	8.29E+01	-2.14E+01
1.56E+08	8.26E+01	-2.18E+01
1.59E+08	8.22E+01	-2.19E+01
1.62E+08	8.20E+01	-2.24E+01
1.65E+08	8.17E+01	-2.26E+01
1.68E+08	8.13E+01	-2.28E+01
1.71E+08	8.10E+01	-2.31E+01
1.74E+08	8.07E+01	-2.35E+01
1.77E+08	8.04E+01	-2.36E+01
1.80E+08	8.01E+01	-2.40E+01
1.83E+08	7.97E+01	-2.43E+01
1.86E+08	7.94E+01	-2.44E+01
1.89E+08	7.91E+01	-2.47E+01
1.92E+08	7.87E+01	-2.50E+01
1.95E+08	7.85E+01	-2.51E+01
1.98E+08	7.81E+01	-2.54E+01
2.01E+08	7.77E+01	-2.56E+01
2.04E+08	7.74E+01	-2.58E+01
2.07E+08	7.70E+01	-2.61E+01
2.10E+08	7.67E+01	-2.63E+01
2.13E+08	7.64E+01	-2.64E+01
2.16E+08	7.60E+01	-2.66E+01
2.19E+08	7.57E+01	-2.67E+01
2.22E+08	7.53E+01	-2.70E+01
2.25E+08	7.50E+01	-2.71E+01
2.28E+08	7.47E+01	-2.74E+01
2.31E+08	7.43E+01	-2.75E+01
2.34E+08	7.40E+01	-2.77E+01
2.36E+08	7.36E+01	-2.78E+01
2.39E+08	7.33E+01	-2.80E+01
2.42E+08	7.30E+01	-2.81E+01
2.45E+08	7.26E+01	-2.83E+01
2.48E+08	7.22E+01	-2.85E+01
2.51E+08	7.19E+01	-2.85E+01
2.54E+08	7.15E+01	-2.87E+01
2.57E+08	7.13E+01	-2.89E+01
2.60E+08	7.09E+01	-2.90E+01
2.63E+08	7.05E+01	-2.90E+01
2.66E+08	7.02E+01	-2.92E+01
2.69E+08	6.99E+01	-2.92E+01
2.72E+08	6.94E+01	-2.94E+01
2.75E+08	6.91E+01	-2.95E+01
2.78E+08	6.88E+01	-2.96E+01
2.81E+08	6.85E+01	-2.96E+01
2.84E+08	6.81E+01	-2.97E+01
2.87E+08	6.78E+01	-2.98E+01
2.90E+08	6.74E+01	-2.99E+01
2.93E+08	6.71E+01	-3.00E+01
2.96E+08	6.67E+01	-3.01E+01
2.99E+08	6.64E+01	-3.01E+01
3.02E+08	6.60E+01	-3.03E+01
3.05E+08	6.57E+01	-3.02E+01
3.08E+08	6.54E+01	-3.03E+01
3.11E+08	6.50E+01	-3.03E+01
3.14E+08	6.47E+01	-3.04E+01
3.17E+08	6.44E+01	-3.04E+01
3.20E+08	6.41E+01	-3.05E+01
3.23E+08	6.37E+01	-3.05E+01
3.26E+08	6.34E+01	-3.05E+01
3.29E+08	6.30E+01	-3.06E+01
3.32E+08	6.27E+01	-3.06E+01
3.35E+08	6.24E+01	-3.06E+01
3.38E+08	6.20E+01	-3.06E+01
3.41E+08	6.17E+01	-3.07E+01
3.44E+08	6.14E+01	-3.06E+01
3.47E+08	6.11E+01	-3.07E+01
3.50E+08	6.08E+01	-3.07E+01
3.53E+08	6.05E+01	-3.07E+01
3.56E+08	6.02E+01	-3.07E+01
3.59E+08	5.99E+01	-3.07E+01
3.62E+08	5.95E+01	-3.07E+01
3.65E+08	5.92E+01	-3.07E+01
3.68E+08	5.89E+01	-3.07E+01
3.71E+08	5.86E+01	-3.07E+01
3.74E+08	5.83E+01	-3.06E+01
3.77E+08	5.80E+01	-3.06E+01
3.80E+08	5.77E+01	-3.06E+01
3.83E+08	5.74E+01	-3.06E+01
3.85E+08	5.71E+01	-3.05E+01
3.88E+08	5.68E+01	-3.05E+01
3.91E+08	5.66E+01	-3.04E+01
3.94E+08	5.62E+01	-3.04E+01
3.97E+08	5.59E+01	-3.04E+01
4.00E+08	5.57E+01	-3.03E+01
4.03E+08	5.54E+01	-3.03E+01
4.06E+08	5.51E+01	-3.03E+01
4.09E+08	5.48E+01	-3.02E+01
4.12E+08	5.45E+01	-3.02E+01
4.15E+08	5.42E+01	-3.01E+01
4.18E+08	5.40E+01	-3.00E+01
4.21E+08	5.37E+01	-3.00E+01
4.24E+08	5.34E+01	-3.00E+01
4.27E+08	5.31E+01	-2.99E+01
4.30E+08	5.29E+01	-2.98E+01
4.33E+08	5.26E+01	-2.97E+01
4.36E+08	5.23E+01	-2.97E+01
4.39E+08	5.21E+01	-2.96E+01
4.42E+08	5.19E+01	-2.95E+01
4.45E+08	5.16E+01	-2.95E+01
4.48E+08	5.13E+01	-2.94E+01
4.51E+08	5.11E+01	-2.94E+01
4.54E+08	5.08E+01	-2.93E+01
4.57E+08	5.05E+01	-2.92E+01
4.60E+08	5.03E+01	-2.91E+01
4.63E+08	5.00E+01	-2.90E+01
4.66E+08	4.98E+01	-2.90E+01
4.69E+08	4.95E+01	-2.89E+01
4.72E+08	4.93E+01	-2.88E+01
4.75E+08	4.91E+01	-2.87E+01
4.78E+08	4.88E+01	-2.86E+01
4.81E+08	4.86E+01	-2.86E+01
4.84E+08	4.83E+01	-2.85E+01
4.87E+08	4.81E+01	-2.84E+01
4.90E+08	4.79E+01	-2.83E+01
4.93E+08	4.76E+01	-2.82E+01
4.96E+08	4.74E+01	-2.81E+01
4.99E+08	4.71E+01	-2.80E+01
5.02E+08	4.69E+01	-2.79E+01
5.05E+08	4.67E+01	-2.78E+01
5.08E+08	4.65E+01	-2.77E+01
5.11E+08	4.63E+01	-2.76E+01
5.14E+08	4.60E+01	-2.75E+01
5.17E+08	4.58E+01	-2.74E+01
5.20E+08	4.56E+01	-2.73E+01
5.23E+08	4.54E+01	-2.72E+01
5.26E+08	4.52E+01	-2.71E+01
5.29E+08	4.50E+01	-2.70E+01
5.32E+08	4.48E+01	-2.68E+01
5.34E+08	4.45E+01	-2.68E+01
5.37E+08	4.43E+01	-2.67E+01
5.40E+08	4.41E+01	-2.65E+01
5.43E+08	4.39E+01	-2.64E+01
5.46E+08	4.38E+01	-2.63E+01
5.49E+08	4.36E+01	-2.62E+01
5.52E+08	4.34E+01	-2.61E+01
5.55E+08	4.32E+01	-2.60E+01
5.58E+08	4.30E+01	-2.59E+01
5.61E+08	4.28E+01	-2.58E+01
5.64E+08	4.26E+01	-2.56E+01
5.67E+08	4.24E+01	-2.55E+01
5.70E+08	4.23E+01	-2.54E+01
5.73E+08	4.21E+01	-2.53E+01
5.76E+08	4.19E+01	-2.52E+01
5.79E+08	4.17E+01	-2.51E+01
5.82E+08	4.15E+01	-2.49E+01
5.85E+08	4.13E+01	-2.48E+01
5.88E+08	4.12E+01	-2.47E+01
5.91E+08	4.10E+01	-2.46E+01
5.94E+08	4.08E+01	-2.45E+01
5.97E+08	4.07E+01	-2.43E+01
6.00E+08	4.05E+01	-2.42E+01
6.03E+08	4.03E+01	-2.41E+01
6.06E+08	4.02E+01	-2.40E+01
6.09E+08	4.00E+01	-2.38E+01
6.12E+08	3.98E+01	-2.37E+01
6.15E+08	3.97E+01	-2.36E+01
6.18E+08	3.96E+01	-2.35E+01
6.21E+08	3.94E+01	-2.34E+01
6.24E+08	3.92E+01	-2.32E+01
6.27E+08	3.91E+01	-2.31E+01
6.30E+08	3.89E+01	-2.30E+01
6.33E+08	3.88E+01	-2.28E+01
6.36E+08	3.87E+01	-2.27E+01
6.39E+08	3.85E+01	-2.26E+01
6.42E+08	3.84E+01	-2.24E+01
6.45E+08	3.82E+01	-2.24E+01
6.48E+08	3.81E+01	-2.22E+01
6.51E+08	3.79E+01	-2.21E+01
6.54E+08	3.78E+01	-2.20E+01
6.57E+08	3.77E+01	-2.18E+01
6.60E+08	3.75E+01	-2.17E+01
6.63E+08	3.74E+01	-2.16E+01
6.66E+08	3.72E+01	-2.14E+01
6.69E+08	3.71E+01	-2.13E+01
6.72E+08	3.70E+01	-2.12E+01
6.75E+08	3.69E+01	-2.10E+01
6.78E+08	3.67E+01	-2.09E+01
6.81E+08	3.66E+01	-2.08E+01
6.83E+08	3.65E+01	-2.07E+01
6.86E+08	3.64E+01	-2.05E+01
6.89E+08	3.62E+01	-2.04E+01
6.92E+08	3.61E+01	-2.02E+01
6.95E+08	3.60E+01	-2.01E+01
6.98E+08	3.59E+01	-2.00E+01
7.01E+08	3.58E+01	-1.99E+01
7.04E+08	3.57E+01	-1.97E+01
7.07E+08	3.56E+01	-1.96E+01
7.10E+08	3.55E+01	-1.94E+01
7.13E+08	3.54E+01	-1.93E+01
7.16E+08	3.52E+01	-1.92E+01
7.19E+08	3.51E+01	-1.90E+01
7.22E+08	3.50E+01	-1.89E+01
7.25E+08	3.49E+01	-1.88E+01
7.28E+08	3.48E+01	-1.86E+01
7.31E+08	3.47E+01	-1.85E+01
7.34E+08	3.46E+01	-1.84E+01
7.37E+08	3.45E+01	-1.82E+01
7.40E+08	3.44E+01	-1.81E+01
7.43E+08	3.43E+01	-1.79E+01
7.46E+08	3.43E+01	-1.78E+01
7.49E+08	3.41E+01	-1.77E+01
7.52E+08	3.41E+01	-1.75E+01
7.55E+08	3.40E+01	-1.74E+01
7.58E+08	3.39E+01	-1.73E+01
7.61E+08	3.38E+01	-1.71E+01
7.64E+08	3.37E+01	-1.70E+01
7.67E+08	3.36E+01	-1.69E+01
7.70E+08	3.35E+01	-1.67E+01
7.73E+08	3.35E+01	-1.66E+01
7.76E+08	3.34E+01	-1.64E+01
7.79E+08	3.33E+01	-1.63E+01
7.82E+08	3.32E+01	-1.62E+01
7.85E+08	3.31E+01	-1.60E+01
7.88E+08	3.30E+01	-1.59E+01
7.91E+08	3.30E+01	-1.58E+01
7.94E+08	3.29E+01	-1.56E+01
7.97E+08	3.28E+01	-1.55E+01
8.00E+08	3.28E+01	-1.53E+01
8.03E+08	3.27E+01	-1.52E+01
8.06E+08	3.26E+01	-1.51E+01
8.09E+08	3.25E+01	-1.49E+01
8.12E+08	3.25E+01	-1.48E+01
8.15E+08	3.24E+01	-1.46E+01
8.18E+08	3.23E+01	-1.45E+01
8.21E+08	3.23E+01	-1.44E+01
8.24E+08	3.22E+01	-1.42E+01
8.27E+08	3.21E+01	-1.41E+01
8.30E+08	3.21E+01	-1.40E+01
8.32E+08	3.20E+01	-1.38E+01
8.35E+08	3.20E+01	-1.37E+01
8.38E+08	3.19E+01	-1.35E+01
8.41E+08	3.18E+01	-1.34E+01
8.44E+08	3.18E+01	-1.33E+01
8.47E+08	3.17E+01	-1.31E+01
8.50E+08	3.17E+01	-1.30E+01
8.53E+08	3.16E+01	-1.28E+01
8.56E+08	3.16E+01	-1.27E+01
8.59E+08	3.15E+01	-1.26E+01
8.62E+08	3.15E+01	-1.24E+01
8.65E+08	3.14E+01	-1.23E+01
8.68E+08	3.14E+01	-1.22E+01
8.71E+08	3.13E+01	-1.20E+01
8.74E+08	3.13E+01	-1.19E+01
8.77E+08	3.12E+01	-1.17E+01
8.80E+08	3.12E+01	-1.16E+01
8.83E+08	3.11E+01	-1.15E+01
8.86E+08	3.11E+01	-1.13E+01
8.89E+08	3.10E+01	-1.12E+01
8.92E+08	3.10E+01	-1.10E+01
8.95E+08	3.10E+01	-1.09E+01
8.98E+08	3.09E+01	-1.07E+01
9.01E+08	3.09E+01	-1.06E+01
9.04E+08	3.08E+01	-1.05E+01
9.07E+08	3.08E+01	-1.03E+01
9.10E+08	3.08E+01	-1.02E+01
9.13E+08	3.07E+01	-1.00E+01
9.16E+08	3.07E+01	-9.92E+00
9.19E+08	3.06E+01	-9.77E+00
9.22E+08	3.06E+01	-9.62E+00
9.25E+08	3.06E+01	-9.48E+00
9.28E+08	3.06E+01	-9.34E+00
9.31E+08	3.05E+01	-9.21E+00
9.34E+08	3.05E+01	-9.07E+00
9.37E+08	3.05E+01	-8.91E+00
9.40E+08	3.04E+01	-8.78E+00
9.43E+08	3.04E+01	-8.63E+00
9.46E+08	3.04E+01	-8.51E+00
9.49E+08	3.04E+01	-8.34E+00
9.52E+08	3.03E+01	-8.21E+00
9.55E+08	3.03E+01	-8.05E+00
9.58E+08	3.03E+01	-7.92E+00
9.61E+08	3.03E+01	-7.78E+00
9.64E+08	3.03E+01	-7.65E+00
9.67E+08	3.02E+01	-7.49E+00
9.70E+08	3.02E+01	-7.34E+00
9.73E+08	3.02E+01	-7.20E+00
9.76E+08	3.02E+01	-7.06E+00
9.79E+08	3.01E+01	-6.91E+00
9.81E+08	3.01E+01	-6.79E+00
9.84E+08	3.01E+01	-6.62E+00
9.87E+08	3.01E+01	-6.49E+00
9.90E+08	3.01E+01	-6.33E+00
9.93E+08	3.01E+01	-6.21E+00
9.96E+08	3.01E+01	-6.05E+00
9.99E+08	3.00E+01	-5.90E+00
1.00E+09	3.00E+01	-5.77E+00
1.01E+09	3.00E+01	-5.63E+00
1.01E+09	3.00E+01	-5.48E+00
1.01E+09	3.00E+01	-5.33E+00
1.01E+09	3.00E+01	-5.20E+00
1.02E+09	3.00E+01	-5.03E+00
1.02E+09	3.00E+01	-4.91E+00
1.02E+09	3.00E+01	-4.76E+00
1.03E+09	3.00E+01	-4.60E+00
1.03E+09	2.99E+01	-4.47E+00
1.03E+09	2.99E+01	-4.31E+00
1.04E+09	2.99E+01	-4.17E+00
1.04E+09	2.99E+01	-4.04E+00
1.04E+09	2.99E+01	-3.89E+00
1.04E+09	2.99E+01	-3.74E+00
1.05E+09	2.99E+01	-3.58E+00
1.05E+09	2.99E+01	-3.46E+00
1.05E+09	2.99E+01	-3.30E+00
1.06E+09	2.99E+01	-3.14E+00
1.06E+09	2.99E+01	-3.01E+00
1.06E+09	2.99E+01	-2.85E+00
1.06E+09	2.99E+01	-2.70E+00
1.07E+09	2.99E+01	-2.59E+00
1.07E+09	2.99E+01	-2.41E+00
1.07E+09	2.99E+01	-2.27E+00
1.08E+09	2.99E+01	-2.12E+00
1.08E+09	2.99E+01	-1.99E+00
1.08E+09	2.99E+01	-1.83E+00
1.09E+09	2.99E+01	-1.67E+00
1.09E+09	2.99E+01	-1.53E+00
1.09E+09	2.99E+01	-1.38E+00
1.09E+09	2.99E+01	-1.25E+00
1.10E+09	2.99E+01	-1.10E+00
1.10E+09	2.99E+01	-9.50E-01
1.10E+09	2.99E+01	-7.98E-01
1.11E+09	2.99E+01	-6.49E-01
1.11E+09	2.99E+01	-5.08E-01
1.11E+09	2.99E+01	-3.40E-01
1.12E+09	2.99E+01	-2.15E-01
1.12E+09	3.00E+01	-5.87E-02
1.12E+09	2.99E+01	8.98E-02
1.12E+09	3.00E+01	2.47E-01
1.13E+09	3.00E+01	3.55E-01
1.13E+09	3.00E+01	5.22E-01
1.13E+09	3.00E+01	6.69E-01
1.14E+09	3.00E+01	8.15E-01
1.14E+09	3.00E+01	9.77E-01
1.14E+09	3.00E+01	1.12E+00
1.15E+09	3.00E+01	1.28E+00
1.15E+09	3.01E+01	1.41E+00
1.15E+09	3.01E+01	1.57E+00
1.15E+09	3.01E+01	1.72E+00
1.16E+09	3.01E+01	1.87E+00
1.16E+09	3.01E+01	2.03E+00
1.16E+09	3.01E+01	2.14E+00
1.17E+09	3.02E+01	2.29E+00
1.17E+09	3.02E+01	2.42E+00
1.17E+09	3.02E+01	2.59E+00
1.18E+09	3.02E+01	2.73E+00
1.18E+09	3.02E+01	2.89E+00
1.18E+09	3.02E+01	3.01E+00
1.18E+09	3.03E+01	3.16E+00
1.19E+09	3.03E+01	3.33E+00
1.19E+09	3.03E+01	3.44E+00
1.19E+09	3.03E+01	3.60E+00
1.20E+09	3.03E+01	3.75E+00
1.20E+09	3.03E+01	3.91E+00
1.20E+09	3.04E+01	4.04E+00
1.20E+09	3.04E+01	4.20E+00
1.21E+09	3.04E+01	4.33E+00
1.21E+09	3.04E+01	4.48E+00
1.21E+09	3.05E+01	4.63E+00
1.22E+09	3.05E+01	4.77E+00
1.22E+09	3.05E+01	4.90E+00
1.22E+09	3.05E+01	5.05E+00
1.23E+09	3.06E+01	5.20E+00
1.23E+09	3.06E+01	5.33E+00
1.23E+09	3.06E+01	5.49E+00
1.23E+09	3.07E+01	5.62E+00
1.24E+09	3.07E+01	5.77E+00
1.24E+09	3.07E+01	5.90E+00
1.24E+09	3.07E+01	6.03E+00
1.25E+09	3.08E+01	6.19E+00
1.25E+09	3.08E+01	6.31E+00
1.25E+09	3.09E+01	6.46E+00
1.26E+09	3.09E+01	6.59E+00
1.26E+09	3.09E+01	6.73E+00
1.26E+09	3.09E+01	6.88E+00
1.26E+09	3.10E+01	7.03E+00
1.27E+09	3.10E+01	7.18E+00
1.27E+09	3.10E+01	7.30E+00
1.27E+09	3.11E+01	7.45E+00
1.28E+09	3.11E+01	7.59E+00
1.28E+09	3.12E+01	7.74E+00
1.28E+09	3.12E+01	7.86E+00
1.29E+09	3.12E+01	7.97E+00
1.29E+09	3.13E+01	8.16E+00
1.29E+09	3.14E+01	8.26E+00
1.29E+09	3.14E+01	8.34E+00
1.30E+09	3.14E+01	8.55E+00
1.30E+09	3.15E+01	8.66E+00
1.30E+09	3.15E+01	8.80E+00
1.31E+09	3.16E+01	8.95E+00
1.31E+09	3.16E+01	9.08E+00
1.31E+09	3.17E+01	9.20E+00
1.32E+09	3.17E+01	9.34E+00
1.32E+09	3.18E+01	9.47E+00
1.32E+09	3.18E+01	9.59E+00
1.32E+09	3.19E+01	9.72E+00
1.33E+09	3.19E+01	9.89E+00
1.33E+09	3.20E+01	1.00E+01
1.33E+09	3.20E+01	1.01E+01
1.34E+09	3.21E+01	1.03E+01
1.34E+09	3.21E+01	1.04E+01
1.34E+09	3.22E+01	1.05E+01
1.35E+09	3.22E+01	1.07E+01
1.35E+09	3.23E+01	1.08E+01
1.35E+09	3.23E+01	1.09E+01
1.35E+09	3.24E+01	1.10E+01
1.36E+09	3.25E+01	1.11E+01
1.36E+09	3.25E+01	1.13E+01
1.36E+09	3.26E+01	1.14E+01
1.37E+09	3.27E+01	1.16E+01
1.37E+09	3.27E+01	1.17E+01
1.37E+09	3.28E+01	1.18E+01
1.37E+09	3.28E+01	1.20E+01
1.38E+09	3.29E+01	1.21E+01
1.38E+09	3.29E+01	1.22E+01
1.38E+09	3.30E+01	1.23E+01
1.39E+09	3.31E+01	1.24E+01
1.39E+09	3.32E+01	1.26E+01
1.39E+09	3.32E+01	1.27E+01
1.40E+09	3.33E+01	1.28E+01
1.40E+09	3.34E+01	1.29E+01
1.40E+09	3.34E+01	1.31E+01
1.40E+09	3.35E+01	1.32E+01
1.41E+09	3.36E+01	1.33E+01
1.41E+09	3.37E+01	1.34E+01
1.41E+09	3.37E+01	1.36E+01
1.42E+09	3.38E+01	1.37E+01
1.42E+09	3.39E+01	1.38E+01
1.42E+09	3.40E+01	1.39E+01
1.43E+09	3.41E+01	1.40E+01
1.43E+09	3.41E+01	1.41E+01
1.43E+09	3.42E+01	1.42E+01
1.43E+09	3.43E+01	1.43E+01
1.44E+09	3.44E+01	1.45E+01
1.44E+09	3.45E+01	1.46E+01
1.44E+09	3.46E+01	1.47E+01
1.45E+09	3.47E+01	1.48E+01
1.45E+09	3.48E+01	1.49E+01
1.45E+09	3.49E+01	1.50E+01
1.46E+09	3.49E+01	1.51E+01
1.46E+09	3.50E+01	1.53E+01
1.46E+09	3.51E+01	1.54E+01
1.46E+09	3.52E+01	1.55E+01
1.47E+09	3.53E+01	1.56E+01
1.47E+09	3.54E+01	1.57E+01
1.47E+09	3.55E+01	1.58E+01
1.48E+09	3.56E+01	1.60E+01
1.48E+09	3.58E+01	1.60E+01
1.48E+09	3.58E+01	1.62E+01
1.49E+09	3.59E+01	1.63E+01
1.49E+09	3.60E+01	1.64E+01
1.49E+09	3.61E+01	1.65E+01
1.49E+09	3.62E+01	1.66E+01
1.50E+09	3.63E+01	1.67E+01
1.50E+09	3.65E+01	1.68E+01
