# Hz S RI R 50.000000
! Metas.Vna.Tools, 2.1.6908.24816
! Metas.Vna.Data, 2.1.6908.24809
! Created: UTC 2019.06.23 00:58:44
! FREQ                re:S1,1             im:S1,1          
5.17E+07	5.08E+01	8.63E-02
5.47E+07	5.07E+01	3.54E-02
5.77E+07	5.07E+01	1.84E-02
6.07E+07	5.06E+01	-8.94E-02
6.36E+07	5.06E+01	-6.40E-02
6.66E+07	5.07E+01	-1.74E-01
6.96E+07	5.07E+01	-5.57E-02
7.26E+07	5.07E+01	-9.03E-02
7.56E+07	5.07E+01	-8.79E-02
7.85E+07	5.07E+01	5.30E-03
8.15E+07	5.07E+01	-1.51E-01
8.45E+07	5.07E+01	4.38E-02
8.75E+07	5.07E+01	-4.16E-02
9.05E+07	5.08E+01	-6.52E-02
9.34E+07	5.08E+01	-5.32E-02
9.64E+07	5.07E+01	1.56E-02
9.94E+07	5.08E+01	-7.45E-02
1.02E+08	5.08E+01	-3.44E-02
1.05E+08	5.07E+01	-4.91E-02
1.08E+08	5.08E+01	-6.01E-02
1.11E+08	5.07E+01	-1.60E-01
1.14E+08	5.08E+01	-1.04E-01
1.17E+08	5.08E+01	4.38E-03
1.20E+08	5.07E+01	-3.64E-02
1.23E+08	5.08E+01	-4.58E-02
1.26E+08	5.08E+01	-2.36E-02
1.29E+08	5.08E+01	-1.37E-04
1.32E+08	5.08E+01	3.26E-02
1.35E+08	5.08E+01	2.13E-02
1.38E+08	5.09E+01	-3.85E-02
1.41E+08	5.07E+01	6.17E-02
1.44E+08	5.08E+01	-1.21E-02
1.47E+08	5.08E+01	9.13E-02
1.50E+08	5.07E+01	-5.43E-02
1.53E+08	5.07E+01	1.36E-02
1.56E+08	5.08E+01	-6.68E-03
1.59E+08	5.07E+01	3.80E-02
1.62E+08	5.08E+01	4.26E-02
1.65E+08	5.08E+01	8.11E-02
1.68E+08	5.07E+01	6.82E-02
1.71E+08	5.07E+01	3.40E-02
1.74E+08	5.08E+01	3.33E-02
1.77E+08	5.07E+01	5.52E-02
1.80E+08	5.07E+01	6.32E-02
1.83E+08	5.08E+01	3.92E-02
1.86E+08	5.07E+01	7.89E-02
1.89E+08	5.07E+01	2.64E-02
1.92E+08	5.07E+01	3.54E-02
1.95E+08	5.07E+01	1.00E-01
1.98E+08	5.07E+01	5.68E-02
2.01E+08	5.07E+01	5.49E-02
2.04E+08	5.07E+01	6.15E-02
2.07E+08	5.07E+01	1.05E-01
2.10E+08	5.07E+01	4.97E-02
2.13E+08	5.07E+01	1.19E-01
2.16E+08	5.07E+01	1.21E-01
2.19E+08	5.07E+01	1.05E-01
2.22E+08	5.07E+01	7.60E-02
2.25E+08	5.07E+01	9.44E-02
2.28E+08	5.07E+01	7.45E-02
2.31E+08	5.07E+01	9.54E-02
2.34E+08	5.07E+01	1.07E-01
2.36E+08	5.06E+01	1.23E-01
2.39E+08	5.07E+01	1.11E-01
2.42E+08	5.07E+01	1.20E-01
2.45E+08	5.07E+01	1.34E-01
2.48E+08	5.07E+01	8.27E-02
2.51E+08	5.07E+01	1.22E-01
2.54E+08	5.06E+01	9.72E-02
2.57E+08	5.07E+01	8.97E-02
2.60E+08	5.07E+01	1.02E-01
2.63E+08	5.06E+01	1.34E-01
2.66E+08	5.06E+01	9.22E-02
2.69E+08	5.07E+01	1.12E-01
2.72E+08	5.06E+01	7.50E-02
2.75E+08	5.06E+01	1.27E-01
2.78E+08	5.06E+01	1.35E-01
2.81E+08	5.06E+01	1.44E-01
2.84E+08	5.06E+01	1.36E-01
2.87E+08	5.06E+01	1.28E-01
2.90E+08	5.06E+01	1.37E-01
2.93E+08	5.06E+01	1.27E-01
2.96E+08	5.06E+01	9.76E-02
2.99E+08	5.06E+01	1.61E-01
3.02E+08	5.06E+01	1.03E-01
3.05E+08	5.06E+01	1.49E-01
3.08E+08	5.06E+01	1.33E-01
3.11E+08	5.06E+01	1.35E-01
3.14E+08	5.05E+01	1.41E-01
3.17E+08	5.05E+01	1.47E-01
3.20E+08	5.05E+01	1.53E-01
3.23E+08	5.05E+01	1.56E-01
3.26E+08	5.05E+01	1.74E-01
3.29E+08	5.05E+01	1.17E-01
3.32E+08	5.05E+01	1.20E-01
3.35E+08	5.05E+01	1.48E-01
3.38E+08	5.05E+01	1.49E-01
3.41E+08	5.05E+01	1.45E-01
3.44E+08	5.05E+01	1.53E-01
3.47E+08	5.05E+01	1.57E-01
3.50E+08	5.05E+01	1.58E-01
3.53E+08	5.05E+01	1.33E-01
3.56E+08	5.05E+01	1.35E-01
3.59E+08	5.05E+01	1.49E-01
3.62E+08	5.04E+01	1.23E-01
3.65E+08	5.04E+01	1.38E-01
3.68E+08	5.05E+01	1.30E-01
3.71E+08	5.04E+01	1.29E-01
3.74E+08	5.04E+01	1.49E-01
3.77E+08	5.04E+01	1.36E-01
3.80E+08	5.04E+01	1.28E-01
3.83E+08	5.04E+01	1.50E-01
3.85E+08	5.04E+01	1.31E-01
3.88E+08	5.04E+01	1.38E-01
3.91E+08	5.04E+01	1.48E-01
3.94E+08	5.04E+01	1.45E-01
3.97E+08	5.04E+01	1.11E-01
4.00E+08	5.04E+01	1.30E-01
4.03E+08	5.04E+01	1.56E-01
4.06E+08	5.04E+01	1.30E-01
4.09E+08	5.03E+01	1.35E-01
4.12E+08	5.03E+01	1.13E-01
4.15E+08	5.03E+01	9.98E-02
4.18E+08	5.03E+01	1.33E-01
4.21E+08	5.03E+01	1.52E-01
4.24E+08	5.03E+01	1.27E-01
4.27E+08	5.03E+01	1.23E-01
4.30E+08	5.03E+01	1.10E-01
4.33E+08	5.03E+01	1.37E-01
4.36E+08	5.03E+01	8.37E-02
4.39E+08	5.03E+01	9.64E-02
4.42E+08	5.03E+01	1.08E-01
4.45E+08	5.03E+01	1.02E-01
4.48E+08	5.03E+01	1.13E-01
4.51E+08	5.03E+01	7.85E-02
4.54E+08	5.03E+01	1.01E-01
4.57E+08	5.02E+01	7.93E-02
4.60E+08	5.03E+01	9.03E-02
4.63E+08	5.02E+01	8.83E-02
4.66E+08	5.02E+01	7.10E-02
4.69E+08	5.02E+01	7.36E-02
4.72E+08	5.02E+01	7.41E-02
4.75E+08	5.02E+01	8.10E-02
4.78E+08	5.02E+01	7.05E-02
4.81E+08	5.02E+01	7.39E-02
4.84E+08	5.02E+01	6.91E-02
4.87E+08	5.02E+01	5.38E-02
4.90E+08	5.02E+01	3.31E-02
4.93E+08	5.02E+01	2.69E-02
4.96E+08	5.02E+01	4.44E-02
4.99E+08	5.02E+01	2.83E-02
5.02E+08	5.01E+01	-1.25E-03
5.05E+08	5.01E+01	3.02E-02
5.08E+08	5.02E+01	2.36E-02
5.11E+08	5.02E+01	2.47E-02
5.14E+08	5.01E+01	1.31E-02
5.17E+08	5.01E+01	-3.89E-03
5.20E+08	5.01E+01	-1.33E-02
5.23E+08	5.01E+01	-7.71E-03
5.26E+08	5.01E+01	7.13E-03
5.29E+08	5.01E+01	4.89E-03
5.32E+08	5.01E+01	-5.66E-03
5.34E+08	5.01E+01	-1.83E-02
5.37E+08	5.01E+01	-4.17E-02
5.40E+08	5.01E+01	-2.97E-02
5.43E+08	5.01E+01	-3.06E-02
5.46E+08	5.01E+01	-3.39E-02
5.49E+08	5.01E+01	-4.63E-02
5.52E+08	5.01E+01	-5.20E-02
5.55E+08	5.01E+01	-4.57E-02
5.58E+08	5.00E+01	-5.79E-02
5.61E+08	5.01E+01	-7.73E-02
5.64E+08	5.00E+01	-7.38E-02
5.67E+08	5.00E+01	-9.37E-02
5.70E+08	5.00E+01	-8.17E-02
5.73E+08	5.01E+01	-9.94E-02
5.76E+08	5.00E+01	-1.36E-01
5.79E+08	5.00E+01	-1.17E-01
5.82E+08	5.00E+01	-1.09E-01
5.85E+08	5.00E+01	-1.17E-01
5.88E+08	5.00E+01	-1.26E-01
5.91E+08	5.00E+01	-1.25E-01
5.94E+08	5.00E+01	-1.60E-01
5.97E+08	5.00E+01	-1.39E-01
6.00E+08	5.00E+01	-1.68E-01
6.03E+08	5.00E+01	-1.79E-01
6.06E+08	5.00E+01	-1.72E-01
6.09E+08	5.00E+01	-1.70E-01
6.12E+08	5.00E+01	-1.87E-01
6.15E+08	5.00E+01	-2.10E-01
6.18E+08	5.00E+01	-2.04E-01
6.21E+08	5.00E+01	-2.15E-01
6.24E+08	5.00E+01	-2.08E-01
6.27E+08	5.00E+01	-2.27E-01
6.30E+08	5.00E+01	-2.20E-01
6.33E+08	5.00E+01	-2.39E-01
6.36E+08	5.00E+01	-2.51E-01
6.39E+08	5.00E+01	-2.37E-01
6.42E+08	5.00E+01	-2.53E-01
6.45E+08	5.00E+01	-2.71E-01
6.48E+08	5.00E+01	-2.73E-01
6.51E+08	5.00E+01	-2.99E-01
6.54E+08	5.00E+01	-2.83E-01
6.57E+08	5.00E+01	-2.92E-01
6.60E+08	5.00E+01	-3.04E-01
6.63E+08	5.00E+01	-3.14E-01
6.66E+08	4.99E+01	-3.44E-01
6.69E+08	5.00E+01	-3.20E-01
6.72E+08	5.00E+01	-3.36E-01
6.75E+08	5.00E+01	-3.33E-01
6.78E+08	4.99E+01	-3.40E-01
6.81E+08	4.99E+01	-3.72E-01
6.83E+08	5.00E+01	-3.80E-01
6.86E+08	5.00E+01	-3.78E-01
6.89E+08	5.00E+01	-3.87E-01
6.92E+08	5.00E+01	-3.98E-01
6.95E+08	4.99E+01	-4.16E-01
6.98E+08	5.00E+01	-3.87E-01
7.01E+08	5.00E+01	-4.19E-01
7.04E+08	5.00E+01	-4.38E-01
7.07E+08	5.00E+01	-4.38E-01
7.10E+08	5.00E+01	-4.39E-01
7.13E+08	5.00E+01	-4.51E-01
7.16E+08	4.99E+01	-4.60E-01
7.19E+08	4.99E+01	-4.71E-01
7.22E+08	5.00E+01	-4.55E-01
7.25E+08	5.00E+01	-4.76E-01
7.28E+08	5.00E+01	-4.92E-01
7.31E+08	5.00E+01	-5.11E-01
7.34E+08	5.00E+01	-4.94E-01
7.37E+08	5.00E+01	-5.14E-01
7.40E+08	5.00E+01	-5.27E-01
7.43E+08	5.00E+01	-5.13E-01
7.46E+08	5.00E+01	-5.24E-01
7.49E+08	5.00E+01	-5.46E-01
7.52E+08	5.00E+01	-5.48E-01
7.55E+08	5.00E+01	-5.34E-01
7.58E+08	5.00E+01	-5.86E-01
7.61E+08	5.00E+01	-5.71E-01
7.64E+08	5.00E+01	-5.77E-01
7.67E+08	5.00E+01	-5.89E-01
7.70E+08	5.00E+01	-5.92E-01
7.73E+08	5.00E+01	-5.92E-01
7.76E+08	5.00E+01	-6.08E-01
7.79E+08	5.00E+01	-6.10E-01
7.82E+08	5.00E+01	-6.12E-01
7.85E+08	5.00E+01	-6.46E-01
7.88E+08	5.00E+01	-6.25E-01
7.91E+08	5.01E+01	-6.41E-01
7.94E+08	5.00E+01	-6.40E-01
7.97E+08	5.01E+01	-6.56E-01
8.00E+08	5.01E+01	-6.43E-01
8.03E+08	5.01E+01	-6.38E-01
8.06E+08	5.01E+01	-6.78E-01
8.09E+08	5.01E+01	-6.64E-01
8.12E+08	5.01E+01	-6.86E-01
8.15E+08	5.01E+01	-6.89E-01
8.18E+08	5.01E+01	-7.22E-01
8.21E+08	5.01E+01	-6.99E-01
8.24E+08	5.01E+01	-6.93E-01
8.27E+08	5.01E+01	-6.71E-01
8.30E+08	5.01E+01	-7.20E-01
8.32E+08	5.01E+01	-7.31E-01
8.35E+08	5.01E+01	-7.21E-01
8.38E+08	5.01E+01	-6.84E-01
8.41E+08	5.01E+01	-7.13E-01
8.44E+08	5.02E+01	-7.40E-01
8.47E+08	5.02E+01	-7.18E-01
8.50E+08	5.02E+01	-7.45E-01
8.53E+08	5.02E+01	-7.19E-01
8.56E+08	5.02E+01	-7.31E-01
8.59E+08	5.02E+01	-7.55E-01
8.62E+08	5.02E+01	-7.51E-01
8.65E+08	5.02E+01	-7.64E-01
8.68E+08	5.02E+01	-7.77E-01
8.71E+08	5.02E+01	-7.70E-01
8.74E+08	5.02E+01	-7.75E-01
8.77E+08	5.02E+01	-7.48E-01
8.80E+08	5.02E+01	-7.63E-01
8.83E+08	5.02E+01	-7.77E-01
8.86E+08	5.02E+01	-7.96E-01
8.89E+08	5.03E+01	-8.02E-01
8.92E+08	5.02E+01	-7.79E-01
8.95E+08	5.03E+01	-7.59E-01
8.98E+08	5.02E+01	-7.73E-01
9.01E+08	5.03E+01	-7.78E-01
9.04E+08	5.03E+01	-7.69E-01
9.07E+08	5.03E+01	-7.89E-01
9.10E+08	5.03E+01	-7.67E-01
9.13E+08	5.03E+01	-7.83E-01
9.16E+08	5.03E+01	-7.80E-01
9.19E+08	5.03E+01	-7.69E-01
9.22E+08	5.04E+01	-7.70E-01
9.25E+08	5.04E+01	-7.81E-01
9.28E+08	5.04E+01	-7.72E-01
9.31E+08	5.04E+01	-7.89E-01
9.34E+08	5.04E+01	-7.69E-01
9.37E+08	5.04E+01	-7.64E-01
9.40E+08	5.04E+01	-7.77E-01
9.43E+08	5.04E+01	-7.64E-01
9.46E+08	5.04E+01	-7.69E-01
9.49E+08	5.04E+01	-7.60E-01
9.52E+08	5.05E+01	-7.67E-01
9.55E+08	5.05E+01	-7.46E-01
9.58E+08	5.04E+01	-7.80E-01
9.61E+08	5.05E+01	-7.78E-01
9.64E+08	5.05E+01	-7.69E-01
9.67E+08	5.05E+01	-7.68E-01
9.70E+08	5.05E+01	-7.37E-01
9.73E+08	5.05E+01	-7.50E-01
9.76E+08	5.05E+01	-7.55E-01
9.79E+08	5.05E+01	-7.47E-01
9.81E+08	5.05E+01	-7.61E-01
9.84E+08	5.05E+01	-7.38E-01
9.87E+08	5.05E+01	-7.38E-01
9.90E+08	5.05E+01	-7.39E-01
9.93E+08	5.06E+01	-7.38E-01
9.96E+08	5.06E+01	-7.21E-01
9.99E+08	5.06E+01	-7.30E-01
1.00E+09	5.06E+01	-7.30E-01
1.01E+09	5.06E+01	-7.40E-01
1.01E+09	5.06E+01	-7.32E-01
1.01E+09	5.06E+01	-6.91E-01
1.01E+09	5.06E+01	-7.10E-01
1.02E+09	5.06E+01	-6.96E-01
1.02E+09	5.06E+01	-6.97E-01
1.02E+09	5.06E+01	-6.87E-01
1.03E+09	5.06E+01	-6.92E-01
1.03E+09	5.06E+01	-6.63E-01
1.03E+09	5.06E+01	-6.58E-01
1.04E+09	5.07E+01	-6.74E-01
1.04E+09	5.07E+01	-6.79E-01
1.04E+09	5.07E+01	-6.39E-01
1.04E+09	5.07E+01	-6.33E-01
1.05E+09	5.07E+01	-6.23E-01
1.05E+09	5.07E+01	-6.29E-01
1.05E+09	5.07E+01	-6.11E-01
1.06E+09	5.07E+01	-5.88E-01
1.06E+09	5.07E+01	-5.86E-01
1.06E+09	5.07E+01	-5.89E-01
1.06E+09	5.07E+01	-5.71E-01
1.07E+09	5.07E+01	-6.06E-01
1.07E+09	5.07E+01	-5.62E-01
1.07E+09	5.07E+01	-5.50E-01
1.08E+09	5.07E+01	-5.46E-01
1.08E+09	5.07E+01	-5.52E-01
1.08E+09	5.08E+01	-5.31E-01
1.09E+09	5.07E+01	-5.10E-01
1.09E+09	5.07E+01	-5.09E-01
1.09E+09	5.07E+01	-4.96E-01
1.09E+09	5.07E+01	-4.97E-01
1.10E+09	5.07E+01	-5.21E-01
1.10E+09	5.07E+01	-4.74E-01
1.10E+09	5.07E+01	-4.61E-01
1.11E+09	5.08E+01	-4.36E-01
1.11E+09	5.07E+01	-4.44E-01
1.11E+09	5.07E+01	-4.31E-01
1.12E+09	5.08E+01	-4.17E-01
1.12E+09	5.08E+01	-3.97E-01
1.12E+09	5.07E+01	-4.06E-01
1.12E+09	5.08E+01	-3.87E-01
1.13E+09	5.08E+01	-4.27E-01
1.13E+09	5.08E+01	-3.75E-01
1.13E+09	5.07E+01	-3.47E-01
1.14E+09	5.07E+01	-3.49E-01
1.14E+09	5.07E+01	-3.31E-01
1.14E+09	5.07E+01	-3.32E-01
1.15E+09	5.07E+01	-3.06E-01
1.15E+09	5.07E+01	-3.09E-01
1.15E+09	5.08E+01	-2.88E-01
1.15E+09	5.08E+01	-2.75E-01
1.16E+09	5.07E+01	-2.73E-01
1.16E+09	5.08E+01	-2.47E-01
1.16E+09	5.08E+01	-2.60E-01
1.17E+09	5.08E+01	-2.36E-01
1.17E+09	5.07E+01	-2.49E-01
1.17E+09	5.07E+01	-2.28E-01
1.18E+09	5.07E+01	-2.11E-01
1.18E+09	5.07E+01	-1.99E-01
1.18E+09	5.07E+01	-1.98E-01
1.18E+09	5.07E+01	-1.80E-01
1.19E+09	5.07E+01	-1.74E-01
1.19E+09	5.07E+01	-1.88E-01
1.19E+09	5.07E+01	-1.39E-01
1.20E+09	5.07E+01	-1.31E-01
1.20E+09	5.07E+01	-1.03E-01
1.20E+09	5.07E+01	-1.18E-01
1.20E+09	5.07E+01	-1.11E-01
1.21E+09	5.07E+01	-8.57E-02
1.21E+09	5.07E+01	-9.46E-02
1.21E+09	5.07E+01	-8.16E-02
1.22E+09	5.07E+01	-8.10E-02
1.22E+09	5.07E+01	-8.25E-02
1.22E+09	5.06E+01	-6.24E-02
1.23E+09	5.07E+01	-1.86E-02
1.23E+09	5.06E+01	-4.25E-02
1.23E+09	5.06E+01	-9.77E-03
1.23E+09	5.06E+01	-2.57E-02
1.24E+09	5.06E+01	4.43E-03
1.24E+09	5.06E+01	-5.53E-03
1.24E+09	5.06E+01	8.07E-03
1.25E+09	5.06E+01	3.23E-03
1.25E+09	5.06E+01	4.94E-04
1.25E+09	5.06E+01	3.84E-02
1.26E+09	5.06E+01	2.50E-02
1.26E+09	5.05E+01	4.20E-02
1.26E+09	5.05E+01	5.41E-02
1.26E+09	5.05E+01	6.08E-02
1.27E+09	5.05E+01	7.48E-02
1.27E+09	5.05E+01	6.59E-02
1.27E+09	5.05E+01	8.68E-02
1.28E+09	5.05E+01	9.61E-02
1.28E+09	5.05E+01	1.25E-01
1.28E+09	5.05E+01	1.03E-01
1.29E+09	5.05E+01	1.06E-01
1.29E+09	5.05E+01	1.43E-01
1.29E+09	5.05E+01	1.23E-01
1.29E+09	5.04E+01	1.38E-01
1.30E+09	5.04E+01	1.37E-01
1.30E+09	5.04E+01	1.46E-01
1.30E+09	5.04E+01	1.53E-01
1.31E+09	5.04E+01	1.66E-01
1.31E+09	5.04E+01	1.73E-01
1.31E+09	5.04E+01	1.47E-01
1.32E+09	5.03E+01	1.70E-01
1.32E+09	5.04E+01	1.86E-01
1.32E+09	5.03E+01	1.41E-01
1.32E+09	5.03E+01	1.68E-01
1.33E+09	5.03E+01	1.90E-01
1.33E+09	5.03E+01	1.91E-01
1.33E+09	5.03E+01	1.75E-01
1.34E+09	5.02E+01	2.14E-01
1.34E+09	5.03E+01	1.77E-01
1.34E+09	5.02E+01	1.94E-01
1.35E+09	5.02E+01	2.11E-01
1.35E+09	5.02E+01	1.56E-01
1.35E+09	5.02E+01	1.75E-01
1.35E+09	5.02E+01	1.91E-01
1.36E+09	5.02E+01	1.55E-01
1.36E+09	5.02E+01	2.03E-01
1.36E+09	5.01E+01	2.12E-01
1.37E+09	5.01E+01	2.02E-01
1.37E+09	5.01E+01	2.18E-01
1.37E+09	5.01E+01	1.95E-01
1.37E+09	5.01E+01	2.08E-01
1.38E+09	5.01E+01	2.00E-01
1.38E+09	5.00E+01	2.10E-01
1.38E+09	5.01E+01	2.04E-01
1.39E+09	5.00E+01	1.99E-01
1.39E+09	5.00E+01	1.85E-01
1.39E+09	5.00E+01	1.89E-01
1.40E+09	5.00E+01	2.01E-01
1.40E+09	5.00E+01	1.83E-01
1.40E+09	5.00E+01	2.00E-01
1.40E+09	4.99E+01	1.81E-01
1.41E+09	4.99E+01	1.53E-01
1.41E+09	4.99E+01	1.72E-01
1.41E+09	4.99E+01	1.72E-01
1.42E+09	4.99E+01	2.03E-01
1.42E+09	4.99E+01	1.73E-01
1.42E+09	4.99E+01	1.69E-01
1.43E+09	4.99E+01	1.49E-01
1.43E+09	4.98E+01	1.66E-01
1.43E+09	4.98E+01	1.46E-01
1.43E+09	4.98E+01	1.28E-01
1.44E+09	4.98E+01	2.08E-01
1.44E+09	4.98E+01	1.35E-01
1.44E+09	4.98E+01	1.01E-01
1.45E+09	4.98E+01	6.42E-02
1.45E+09	4.98E+01	9.60E-02
1.45E+09	4.98E+01	5.81E-02
1.46E+09	4.98E+01	6.36E-02
1.46E+09	4.97E+01	5.52E-02
1.46E+09	4.97E+01	5.86E-02
1.46E+09	4.97E+01	3.82E-02
1.47E+09	4.97E+01	5.58E-02
1.47E+09	4.97E+01	4.27E-02
1.47E+09	4.97E+01	1.02E-02
1.48E+09	4.96E+01	1.74E-02
1.48E+09	4.97E+01	-4.92E-02
1.48E+09	4.97E+01	-2.08E-03
1.49E+09	4.96E+01	1.29E-02
1.49E+09	4.96E+01	-9.99E-03
1.49E+09	4.96E+01	-3.13E-02
1.49E+09	4.96E+01	-6.66E-02
1.50E+09	4.96E+01	-5.40E-02
1.50E+09	4.96E+01	-5.95E-02
