# Hz S RI R 50.000000
! Metas.Vna.Tools, 2.1.6908.24816
! Metas.Vna.Data, 2.1.6908.24809
! Created: UTC 2019.06.23 00:58:44
! FREQ                re:S1,1             im:S1,1          
5.00E+07	-1.00E+00	4.29E-02
5.47E+07	-1.00E+00	4.29E-02
6.22E+07	-9.98E-01	5.01E-02
6.96E+07	-9.98E-01	5.52E-02
7.71E+07	-9.96E-01	6.16E-02
8.45E+07	-9.96E-01	6.68E-02
9.20E+07	-9.95E-01	7.30E-02
9.94E+07	-9.94E-01	7.80E-02
1.07E+08	-9.92E-01	8.42E-02
1.14E+08	-9.91E-01	8.96E-02
1.22E+08	-9.91E-01	9.53E-02
1.29E+08	-9.89E-01	1.02E-01
1.37E+08	-9.89E-01	1.06E-01
1.44E+08	-9.88E-01	1.12E-01
1.52E+08	-9.86E-01	1.17E-01
1.59E+08	-9.86E-01	1.22E-01
1.66E+08	-9.85E-01	1.29E-01
1.74E+08	-9.84E-01	1.34E-01
1.81E+08	-9.83E-01	1.39E-01
1.89E+08	-9.82E-01	1.45E-01
1.96E+08	-9.81E-01	1.50E-01
2.04E+08	-9.81E-01	1.56E-01
2.11E+08	-9.80E-01	1.62E-01
2.19E+08	-9.79E-01	1.67E-01
2.26E+08	-9.78E-01	1.72E-01
2.34E+08	-9.77E-01	1.78E-01
2.41E+08	-9.76E-01	1.83E-01
2.48E+08	-9.75E-01	1.89E-01
2.56E+08	-9.74E-01	1.93E-01
2.63E+08	-9.73E-01	1.99E-01
2.71E+08	-9.72E-01	2.04E-01
2.78E+08	-9.71E-01	2.11E-01
2.86E+08	-9.70E-01	2.16E-01
2.93E+08	-9.69E-01	2.21E-01
3.01E+08	-9.68E-01	2.27E-01
3.08E+08	-9.66E-01	2.31E-01
3.15E+08	-9.65E-01	2.37E-01
3.23E+08	-9.64E-01	2.41E-01
3.30E+08	-9.63E-01	2.47E-01
3.38E+08	-9.62E-01	2.52E-01
3.45E+08	-9.60E-01	2.58E-01
3.53E+08	-9.59E-01	2.62E-01
3.60E+08	-9.58E-01	2.68E-01
3.68E+08	-9.56E-01	2.75E-01
3.75E+08	-9.55E-01	2.78E-01
3.83E+08	-9.53E-01	2.84E-01
3.90E+08	-9.52E-01	2.88E-01
3.97E+08	-9.50E-01	2.94E-01
4.05E+08	-9.49E-01	2.99E-01
4.12E+08	-9.47E-01	3.04E-01
4.20E+08	-9.45E-01	3.10E-01
4.27E+08	-9.44E-01	3.15E-01
4.35E+08	-9.43E-01	3.19E-01
4.42E+08	-9.41E-01	3.25E-01
4.50E+08	-9.39E-01	3.30E-01
4.57E+08	-9.38E-01	3.34E-01
4.64E+08	-9.36E-01	3.39E-01
4.72E+08	-9.33E-01	3.45E-01
4.79E+08	-9.32E-01	3.50E-01
4.87E+08	-9.30E-01	3.55E-01
4.94E+08	-9.28E-01	3.60E-01
5.02E+08	-9.25E-01	3.66E-01
5.09E+08	-9.23E-01	3.70E-01
5.17E+08	-9.21E-01	3.75E-01
5.24E+08	-9.19E-01	3.80E-01
5.32E+08	-9.17E-01	3.85E-01
5.39E+08	-9.15E-01	3.90E-01
5.46E+08	-9.12E-01	3.94E-01
5.54E+08	-9.10E-01	3.99E-01
5.61E+08	-9.08E-01	4.03E-01
5.69E+08	-9.06E-01	4.10E-01
5.76E+08	-9.03E-01	4.13E-01
5.84E+08	-9.00E-01	4.19E-01
5.91E+08	-8.98E-01	4.23E-01
5.99E+08	-8.95E-01	4.28E-01
6.06E+08	-8.92E-01	4.33E-01
6.13E+08	-8.90E-01	4.37E-01
6.21E+08	-8.87E-01	4.41E-01
6.28E+08	-8.86E-01	4.45E-01
6.36E+08	-8.82E-01	4.52E-01
6.43E+08	-8.79E-01	4.56E-01
6.51E+08	-8.76E-01	4.60E-01
6.58E+08	-8.73E-01	4.65E-01
6.66E+08	-8.71E-01	4.69E-01
6.73E+08	-8.68E-01	4.74E-01
6.81E+08	-8.65E-01	4.78E-01
6.88E+08	-8.62E-01	4.83E-01
6.95E+08	-8.60E-01	4.86E-01
7.03E+08	-8.55E-01	4.92E-01
7.10E+08	-8.53E-01	4.96E-01
7.18E+08	-8.50E-01	5.00E-01
7.25E+08	-8.46E-01	5.05E-01
7.33E+08	-8.43E-01	5.09E-01
7.40E+08	-8.40E-01	5.13E-01
7.48E+08	-8.37E-01	5.17E-01
7.55E+08	-8.35E-01	5.22E-01
7.62E+08	-8.31E-01	5.26E-01
7.70E+08	-8.28E-01	5.31E-01
7.77E+08	-8.25E-01	5.35E-01
7.85E+08	-8.22E-01	5.39E-01
7.92E+08	-8.18E-01	5.44E-01
8.00E+08	-8.15E-01	5.49E-01
8.07E+08	-8.11E-01	5.52E-01
8.15E+08	-8.08E-01	5.57E-01
8.22E+08	-8.05E-01	5.61E-01
8.30E+08	-8.02E-01	5.66E-01
8.37E+08	-7.99E-01	5.70E-01
8.44E+08	-7.95E-01	5.75E-01
8.52E+08	-7.92E-01	5.79E-01
8.59E+08	-7.88E-01	5.83E-01
8.67E+08	-7.84E-01	5.88E-01
8.74E+08	-7.81E-01	5.92E-01
8.82E+08	-7.78E-01	5.96E-01
8.89E+08	-7.74E-01	6.00E-01
8.97E+08	-7.71E-01	6.05E-01
9.04E+08	-7.67E-01	6.10E-01
9.11E+08	-7.64E-01	6.14E-01
9.19E+08	-7.61E-01	6.18E-01
9.26E+08	-7.56E-01	6.23E-01
9.34E+08	-7.54E-01	6.25E-01
9.41E+08	-7.49E-01	6.31E-01
9.49E+08	-7.46E-01	6.35E-01
9.56E+08	-7.42E-01	6.40E-01
9.64E+08	-7.39E-01	6.44E-01
9.71E+08	-7.36E-01	6.48E-01
9.79E+08	-7.32E-01	6.52E-01
9.86E+08	-7.28E-01	6.57E-01
9.93E+08	-7.23E-01	6.61E-01
1.00E+09	-7.21E-01	6.65E-01
1.01E+09	-7.17E-01	6.69E-01
1.02E+09	-7.13E-01	6.73E-01
1.02E+09	-7.10E-01	6.77E-01
1.03E+09	-7.05E-01	6.82E-01
1.04E+09	-7.02E-01	6.86E-01
1.05E+09	-6.98E-01	6.90E-01
1.05E+09	-6.94E-01	6.94E-01
1.06E+09	-6.90E-01	6.98E-01
1.07E+09	-6.87E-01	7.02E-01
1.08E+09	-6.83E-01	7.06E-01
1.08E+09	-6.80E-01	7.10E-01
1.09E+09	-6.75E-01	7.14E-01
1.10E+09	-6.71E-01	7.18E-01
1.11E+09	-6.67E-01	7.22E-01
1.11E+09	-6.63E-01	7.26E-01
1.12E+09	-6.59E-01	7.30E-01
1.13E+09	-6.55E-01	7.33E-01
1.13E+09	-6.52E-01	7.37E-01
1.14E+09	-6.47E-01	7.41E-01
1.15E+09	-6.43E-01	7.44E-01
1.16E+09	-6.40E-01	7.48E-01
1.16E+09	-6.36E-01	7.52E-01
1.17E+09	-6.31E-01	7.55E-01
1.18E+09	-6.27E-01	7.59E-01
1.19E+09	-6.24E-01	7.62E-01
1.19E+09	-6.20E-01	7.66E-01
1.20E+09	-6.16E-01	7.69E-01
1.21E+09	-6.11E-01	7.73E-01
1.22E+09	-6.07E-01	7.76E-01
1.22E+09	-6.04E-01	7.79E-01
1.23E+09	-6.00E-01	7.82E-01
1.24E+09	-5.96E-01	7.86E-01
1.25E+09	-5.92E-01	7.90E-01
1.25E+09	-5.88E-01	7.92E-01
1.26E+09	-5.84E-01	7.95E-01
1.27E+09	-5.80E-01	7.99E-01
1.28E+09	-5.76E-01	8.01E-01
1.28E+09	-5.71E-01	8.04E-01
1.29E+09	-5.67E-01	8.07E-01
1.30E+09	-5.63E-01	8.10E-01
1.31E+09	-5.59E-01	8.12E-01
1.31E+09	-5.54E-01	8.16E-01
1.32E+09	-5.50E-01	8.18E-01
1.33E+09	-5.47E-01	8.22E-01
1.34E+09	-5.42E-01	8.23E-01
1.34E+09	-5.38E-01	8.26E-01
1.35E+09	-5.33E-01	8.28E-01
1.36E+09	-5.29E-01	8.31E-01
1.37E+09	-5.24E-01	8.34E-01
1.37E+09	-5.20E-01	8.36E-01
1.38E+09	-5.15E-01	8.38E-01
1.39E+09	-5.11E-01	8.40E-01
1.40E+09	-5.07E-01	8.43E-01
1.40E+09	-5.02E-01	8.45E-01
1.41E+09	-4.98E-01	8.48E-01
1.42E+09	-4.94E-01	8.51E-01
1.43E+09	-4.89E-01	8.53E-01
1.43E+09	-4.83E-01	8.56E-01
1.44E+09	-4.79E-01	8.58E-01
1.45E+09	-4.76E-01	8.61E-01
1.46E+09	-4.69E-01	8.62E-01
1.46E+09	-4.64E-01	8.65E-01
1.47E+09	-4.59E-01	8.66E-01
1.48E+09	-4.55E-01	8.68E-01
1.49E+09	-4.49E-01	8.71E-01
1.49E+09	-4.45E-01	8.73E-01
1.50E+09	-4.39E-01	8.74E-01
