# Hz S RI R 50.000000
! Metas.Vna.Tools, 2.1.6908.24816
! Metas.Vna.Data, 2.1.6908.24809
! Created: UTC 2019.06.23 00:58:44
! FREQ                re:S1,1             im:S1,1          
5.00E+07    1.00E+00	-3.95E-02
5.47E+07	1.00E+00	-3.95E-02
6.22E+07	1.00E+00	-4.51E-02
6.96E+07	1.00E+00	-5.06E-02
7.71E+07	1.00E+00	-5.51E-02
8.45E+07	1.00E+00	-6.08E-02
9.20E+07	1.00E+00	-6.54E-02
9.94E+07	1.00E+00	-7.05E-02
1.07E+08	1.00E+00	-7.68E-02
1.14E+08	9.99E-01	-8.18E-02
1.22E+08	9.99E-01	-8.66E-02
1.29E+08	1.00E+00	-9.29E-02
1.37E+08	9.99E-01	-9.66E-02
1.44E+08	9.99E-01	-1.02E-01
1.52E+08	9.97E-01	-1.07E-01
1.59E+08	9.98E-01	-1.12E-01
1.66E+08	9.97E-01	-1.18E-01
1.74E+08	9.97E-01	-1.23E-01
1.81E+08	9.96E-01	-1.29E-01
1.89E+08	9.94E-01	-1.32E-01
1.96E+08	9.93E-01	-1.38E-01
2.04E+08	9.93E-01	-1.44E-01
2.11E+08	9.92E-01	-1.50E-01
2.19E+08	9.92E-01	-1.54E-01
2.26E+08	9.91E-01	-1.59E-01
2.34E+08	9.90E-01	-1.65E-01
2.41E+08	9.89E-01	-1.69E-01
2.48E+08	9.88E-01	-1.74E-01
2.56E+08	9.86E-01	-1.80E-01
2.63E+08	9.86E-01	-1.85E-01
2.71E+08	9.85E-01	-1.89E-01
2.78E+08	9.84E-01	-1.96E-01
2.86E+08	9.82E-01	-2.01E-01
2.93E+08	9.81E-01	-2.06E-01
3.01E+08	9.80E-01	-2.11E-01
3.08E+08	9.79E-01	-2.16E-01
3.15E+08	9.77E-01	-2.21E-01
3.23E+08	9.76E-01	-2.26E-01
3.30E+08	9.74E-01	-2.32E-01
3.38E+08	9.73E-01	-2.36E-01
3.45E+08	9.71E-01	-2.42E-01
3.53E+08	9.70E-01	-2.47E-01
3.60E+08	9.69E-01	-2.52E-01
3.68E+08	9.67E-01	-2.58E-01
3.75E+08	9.66E-01	-2.61E-01
3.83E+08	9.64E-01	-2.68E-01
3.90E+08	9.62E-01	-2.73E-01
3.97E+08	9.61E-01	-2.78E-01
4.05E+08	9.59E-01	-2.83E-01
4.12E+08	9.57E-01	-2.88E-01
4.20E+08	9.56E-01	-2.94E-01
4.27E+08	9.54E-01	-2.98E-01
4.35E+08	9.52E-01	-3.03E-01
4.42E+08	9.50E-01	-3.08E-01
4.50E+08	9.49E-01	-3.14E-01
4.57E+08	9.47E-01	-3.18E-01
4.64E+08	9.45E-01	-3.24E-01
4.72E+08	9.43E-01	-3.29E-01
4.79E+08	9.41E-01	-3.34E-01
4.87E+08	9.40E-01	-3.39E-01
4.94E+08	9.38E-01	-3.44E-01
5.02E+08	9.36E-01	-3.50E-01
5.09E+08	9.35E-01	-3.54E-01
5.17E+08	9.32E-01	-3.59E-01
5.24E+08	9.30E-01	-3.64E-01
5.32E+08	9.28E-01	-3.69E-01
5.39E+08	9.26E-01	-3.74E-01
5.46E+08	9.24E-01	-3.80E-01
5.54E+08	9.22E-01	-3.85E-01
5.61E+08	9.20E-01	-3.89E-01
5.69E+08	9.17E-01	-3.94E-01
5.76E+08	9.16E-01	-3.99E-01
5.84E+08	9.14E-01	-4.04E-01
5.91E+08	9.12E-01	-4.09E-01
5.99E+08	9.10E-01	-4.14E-01
6.06E+08	9.07E-01	-4.19E-01
6.13E+08	9.05E-01	-4.24E-01
6.21E+08	9.03E-01	-4.29E-01
6.28E+08	9.01E-01	-4.34E-01
6.36E+08	8.99E-01	-4.40E-01
6.43E+08	8.97E-01	-4.44E-01
6.51E+08	8.94E-01	-4.49E-01
6.58E+08	8.92E-01	-4.54E-01
6.66E+08	8.89E-01	-4.59E-01
6.73E+08	8.87E-01	-4.64E-01
6.81E+08	8.86E-01	-4.68E-01
6.88E+08	8.83E-01	-4.73E-01
6.95E+08	8.80E-01	-4.78E-01
7.03E+08	8.78E-01	-4.84E-01
7.10E+08	8.76E-01	-4.88E-01
7.18E+08	8.73E-01	-4.94E-01
7.25E+08	8.71E-01	-4.98E-01
7.33E+08	8.68E-01	-5.03E-01
7.40E+08	8.65E-01	-5.09E-01
7.48E+08	8.63E-01	-5.12E-01
7.55E+08	8.60E-01	-5.18E-01
7.62E+08	8.58E-01	-5.22E-01
7.70E+08	8.55E-01	-5.27E-01
7.77E+08	8.53E-01	-5.31E-01
7.85E+08	8.50E-01	-5.36E-01
7.92E+08	8.48E-01	-5.40E-01
8.00E+08	8.44E-01	-5.46E-01
8.07E+08	8.41E-01	-5.51E-01
8.15E+08	8.40E-01	-5.54E-01
8.22E+08	8.36E-01	-5.58E-01
8.30E+08	8.33E-01	-5.63E-01
8.37E+08	8.30E-01	-5.68E-01
8.44E+08	8.27E-01	-5.72E-01
8.52E+08	8.24E-01	-5.77E-01
8.59E+08	8.21E-01	-5.81E-01
8.67E+08	8.18E-01	-5.85E-01
8.74E+08	8.15E-01	-5.89E-01
8.82E+08	8.12E-01	-5.93E-01
8.89E+08	8.09E-01	-5.98E-01
8.97E+08	8.07E-01	-6.01E-01
9.04E+08	8.03E-01	-6.06E-01
9.11E+08	8.00E-01	-6.10E-01
9.19E+08	7.96E-01	-6.15E-01
9.26E+08	7.93E-01	-6.19E-01
9.34E+08	7.90E-01	-6.22E-01
9.41E+08	7.86E-01	-6.26E-01
9.49E+08	7.83E-01	-6.30E-01
9.56E+08	7.80E-01	-6.35E-01
9.64E+08	7.77E-01	-6.38E-01
9.71E+08	7.73E-01	-6.42E-01
9.79E+08	7.70E-01	-6.46E-01
9.86E+08	7.66E-01	-6.50E-01
9.93E+08	7.63E-01	-6.54E-01
1.00E+09	7.59E-01	-6.57E-01
1.01E+09	7.55E-01	-6.62E-01
1.02E+09	7.53E-01	-6.64E-01
1.02E+09	7.49E-01	-6.68E-01
1.03E+09	7.45E-01	-6.73E-01
1.04E+09	7.41E-01	-6.77E-01
1.05E+09	7.38E-01	-6.80E-01
1.05E+09	7.35E-01	-6.83E-01
1.06E+09	7.31E-01	-6.87E-01
1.07E+09	7.27E-01	-6.91E-01
1.08E+09	7.23E-01	-6.94E-01
1.08E+09	7.19E-01	-6.97E-01
1.09E+09	7.15E-01	-7.01E-01
1.10E+09	7.12E-01	-7.06E-01
1.11E+09	7.08E-01	-7.08E-01
1.11E+09	7.03E-01	-7.12E-01
1.12E+09	6.99E-01	-7.16E-01
1.13E+09	6.96E-01	-7.19E-01
1.13E+09	6.92E-01	-7.22E-01
1.14E+09	6.88E-01	-7.25E-01
1.15E+09	6.84E-01	-7.29E-01
1.16E+09	6.79E-01	-7.32E-01
1.16E+09	6.76E-01	-7.35E-01
1.17E+09	6.71E-01	-7.40E-01
1.18E+09	6.67E-01	-7.43E-01
1.19E+09	6.63E-01	-7.47E-01
1.19E+09	6.59E-01	-7.50E-01
1.20E+09	6.54E-01	-7.53E-01
1.21E+09	6.50E-01	-7.57E-01
1.22E+09	6.46E-01	-7.61E-01
1.22E+09	6.42E-01	-7.64E-01
1.23E+09	6.37E-01	-7.68E-01
1.24E+09	6.34E-01	-7.71E-01
1.25E+09	6.27E-01	-7.75E-01
1.25E+09	6.24E-01	-7.79E-01
1.26E+09	6.20E-01	-7.82E-01
1.27E+09	6.15E-01	-7.85E-01
1.28E+09	6.10E-01	-7.89E-01
1.28E+09	6.05E-01	-7.92E-01
1.29E+09	6.01E-01	-7.95E-01
1.30E+09	5.97E-01	-7.99E-01
1.31E+09	5.92E-01	-8.02E-01
1.31E+09	5.87E-01	-8.06E-01
1.32E+09	5.83E-01	-8.09E-01
1.33E+09	5.78E-01	-8.12E-01
1.34E+09	5.75E-01	-8.16E-01
1.34E+09	5.69E-01	-8.19E-01
1.35E+09	5.65E-01	-8.22E-01
1.36E+09	5.60E-01	-8.25E-01
1.37E+09	5.55E-01	-8.29E-01
1.37E+09	5.50E-01	-8.32E-01
1.38E+09	5.46E-01	-8.36E-01
1.39E+09	5.42E-01	-8.39E-01
1.40E+09	5.36E-01	-8.42E-01
1.40E+09	5.32E-01	-8.45E-01
1.41E+09	5.27E-01	-8.48E-01
1.42E+09	5.22E-01	-8.51E-01
1.43E+09	5.17E-01	-8.54E-01
1.43E+09	5.14E-01	-8.57E-01
1.44E+09	5.08E-01	-8.60E-01
1.45E+09	5.03E-01	-8.63E-01
1.46E+09	5.00E-01	-8.66E-01
1.46E+09	4.94E-01	-8.68E-01
1.47E+09	4.91E-01	-8.73E-01
1.48E+09	4.86E-01	-8.75E-01
1.49E+09	4.82E-01	-8.78E-01
1.49E+09	4.78E-01	-8.80E-01
1.50E+09	4.72E-01	-8.84E-01
