# Hz S RI R 50.000000
! Metas.Vna.Tools, 2.1.6908.24816
! Metas.Vna.Data, 2.1.6908.24809
! Created: UTC 2019.06.23 00:58:44
! FREQ                re:S1,1             im:S1,1          
5.00E+07	2.91E-01	-3.35E-02
5.47E+07	2.91E-01	-3.35E-02
6.22E+07	2.90E-01	-3.87E-02
6.96E+07	2.90E-01	-4.47E-02
7.71E+07	2.90E-01	-4.78E-02
8.45E+07	2.88E-01	-5.23E-02
9.20E+07	2.88E-01	-5.75E-02
9.94E+07	2.87E-01	-6.10E-02
1.07E+08	2.86E-01	-6.64E-02
1.14E+08	2.84E-01	-7.06E-02
1.22E+08	2.82E-01	-7.52E-02
1.29E+08	2.81E-01	-7.98E-02
1.37E+08	2.80E-01	-8.40E-02
1.44E+08	2.78E-01	-8.87E-02
1.52E+08	2.76E-01	-9.28E-02
1.59E+08	2.74E-01	-9.71E-02
1.66E+08	2.73E-01	-1.01E-01
1.74E+08	2.71E-01	-1.06E-01
1.81E+08	2.69E-01	-1.10E-01
1.89E+08	2.67E-01	-1.14E-01
1.96E+08	2.64E-01	-1.18E-01
2.04E+08	2.62E-01	-1.22E-01
2.11E+08	2.59E-01	-1.26E-01
2.19E+08	2.57E-01	-1.30E-01
2.26E+08	2.54E-01	-1.34E-01
2.34E+08	2.52E-01	-1.38E-01
2.41E+08	2.49E-01	-1.41E-01
2.48E+08	2.46E-01	-1.46E-01
2.56E+08	2.44E-01	-1.49E-01
2.63E+08	2.41E-01	-1.53E-01
2.71E+08	2.38E-01	-1.57E-01
2.78E+08	2.35E-01	-1.61E-01
2.86E+08	2.32E-01	-1.64E-01
2.93E+08	2.29E-01	-1.68E-01
3.01E+08	2.26E-01	-1.71E-01
3.08E+08	2.22E-01	-1.75E-01
3.15E+08	2.19E-01	-1.79E-01
3.23E+08	2.16E-01	-1.83E-01
3.30E+08	2.12E-01	-1.86E-01
3.38E+08	2.09E-01	-1.89E-01
3.45E+08	2.05E-01	-1.92E-01
3.53E+08	2.02E-01	-1.96E-01
3.60E+08	1.98E-01	-1.99E-01
3.68E+08	1.95E-01	-2.02E-01
3.75E+08	1.91E-01	-2.05E-01
3.83E+08	1.87E-01	-2.08E-01
3.90E+08	1.83E-01	-2.11E-01
3.97E+08	1.79E-01	-2.14E-01
4.05E+08	1.76E-01	-2.17E-01
4.12E+08	1.72E-01	-2.20E-01
4.20E+08	1.68E-01	-2.23E-01
4.27E+08	1.64E-01	-2.25E-01
4.35E+08	1.60E-01	-2.28E-01
4.42E+08	1.56E-01	-2.31E-01
4.50E+08	1.51E-01	-2.34E-01
4.57E+08	1.47E-01	-2.36E-01
4.64E+08	1.43E-01	-2.39E-01
4.72E+08	1.39E-01	-2.41E-01
4.79E+08	1.35E-01	-2.44E-01
4.87E+08	1.31E-01	-2.46E-01
4.94E+08	1.27E-01	-2.48E-01
5.02E+08	1.22E-01	-2.50E-01
5.09E+08	1.18E-01	-2.52E-01
5.17E+08	1.13E-01	-2.54E-01
5.24E+08	1.09E-01	-2.56E-01
5.32E+08	1.05E-01	-2.58E-01
5.39E+08	1.00E-01	-2.60E-01
5.46E+08	9.59E-02	-2.62E-01
5.54E+08	9.16E-02	-2.63E-01
5.61E+08	8.76E-02	-2.65E-01
5.69E+08	8.21E-02	-2.66E-01
5.76E+08	7.83E-02	-2.68E-01
5.84E+08	7.41E-02	-2.69E-01
5.91E+08	6.97E-02	-2.70E-01
5.99E+08	6.47E-02	-2.72E-01
6.06E+08	6.09E-02	-2.73E-01
6.13E+08	5.61E-02	-2.74E-01
6.21E+08	5.18E-02	-2.75E-01
6.28E+08	4.75E-02	-2.75E-01
6.36E+08	4.28E-02	-2.76E-01
6.43E+08	3.88E-02	-2.77E-01
6.51E+08	3.40E-02	-2.77E-01
6.58E+08	2.96E-02	-2.78E-01
6.66E+08	2.50E-02	-2.78E-01
6.73E+08	2.06E-02	-2.78E-01
6.81E+08	1.66E-02	-2.78E-01
6.88E+08	1.20E-02	-2.79E-01
6.95E+08	7.52E-03	-2.78E-01
7.03E+08	2.87E-03	-2.79E-01
7.10E+08	-1.22E-03	-2.78E-01
7.18E+08	-5.81E-03	-2.78E-01
7.25E+08	-1.01E-02	-2.78E-01
7.33E+08	-1.41E-02	-2.77E-01
7.40E+08	-1.90E-02	-2.77E-01
7.48E+08	-2.28E-02	-2.76E-01
7.55E+08	-2.73E-02	-2.76E-01
7.62E+08	-3.13E-02	-2.75E-01
7.70E+08	-3.58E-02	-2.74E-01
7.77E+08	-3.96E-02	-2.73E-01
7.85E+08	-4.42E-02	-2.72E-01
7.92E+08	-4.82E-02	-2.71E-01
8.00E+08	-5.25E-02	-2.70E-01
8.07E+08	-5.64E-02	-2.68E-01
8.15E+08	-6.03E-02	-2.67E-01
8.22E+08	-6.45E-02	-2.65E-01
8.30E+08	-6.86E-02	-2.64E-01
8.37E+08	-7.28E-02	-2.62E-01
8.44E+08	-7.65E-02	-2.61E-01
8.52E+08	-8.04E-02	-2.59E-01
8.59E+08	-8.43E-02	-2.57E-01
8.67E+08	-8.83E-02	-2.55E-01
8.74E+08	-9.18E-02	-2.53E-01
8.82E+08	-9.58E-02	-2.51E-01
8.89E+08	-9.96E-02	-2.49E-01
8.97E+08	-1.03E-01	-2.46E-01
9.04E+08	-1.07E-01	-2.44E-01
9.11E+08	-1.11E-01	-2.42E-01
9.19E+08	-1.15E-01	-2.40E-01
9.26E+08	-1.18E-01	-2.37E-01
9.34E+08	-1.22E-01	-2.34E-01
9.41E+08	-1.25E-01	-2.31E-01
9.49E+08	-1.29E-01	-2.29E-01
9.56E+08	-1.32E-01	-2.26E-01
9.64E+08	-1.36E-01	-2.23E-01
9.71E+08	-1.39E-01	-2.20E-01
9.79E+08	-1.42E-01	-2.17E-01
9.86E+08	-1.46E-01	-2.14E-01
9.93E+08	-1.49E-01	-2.10E-01
1.00E+09	-1.52E-01	-2.07E-01
1.01E+09	-1.56E-01	-2.04E-01
1.02E+09	-1.59E-01	-2.01E-01
1.02E+09	-1.62E-01	-1.97E-01
1.03E+09	-1.65E-01	-1.94E-01
1.04E+09	-1.68E-01	-1.91E-01
1.05E+09	-1.71E-01	-1.87E-01
1.05E+09	-1.74E-01	-1.83E-01
1.06E+09	-1.78E-01	-1.80E-01
1.07E+09	-1.80E-01	-1.77E-01
1.08E+09	-1.83E-01	-1.72E-01
1.08E+09	-1.86E-01	-1.69E-01
1.09E+09	-1.89E-01	-1.65E-01
1.10E+09	-1.92E-01	-1.61E-01
1.11E+09	-1.94E-01	-1.57E-01
1.11E+09	-1.97E-01	-1.53E-01
1.12E+09	-2.00E-01	-1.49E-01
1.13E+09	-2.02E-01	-1.46E-01
1.13E+09	-2.05E-01	-1.42E-01
1.14E+09	-2.07E-01	-1.37E-01
1.15E+09	-2.10E-01	-1.34E-01
1.16E+09	-2.12E-01	-1.30E-01
1.16E+09	-2.15E-01	-1.26E-01
1.17E+09	-2.17E-01	-1.21E-01
1.18E+09	-2.19E-01	-1.17E-01
1.19E+09	-2.21E-01	-1.13E-01
1.19E+09	-2.23E-01	-1.09E-01
1.20E+09	-2.26E-01	-1.05E-01
1.21E+09	-2.28E-01	-1.01E-01
1.22E+09	-2.30E-01	-9.69E-02
1.22E+09	-2.31E-01	-9.28E-02
1.23E+09	-2.33E-01	-8.88E-02
1.24E+09	-2.34E-01	-8.48E-02
1.25E+09	-2.36E-01	-8.01E-02
1.25E+09	-2.38E-01	-7.65E-02
1.26E+09	-2.39E-01	-7.23E-02
1.27E+09	-2.41E-01	-6.82E-02
1.28E+09	-2.42E-01	-6.42E-02
1.28E+09	-2.43E-01	-6.00E-02
1.29E+09	-2.44E-01	-5.58E-02
1.30E+09	-2.45E-01	-5.15E-02
1.31E+09	-2.46E-01	-4.80E-02
1.31E+09	-2.47E-01	-4.35E-02
1.32E+09	-2.48E-01	-4.01E-02
1.33E+09	-2.48E-01	-3.56E-02
1.34E+09	-2.49E-01	-3.19E-02
1.34E+09	-2.49E-01	-2.79E-02
1.35E+09	-2.49E-01	-2.37E-02
1.36E+09	-2.50E-01	-1.96E-02
1.37E+09	-2.50E-01	-1.56E-02
1.37E+09	-2.50E-01	-1.20E-02
1.38E+09	-2.50E-01	-7.79E-03
1.39E+09	-2.50E-01	-4.37E-03
1.40E+09	-2.50E-01	-1.44E-04
1.40E+09	-2.50E-01	3.50E-03
1.41E+09	-2.50E-01	7.35E-03
1.42E+09	-2.50E-01	1.17E-02
1.43E+09	-2.49E-01	1.54E-02
1.43E+09	-2.48E-01	1.92E-02
1.44E+09	-2.48E-01	2.30E-02
1.45E+09	-2.48E-01	2.70E-02
1.46E+09	-2.46E-01	3.03E-02
1.46E+09	-2.45E-01	3.42E-02
1.47E+09	-2.44E-01	3.76E-02
1.48E+09	-2.43E-01	4.13E-02
1.49E+09	-2.41E-01	4.51E-02
1.49E+09	-2.40E-01	4.86E-02
1.50E+09	-2.39E-01	5.18E-02
