# Hz S RI R 50.000000
! Metas.Vna.Tools, 2.1.6908.24816
! Metas.Vna.Data, 2.1.6908.24809
! Created: UTC 2019.06.23 00:58:44
! FREQ                re:S1,1             im:S1,1          
5.17E+07	-3.14E+01	-1.47E+03
5.47E+07	-4.80E+01	-1.42E+03
5.77E+07	-2.09E+01	-1.32E+03
6.07E+07	-3.40E+01	-1.25E+03
6.36E+07	-2.33E+01	-1.17E+03
6.66E+07	-2.02E+01	-1.16E+03
6.96E+07	-2.76E+00	-1.11E+03
7.26E+07	-2.53E+01	-1.05E+03
7.56E+07	-2.39E+01	-1.04E+03
7.85E+07	-2.61E+01	-9.68E+02
8.15E+07	-2.44E+01	-9.40E+02
8.45E+07	-1.17E+01	-9.06E+02
8.75E+07	-2.20E+01	-8.82E+02
9.05E+07	-1.63E+01	-8.56E+02
9.34E+07	-1.40E+01	-8.14E+02
9.64E+07	-2.89E+01	-8.02E+02
9.94E+07	-1.82E+01	-7.76E+02
1.02E+08	-1.89E+01	-7.55E+02
1.05E+08	-1.84E+01	-7.44E+02
1.08E+08	-1.56E+01	-7.14E+02
1.11E+08	-1.68E+01	-6.95E+02
1.14E+08	-8.10E+00	-6.73E+02
1.17E+08	-8.95E+00	-6.56E+02
1.20E+08	-1.22E+01	-6.45E+02
1.23E+08	-1.04E+01	-6.26E+02
1.26E+08	-1.24E+01	-6.07E+02
1.29E+08	-1.07E+01	-6.02E+02
1.32E+08	-1.05E+01	-5.86E+02
1.35E+08	-1.12E+01	-5.73E+02
1.38E+08	-1.00E+01	-5.60E+02
1.41E+08	-9.22E+00	-5.45E+02
1.44E+08	-8.46E+00	-5.37E+02
1.47E+08	-9.27E+00	-5.25E+02
1.50E+08	-8.68E+00	-5.15E+02
1.53E+08	-7.07E+00	-5.09E+02
1.56E+08	-6.79E+00	-4.95E+02
1.59E+08	-5.48E+00	-4.91E+02
1.62E+08	-7.05E+00	-4.77E+02
1.65E+08	-6.69E+00	-4.69E+02
1.68E+08	-6.41E+00	-4.63E+02
1.71E+08	-5.38E+00	-4.53E+02
1.74E+08	-5.80E+00	-4.46E+02
1.77E+08	-6.14E+00	-4.39E+02
1.80E+08	-6.78E+00	-4.30E+02
1.83E+08	-6.59E+00	-4.23E+02
1.86E+08	-6.34E+00	-4.16E+02
1.89E+08	-6.23E+00	-4.12E+02
1.92E+08	-6.63E+00	-4.03E+02
1.95E+08	-5.51E+00	-3.97E+02
1.98E+08	-4.79E+00	-3.91E+02
2.01E+08	-5.36E+00	-3.83E+02
2.04E+08	-3.43E+00	-3.80E+02
2.07E+08	-3.62E+00	-3.73E+02
2.10E+08	-3.59E+00	-3.70E+02
2.13E+08	-2.65E+00	-3.63E+02
2.16E+08	-2.88E+00	-3.59E+02
2.19E+08	-2.36E+00	-3.53E+02
2.22E+08	-2.95E+00	-3.49E+02
2.25E+08	-2.93E+00	-3.43E+02
2.28E+08	-3.44E+00	-3.39E+02
2.31E+08	-2.94E+00	-3.35E+02
2.34E+08	-2.83E+00	-3.30E+02
2.36E+08	-2.54E+00	-3.26E+02
2.39E+08	-3.19E+00	-3.23E+02
2.42E+08	-2.64E+00	-3.18E+02
2.45E+08	-2.72E+00	-3.14E+02
2.48E+08	-2.66E+00	-3.11E+02
2.51E+08	-2.80E+00	-3.06E+02
2.54E+08	-2.58E+00	-3.03E+02
2.57E+08	-2.54E+00	-3.00E+02
2.60E+08	-2.51E+00	-2.96E+02
2.63E+08	-2.15E+00	-2.93E+02
2.66E+08	-2.12E+00	-2.90E+02
2.69E+08	-1.64E+00	-2.87E+02
2.72E+08	-2.03E+00	-2.83E+02
2.75E+08	-1.78E+00	-2.80E+02
2.78E+08	-1.83E+00	-2.77E+02
2.81E+08	-1.71E+00	-2.74E+02
2.84E+08	-1.71E+00	-2.71E+02
2.87E+08	-1.81E+00	-2.68E+02
2.90E+08	-1.60E+00	-2.65E+02
2.93E+08	-1.78E+00	-2.62E+02
2.96E+08	-1.70E+00	-2.60E+02
2.99E+08	-1.59E+00	-2.57E+02
3.02E+08	-1.47E+00	-2.54E+02
3.05E+08	-1.31E+00	-2.52E+02
3.08E+08	-1.15E+00	-2.49E+02
3.11E+08	-1.12E+00	-2.47E+02
3.14E+08	-1.08E+00	-2.44E+02
3.17E+08	-1.04E+00	-2.42E+02
3.20E+08	-1.01E+00	-2.40E+02
3.23E+08	-8.56E-01	-2.38E+02
3.26E+08	-5.97E-01	-2.36E+02
3.29E+08	-8.45E-01	-2.32E+02
3.32E+08	-8.19E-01	-2.31E+02
3.35E+08	-7.05E-01	-2.29E+02
3.38E+08	-5.16E-01	-2.27E+02
3.41E+08	-7.76E-01	-2.25E+02
3.44E+08	-5.47E-01	-2.23E+02
3.47E+08	-5.50E-01	-2.21E+02
3.50E+08	-3.70E-01	-2.19E+02
3.53E+08	-4.07E-01	-2.17E+02
3.56E+08	-3.01E-01	-2.15E+02
3.59E+08	-3.51E-01	-2.13E+02
3.62E+08	-4.10E-01	-2.11E+02
3.65E+08	-3.49E-01	-2.10E+02
3.68E+08	-2.86E-01	-2.08E+02
3.71E+08	-2.13E-01	-2.06E+02
3.74E+08	-2.02E-01	-2.05E+02
3.77E+08	-1.56E-01	-2.03E+02
3.80E+08	-2.62E-01	-2.02E+02
3.83E+08	-8.54E-02	-1.99E+02
3.85E+08	-2.29E-01	-1.98E+02
3.88E+08	-7.85E-02	-1.96E+02
3.91E+08	1.67E-02	-1.95E+02
3.94E+08	2.30E-02	-1.93E+02
3.97E+08	-6.65E-02	-1.91E+02
4.00E+08	1.23E-01	-1.90E+02
4.03E+08	1.23E-01	-1.88E+02
4.06E+08	8.63E-02	-1.87E+02
4.09E+08	3.30E-02	-1.86E+02
4.12E+08	1.24E-01	-1.84E+02
4.15E+08	-2.12E-03	-1.83E+02
4.18E+08	2.00E-01	-1.81E+02
4.21E+08	1.26E-01	-1.80E+02
4.24E+08	1.45E-01	-1.79E+02
4.27E+08	1.65E-01	-1.77E+02
4.30E+08	2.75E-01	-1.76E+02
4.33E+08	1.81E-01	-1.75E+02
4.36E+08	1.41E-01	-1.73E+02
4.39E+08	2.46E-01	-1.72E+02
4.42E+08	3.20E-01	-1.71E+02
4.45E+08	2.44E-01	-1.70E+02
4.48E+08	3.40E-01	-1.69E+02
4.51E+08	2.54E-01	-1.67E+02
4.54E+08	2.72E-01	-1.66E+02
4.57E+08	2.12E-01	-1.65E+02
4.60E+08	2.20E-01	-1.64E+02
4.63E+08	2.73E-01	-1.63E+02
4.66E+08	3.79E-01	-1.62E+02
4.69E+08	3.44E-01	-1.60E+02
4.72E+08	3.67E-01	-1.59E+02
4.75E+08	3.20E-01	-1.59E+02
4.78E+08	3.81E-01	-1.57E+02
4.81E+08	2.84E-01	-1.56E+02
4.84E+08	3.54E-01	-1.55E+02
4.87E+08	4.05E-01	-1.54E+02
4.90E+08	3.13E-01	-1.53E+02
4.93E+08	2.86E-01	-1.52E+02
4.96E+08	3.69E-01	-1.51E+02
4.99E+08	3.86E-01	-1.50E+02
5.02E+08	2.36E-01	-1.49E+02
5.05E+08	2.40E-01	-1.48E+02
5.08E+08	3.01E-01	-1.47E+02
5.11E+08	2.58E-01	-1.47E+02
5.14E+08	4.15E-01	-1.45E+02
5.17E+08	2.75E-01	-1.45E+02
5.20E+08	2.53E-01	-1.44E+02
5.23E+08	1.89E-01	-1.43E+02
5.26E+08	3.03E-01	-1.42E+02
5.29E+08	2.98E-01	-1.41E+02
5.32E+08	3.73E-01	-1.40E+02
5.34E+08	2.65E-01	-1.39E+02
5.37E+08	3.22E-01	-1.38E+02
5.40E+08	3.60E-01	-1.37E+02
5.43E+08	2.56E-01	-1.37E+02
5.46E+08	2.87E-01	-1.36E+02
5.49E+08	2.85E-01	-1.35E+02
5.52E+08	3.06E-01	-1.34E+02
5.55E+08	3.17E-01	-1.33E+02
5.58E+08	2.64E-01	-1.33E+02
5.61E+08	2.43E-01	-1.32E+02
5.64E+08	2.19E-01	-1.31E+02
5.67E+08	2.72E-01	-1.31E+02
5.70E+08	2.56E-01	-1.30E+02
5.73E+08	2.10E-01	-1.29E+02
5.76E+08	1.64E-01	-1.28E+02
5.79E+08	2.82E-01	-1.27E+02
5.82E+08	2.54E-01	-1.27E+02
5.85E+08	2.15E-01	-1.26E+02
5.88E+08	3.30E-01	-1.25E+02
5.91E+08	2.09E-01	-1.25E+02
5.94E+08	1.43E-01	-1.24E+02
5.97E+08	2.32E-01	-1.23E+02
6.00E+08	1.54E-01	-1.22E+02
6.03E+08	1.55E-01	-1.22E+02
6.06E+08	2.09E-01	-1.21E+02
6.09E+08	1.54E-01	-1.21E+02
6.12E+08	1.74E-01	-1.20E+02
6.15E+08	1.12E-01	-1.19E+02
6.18E+08	7.25E-02	-1.19E+02
6.21E+08	1.05E-01	-1.18E+02
6.24E+08	1.02E-01	-1.17E+02
6.27E+08	8.02E-02	-1.17E+02
6.30E+08	1.16E-01	-1.16E+02
6.33E+08	6.99E-02	-1.15E+02
6.36E+08	1.19E-01	-1.15E+02
6.39E+08	6.78E-02	-1.14E+02
6.42E+08	7.26E-02	-1.14E+02
6.45E+08	1.84E-02	-1.13E+02
6.48E+08	6.37E-02	-1.12E+02
6.51E+08	1.76E-02	-1.12E+02
6.54E+08	-2.33E-02	-1.11E+02
6.57E+08	9.62E-03	-1.11E+02
6.60E+08	-6.88E-03	-1.10E+02
6.63E+08	-4.57E-02	-1.10E+02
6.66E+08	-9.80E-02	-1.09E+02
6.69E+08	-6.24E-02	-1.08E+02
6.72E+08	-6.99E-02	-1.08E+02
6.75E+08	-6.03E-02	-1.07E+02
6.78E+08	-9.41E-02	-1.07E+02
6.81E+08	-1.19E-01	-1.06E+02
6.83E+08	-1.14E-01	-1.06E+02
6.86E+08	-1.06E-01	-1.05E+02
6.89E+08	-1.64E-01	-1.05E+02
6.92E+08	-1.66E-01	-1.04E+02
6.95E+08	-2.29E-01	-1.04E+02
6.98E+08	-1.99E-01	-1.03E+02
7.01E+08	-1.70E-01	-1.03E+02
7.04E+08	-2.09E-01	-1.02E+02
7.07E+08	-2.07E-01	-1.01E+02
7.10E+08	-1.66E-01	-1.01E+02
7.13E+08	-2.71E-01	-1.01E+02
7.16E+08	-2.28E-01	-9.99E+01
7.19E+08	-2.18E-01	-9.95E+01
7.22E+08	-2.43E-01	-9.90E+01
7.25E+08	-2.45E-01	-9.86E+01
7.28E+08	-2.99E-01	-9.81E+01
7.31E+08	-2.77E-01	-9.76E+01
7.34E+08	-3.15E-01	-9.72E+01
7.37E+08	-3.01E-01	-9.67E+01
7.40E+08	-2.96E-01	-9.63E+01
7.43E+08	-3.01E-01	-9.58E+01
7.46E+08	-3.37E-01	-9.53E+01
7.49E+08	-3.31E-01	-9.49E+01
7.52E+08	-3.56E-01	-9.45E+01
7.55E+08	-3.16E-01	-9.39E+01
7.58E+08	-3.62E-01	-9.35E+01
7.61E+08	-3.59E-01	-9.32E+01
7.64E+08	-3.63E-01	-9.27E+01
7.67E+08	-3.62E-01	-9.22E+01
7.70E+08	-3.82E-01	-9.19E+01
7.73E+08	-3.89E-01	-9.14E+01
7.76E+08	-4.00E-01	-9.09E+01
7.79E+08	-3.67E-01	-9.06E+01
7.82E+08	-3.90E-01	-9.02E+01
7.85E+08	-3.94E-01	-8.97E+01
7.88E+08	-3.81E-01	-8.93E+01
7.91E+08	-3.71E-01	-8.90E+01
7.94E+08	-4.18E-01	-8.86E+01
7.97E+08	-4.07E-01	-8.81E+01
8.00E+08	-4.13E-01	-8.77E+01
8.03E+08	-4.44E-01	-8.74E+01
8.06E+08	-4.54E-01	-8.70E+01
8.09E+08	-4.51E-01	-8.66E+01
8.12E+08	-4.39E-01	-8.62E+01
8.15E+08	-4.61E-01	-8.58E+01
8.18E+08	-5.21E-01	-8.55E+01
8.21E+08	-4.48E-01	-8.50E+01
8.24E+08	-4.59E-01	-8.47E+01
8.27E+08	-4.14E-01	-8.42E+01
8.30E+08	-4.59E-01	-8.40E+01
8.32E+08	-4.99E-01	-8.36E+01
8.35E+08	-4.57E-01	-8.32E+01
8.38E+08	-4.43E-01	-8.29E+01
8.41E+08	-4.39E-01	-8.24E+01
8.44E+08	-4.89E-01	-8.21E+01
8.47E+08	-4.73E-01	-8.18E+01
8.50E+08	-4.67E-01	-8.13E+01
8.53E+08	-4.44E-01	-8.10E+01
8.56E+08	-4.74E-01	-8.06E+01
8.59E+08	-5.04E-01	-8.04E+01
8.62E+08	-4.81E-01	-8.00E+01
8.65E+08	-4.79E-01	-7.98E+01
8.68E+08	-5.29E-01	-7.94E+01
8.71E+08	-5.23E-01	-7.90E+01
8.74E+08	-4.91E-01	-7.87E+01
8.77E+08	-4.89E-01	-7.83E+01
8.80E+08	-4.71E-01	-7.80E+01
8.83E+08	-5.03E-01	-7.76E+01
8.86E+08	-5.34E-01	-7.73E+01
8.89E+08	-5.24E-01	-7.70E+01
8.92E+08	-4.83E-01	-7.68E+01
8.95E+08	-4.56E-01	-7.64E+01
8.98E+08	-4.68E-01	-7.61E+01
9.01E+08	-4.99E-01	-7.58E+01
9.04E+08	-4.57E-01	-7.55E+01
9.07E+08	-4.76E-01	-7.52E+01
9.10E+08	-4.86E-01	-7.48E+01
9.13E+08	-4.72E-01	-7.45E+01
9.16E+08	-4.71E-01	-7.43E+01
9.19E+08	-4.60E-01	-7.39E+01
9.22E+08	-4.25E-01	-7.36E+01
9.25E+08	-4.38E-01	-7.33E+01
9.28E+08	-4.39E-01	-7.30E+01
9.31E+08	-4.44E-01	-7.28E+01
9.34E+08	-4.21E-01	-7.25E+01
9.37E+08	-4.42E-01	-7.21E+01
9.40E+08	-4.63E-01	-7.19E+01
9.43E+08	-4.33E-01	-7.16E+01
9.46E+08	-4.20E-01	-7.13E+01
9.49E+08	-4.56E-01	-7.10E+01
9.52E+08	-4.32E-01	-7.08E+01
9.55E+08	-4.30E-01	-7.04E+01
9.58E+08	-4.51E-01	-7.02E+01
9.61E+08	-4.24E-01	-6.99E+01
9.64E+08	-4.15E-01	-6.96E+01
9.67E+08	-4.31E-01	-6.94E+01
9.70E+08	-3.71E-01	-6.91E+01
9.73E+08	-3.80E-01	-6.88E+01
9.76E+08	-3.79E-01	-6.85E+01
9.79E+08	-3.87E-01	-6.83E+01
9.81E+08	-3.66E-01	-6.80E+01
9.84E+08	-3.79E-01	-6.77E+01
9.87E+08	-3.80E-01	-6.75E+01
9.90E+08	-3.82E-01	-6.71E+01
9.93E+08	-3.71E-01	-6.69E+01
9.96E+08	-3.43E-01	-6.67E+01
9.99E+08	-3.99E-01	-6.64E+01
1.00E+09	-3.81E-01	-6.62E+01
1.01E+09	-3.85E-01	-6.59E+01
1.01E+09	-3.90E-01	-6.56E+01
1.01E+09	-3.08E-01	-6.54E+01
1.01E+09	-3.18E-01	-6.51E+01
1.02E+09	-3.52E-01	-6.48E+01
1.02E+09	-3.14E-01	-6.47E+01
1.02E+09	-3.19E-01	-6.44E+01
1.03E+09	-3.46E-01	-6.41E+01
1.03E+09	-3.05E-01	-6.39E+01
1.03E+09	-2.88E-01	-6.36E+01
1.04E+09	-3.07E-01	-6.34E+01
1.04E+09	-3.06E-01	-6.31E+01
1.04E+09	-2.94E-01	-6.29E+01
1.04E+09	-2.87E-01	-6.27E+01
1.05E+09	-2.77E-01	-6.24E+01
1.05E+09	-2.71E-01	-6.22E+01
1.05E+09	-2.70E-01	-6.20E+01
1.06E+09	-2.54E-01	-6.17E+01
1.06E+09	-2.50E-01	-6.15E+01
1.06E+09	-2.66E-01	-6.12E+01
1.06E+09	-2.48E-01	-6.10E+01
1.07E+09	-2.67E-01	-6.08E+01
1.07E+09	-2.20E-01	-6.05E+01
1.07E+09	-1.98E-01	-6.03E+01
1.08E+09	-2.16E-01	-6.01E+01
1.08E+09	-2.21E-01	-5.98E+01
1.08E+09	-1.86E-01	-5.97E+01
1.09E+09	-1.85E-01	-5.94E+01
1.09E+09	-1.88E-01	-5.91E+01
1.09E+09	-1.88E-01	-5.89E+01
1.09E+09	-1.72E-01	-5.87E+01
1.10E+09	-2.30E-01	-5.85E+01
1.10E+09	-1.64E-01	-5.82E+01
1.10E+09	-1.63E-01	-5.80E+01
1.11E+09	-1.14E-01	-5.79E+01
1.11E+09	-1.55E-01	-5.76E+01
1.11E+09	-1.63E-01	-5.73E+01
1.12E+09	-1.37E-01	-5.72E+01
1.12E+09	-1.01E-01	-5.69E+01
1.12E+09	-1.40E-01	-5.67E+01
1.12E+09	-1.03E-01	-5.64E+01
1.13E+09	-1.50E-01	-5.63E+01
1.13E+09	-1.05E-01	-5.60E+01
1.13E+09	-7.35E-02	-5.59E+01
1.14E+09	-1.11E-01	-5.56E+01
1.14E+09	-8.57E-02	-5.54E+01
1.14E+09	-9.23E-02	-5.52E+01
1.15E+09	-7.56E-02	-5.50E+01
1.15E+09	-6.72E-02	-5.48E+01
1.15E+09	-4.72E-02	-5.46E+01
1.15E+09	-3.92E-02	-5.43E+01
1.16E+09	-5.05E-02	-5.41E+01
1.16E+09	-4.21E-02	-5.39E+01
1.16E+09	-3.05E-02	-5.37E+01
1.17E+09	-3.92E-02	-5.35E+01
1.17E+09	-6.44E-02	-5.33E+01
1.17E+09	-2.60E-02	-5.31E+01
1.18E+09	-4.13E-02	-5.29E+01
1.18E+09	-2.30E-02	-5.27E+01
1.18E+09	-2.94E-02	-5.25E+01
1.18E+09	-7.61E-03	-5.23E+01
1.19E+09	-2.54E-02	-5.21E+01
1.19E+09	-2.43E-02	-5.19E+01
1.19E+09	-3.29E-03	-5.17E+01
1.20E+09	1.30E-02	-5.15E+01
1.20E+09	2.98E-02	-5.13E+01
1.20E+09	4.02E-03	-5.11E+01
1.20E+09	1.21E-02	-5.09E+01
1.21E+09	1.13E-02	-5.07E+01
1.21E+09	8.68E-03	-5.05E+01
1.21E+09	3.76E-02	-5.02E+01
1.22E+09	3.25E-02	-5.01E+01
1.22E+09	2.04E-03	-4.99E+01
1.22E+09	2.22E-02	-4.97E+01
1.23E+09	4.89E-02	-4.95E+01
1.23E+09	-3.63E-03	-4.93E+01
1.23E+09	2.08E-02	-4.91E+01
1.23E+09	4.59E-02	-4.89E+01
1.24E+09	3.09E-02	-4.87E+01
1.24E+09	1.04E-02	-4.85E+01
1.24E+09	3.93E-02	-4.83E+01
1.25E+09	3.25E-02	-4.81E+01
1.25E+09	1.32E-02	-4.79E+01
1.25E+09	5.95E-02	-4.78E+01
1.26E+09	5.09E-02	-4.76E+01
1.26E+09	5.30E-02	-4.74E+01
1.26E+09	6.35E-02	-4.72E+01
1.26E+09	4.35E-02	-4.70E+01
1.27E+09	6.23E-02	-4.68E+01
1.27E+09	4.40E-02	-4.66E+01
1.27E+09	5.41E-02	-4.64E+01
1.28E+09	4.38E-02	-4.63E+01
1.28E+09	4.74E-02	-4.61E+01
1.28E+09	3.50E-02	-4.59E+01
1.29E+09	7.59E-02	-4.57E+01
1.29E+09	4.68E-02	-4.55E+01
1.29E+09	7.73E-02	-4.53E+01
1.29E+09	1.12E-02	-4.52E+01
1.30E+09	7.39E-02	-4.50E+01
1.30E+09	7.31E-02	-4.48E+01
1.30E+09	6.87E-02	-4.46E+01
1.31E+09	1.10E-01	-4.44E+01
1.31E+09	8.85E-02	-4.43E+01
1.31E+09	6.36E-02	-4.41E+01
1.32E+09	8.79E-02	-4.39E+01
1.32E+09	1.01E-01	-4.37E+01
1.32E+09	6.24E-02	-4.36E+01
1.32E+09	6.46E-02	-4.34E+01
1.33E+09	4.00E-02	-4.32E+01
1.33E+09	6.72E-02	-4.30E+01
1.33E+09	7.07E-02	-4.28E+01
1.34E+09	6.35E-02	-4.27E+01
1.34E+09	6.68E-02	-4.25E+01
1.34E+09	8.18E-02	-4.23E+01
1.35E+09	1.02E-01	-4.22E+01
1.35E+09	4.38E-02	-4.19E+01
1.35E+09	4.56E-02	-4.18E+01
1.35E+09	7.14E-02	-4.16E+01
1.36E+09	2.05E-02	-4.15E+01
1.36E+09	8.61E-02	-4.13E+01
1.36E+09	4.38E-02	-4.11E+01
1.37E+09	9.01E-02	-4.09E+01
1.37E+09	6.77E-02	-4.08E+01
1.37E+09	4.06E-02	-4.07E+01
1.37E+09	1.04E-01	-4.04E+01
1.38E+09	7.40E-02	-4.03E+01
1.38E+09	3.43E-02	-4.01E+01
1.38E+09	4.36E-02	-4.00E+01
1.39E+09	2.92E-02	-3.98E+01
1.39E+09	6.62E-02	-3.96E+01
1.39E+09	-1.97E-03	-3.95E+01
1.40E+09	1.55E-02	-3.93E+01
1.40E+09	8.25E-02	-3.91E+01
1.40E+09	3.06E-02	-3.90E+01
1.40E+09	3.53E-02	-3.88E+01
1.41E+09	4.58E-02	-3.87E+01
1.41E+09	2.34E-02	-3.85E+01
1.41E+09	5.40E-03	-3.84E+01
1.42E+09	2.65E-02	-3.81E+01
1.42E+09	-6.22E-03	-3.81E+01
1.42E+09	1.03E-02	-3.79E+01
1.43E+09	1.31E-02	-3.78E+01
1.43E+09	-2.33E-02	-3.76E+01
1.43E+09	-2.11E-02	-3.74E+01
1.43E+09	-6.54E-02	-3.73E+01
1.44E+09	-1.04E-02	-3.71E+01
1.44E+09	-8.96E-03	-3.69E+01
1.44E+09	-6.13E-02	-3.68E+01
1.45E+09	-7.46E-02	-3.67E+01
1.45E+09	-5.31E-02	-3.65E+01
1.45E+09	-5.64E-02	-3.64E+01
1.46E+09	-6.95E-02	-3.63E+01
1.46E+09	-9.92E-02	-3.61E+01
1.46E+09	-7.10E-02	-3.59E+01
1.46E+09	-6.02E-02	-3.58E+01
1.47E+09	-4.75E-02	-3.56E+01
1.47E+09	-2.00E-02	-3.55E+01
1.47E+09	-5.82E-02	-3.54E+01
1.48E+09	-6.98E-02	-3.52E+01
1.48E+09	-6.61E-02	-3.51E+01
1.48E+09	-8.26E-02	-3.49E+01
1.49E+09	-8.75E-02	-3.48E+01
1.49E+09	-7.86E-02	-3.46E+01
1.49E+09	-1.18E-01	-3.45E+01
1.49E+09	-1.12E-01	-3.43E+01
1.50E+09	-9.52E-02	-3.42E+01
1.50E+09	-8.29E-02	-3.41E+01
