# Hz S RI R 50.000000
+1.00000000000E+007  +1.22737034362E-003  -8.88601517320E-005
+1.19866666667E+007  +1.20028757349E-003  +1.67043881829E-004
+1.39733333333E+007  +1.19759024039E-003  +1.91198702887E-004
+1.59600000000E+007  +1.33500595111E-003  +6.75045261541E-005
+1.79466666667E+007  +1.48291788052E-003  -1.43069089916E-005
+1.99333333333E+007  +1.63512427383E-003  +2.42210876226E-004
+2.19200000000E+007  +1.70742550187E-003  +2.31145368231E-006
+2.39066666667E+007  +1.45801740624E-003  -1.20676929572E-004
+2.58933333333E+007  +1.36407494575E-003  +3.16978208169E-004
+2.78800000000E+007  +1.43346215371E-003  +2.36662348959E-004
+2.98666666667E+007  +1.59473073866E-003  +3.90752081023E-004
+3.18533333333E+007  +1.19963378290E-003  -5.35915218735E-005
+3.38400000000E+007  +1.50108930747E-003  -1.11899322130E-004
+3.58266666667E+007  +1.33369136980E-003  +5.49090265026E-005
+3.78133333333E+007  +1.22072595319E-003  -3.16408018805E-004
+3.98000000000E+007  +1.21544589818E-003  +2.05962886763E-004
+4.17866666667E+007  +1.27561438455E-003  -1.17189101375E-004
+4.37733333333E+007  +1.45911842820E-003  -1.03522422115E-004
+4.57600000000E+007  +1.76867060424E-003  -1.23610354172E-004
+4.77466666667E+007  +1.82871597060E-003  +1.89661210107E-004
+4.97333333333E+007  +1.24251643300E-003  +8.40146959839E-005
+5.17200000000E+007  +1.26827327804E-003  +1.03064859340E-004
+5.37066666667E+007  +1.63123095822E-003  +1.60682919851E-004
+5.56933333333E+007  +1.56629928434E-003  +7.06690686959E-005
+5.76800000000E+007  +1.36796575709E-003  -3.69060742399E-004
+5.96666666667E+007  +1.45878351200E-003  +5.99015538322E-005
+6.16533333333E+007  +1.34243570231E-003  +5.00287741918E-004
+6.36400000000E+007  +1.08431004439E-003  +5.30330592173E-004
+6.56266666667E+007  +1.46480686722E-003  -1.27198470891E-004
+6.76133333333E+007  +1.41649681493E-003  -1.24528201842E-004
+6.96000000000E+007  +1.50930403704E-003  +3.74210139090E-004
+7.15866666667E+007  +1.54207064497E-003  -1.77032531847E-004
+7.35733333333E+007  +1.58031432964E-003  -2.82301086620E-005
+7.55600000000E+007  +1.33069840922E-003  +1.11521718275E-004
+7.75466666667E+007  +1.42093379981E-003  -3.50756138548E-004
+7.95333333333E+007  +1.31401273506E-003  -8.39735230579E-007
+8.15200000000E+007  +1.16349024388E-003  -6.37860338875E-006
+8.35066666667E+007  +1.51438848166E-003  +3.62369372448E-005
+8.54933333333E+007  +1.41489063393E-003  +9.52332943380E-005
+8.74800000000E+007  +9.45368154339E-004  +3.79328861171E-004
+8.94666666667E+007  +1.07295443957E-003  +3.73164347464E-005
+9.14533333333E+007  +1.62263751252E-003  +5.10505687885E-005
+9.34400000000E+007  +1.42392867439E-003  -3.33976741197E-004
+9.54266666667E+007  +1.47408220652E-003  +1.62569922368E-004
+9.74133333333E+007  +1.30084262472E-003  +6.77619502068E-005
+9.94000000000E+007  +1.25222187711E-003  -1.62364718365E-004
+1.01386666667E+008  +1.47615715805E-003  +2.69640699308E-004
+1.03373333333E+008  +1.49350428354E-003  +3.94929319716E-004
+1.05360000000E+008  +1.19376499704E-003  -9.31178987947E-005
+1.07346666667E+008  +1.52633295613E-003  +4.18971126787E-005
+1.09333333333E+008  +1.62893711198E-003  -1.64856179495E-004
+1.11320000000E+008  +1.17037905772E-003  -5.52505209899E-004
+1.13306666667E+008  +1.40016500185E-003  +4.81363903799E-005
+1.15293333333E+008  +1.27040856088E-003  -3.21426684436E-004
+1.17280000000E+008  +1.31748103995E-003  -3.38379937761E-004
+1.19266666667E+008  +1.55142654747E-003  -1.02184406502E-004
+1.21253333333E+008  +1.72165530187E-003  -2.73900683314E-004
+1.23240000000E+008  +1.87853596982E-003  -4.49966199487E-005
+1.25226666667E+008  +1.23620941061E-003  -1.92038929692E-004
+1.27213333333E+008  +1.37890588784E-003  +9.15409442208E-005
+1.29200000000E+008  +1.54264930264E-003  +1.81118055163E-004
+1.31186666667E+008  +1.54723281456E-003  -4.38546715488E-004
+1.33173333333E+008  +1.47784649439E-003  +7.65873766953E-005
+1.35160000000E+008  +1.30295997179E-003  -6.06117826856E-005
+1.37146666667E+008  +1.65860664869E-003  -1.39818523565E-004
+1.39133333333E+008  +1.48130800754E-003  -2.40080809743E-004
+1.41120000000E+008  +1.17880471597E-003  +2.03075767920E-004
+1.43106666667E+008  +1.29394502634E-003  -1.28426662245E-004
+1.45093333333E+008  +1.33120761749E-003  -3.05236333081E-004
+1.47080000000E+008  +1.17735135925E-003  -1.90367826804E-004
+1.49066666667E+008  +1.14123124036E-003  -6.49010532745E-005
+1.51053333333E+008  +1.59281079407E-003  -4.63648187169E-004
+1.53040000000E+008  +1.59613659483E-003  -1.59591627557E-004
+1.55026666667E+008  +1.49578817096E-003  -2.06009575227E-005
+1.57013333333E+008  +1.65277304063E-003  -2.85562222250E-004
+1.59000000000E+008  +1.58654079684E-003  -3.95403196581E-004
+1.60986666667E+008  +1.22401606381E-003  -1.44021850641E-004
+1.62973333333E+008  +1.75359106928E-003  -2.74698105802E-004
+1.64960000000E+008  +1.23426009863E-003  -9.78843446626E-005
+1.66946666667E+008  +1.71512814712E-003  +2.32273084774E-004
+1.68933333333E+008  +1.07489436558E-003  -1.48073299505E-004
+1.70920000000E+008  +1.22330789675E-003  -4.74861755661E-005
+1.72906666667E+008  +1.44619570859E-003  -4.01018392789E-004
+1.74893333333E+008  +1.62147443646E-003  +3.11538428198E-005
+1.76880000000E+008  +1.61730336382E-003  +9.04161702712E-005
+1.78866666667E+008  +1.42338598563E-003  -3.11834301124E-004
+1.80853333333E+008  +1.50287168641E-003  -5.38262656253E-004
+1.82840000000E+008  +1.72478345177E-003  +4.41500390611E-005
+1.84826666667E+008  +1.13923308338E-003  -7.65677530579E-005
+1.86813333333E+008  +1.35560335879E-003  +3.58298418033E-004
+1.88800000000E+008  +1.45048106058E-003  -4.85745554044E-005
+1.90786666667E+008  +1.48874958652E-003  -5.06876970139E-004
+1.92773333333E+008  +1.34544007275E-003  -3.28501684676E-004
+1.94760000000E+008  +1.47057918818E-003  -2.44718123663E-004
+1.96746666667E+008  +1.35092965433E-003  -2.01500958873E-004
+1.98733333333E+008  +1.40840982665E-003  -2.29056787997E-005
+2.00720000000E+008  +1.60819024754E-003  -3.96725677804E-004
+2.02706666667E+008  +1.44936252197E-003  -2.75234472421E-004
+2.04693333333E+008  +1.55134935605E-003  -1.31702037650E-004
+2.06680000000E+008  +1.38268091452E-003  -7.97490332271E-005
+2.08666666667E+008  +9.71605312279E-004  -4.46445631236E-005
+2.10653333333E+008  +1.61371928312E-003  -1.71497257449E-005
+2.12640000000E+008  +1.48178515593E-003  -1.35523434687E-004
+2.14626666667E+008  +1.36238083165E-003  -1.04679716971E-004
+2.16613333333E+008  +1.36840557702E-003  -1.82925167863E-004
+2.18600000000E+008  +1.35598008289E-003  -1.50408925785E-004
+2.20586666667E+008  +1.12415079274E-003  +8.53910249582E-005
+2.22573333333E+008  +1.37625892117E-003  -1.71063503485E-004
+2.24560000000E+008  +1.02359337853E-003  -2.36909675168E-004
+2.26546666667E+008  +1.39843659533E-003  -2.57012517744E-004
+2.28533333333E+008  +1.66746292647E-003  -6.94764619383E-005
+2.30520000000E+008  +1.40971270473E-003  -1.30791256941E-004
+2.32506666667E+008  +1.34109278930E-003  -8.64291224422E-005
+2.34493333333E+008  +1.19946090590E-003  -2.39468742054E-004
+2.36480000000E+008  +1.76886336503E-003  -1.59640097844E-004
+2.38466666667E+008  +1.60109491915E-003  +7.77231331369E-005
+2.40453333333E+008  +1.81105578081E-003  +1.49348814242E-004
+2.42440000000E+008  +1.57560007583E-003  +9.21723965506E-005
+2.44426666667E+008  +1.63648422271E-003  -4.01867740435E-005
+2.46413333333E+008  +1.15633649356E-003  -2.03535352911E-004
+2.48400000000E+008  +1.20232944876E-003  -1.93993699613E-004
+2.50386666667E+008  +1.53918991151E-003  -2.56473613514E-004
+2.52373333333E+008  +1.45179678053E-003  -7.60427029868E-004
+2.54360000000E+008  +1.42046120558E-003  -3.60135764222E-005
+2.56346666667E+008  +1.01645298226E-003  -2.26874802876E-004
+2.58333333333E+008  +1.13901515007E-003  -6.23184392366E-004
+2.60320000000E+008  +9.70259564406E-004  -2.21390848413E-004
+2.62306666667E+008  +1.41731422667E-003  -3.93296826225E-004
+2.64293333333E+008  +1.39374542835E-003  -3.40294998286E-004
+2.66280000000E+008  +1.64902514143E-003  -2.88432744604E-004
+2.68266666667E+008  +1.31669427067E-003  -1.88652803086E-004
+2.70253333333E+008  +1.53031154330E-003  +5.58511323488E-005
+2.72240000000E+008  +1.47478744744E-003  -3.98755971870E-004
+2.74226666667E+008  +1.51651005391E-003  -5.42148676406E-004
+2.76213333333E+008  +1.54948699285E-003  -5.53819681237E-004
+2.78200000000E+008  +1.28366533132E-003  +1.24489428136E-004
+2.80186666667E+008  +1.14829874637E-003  -2.28233938794E-004
+2.82173333333E+008  +1.18531845754E-003  -1.25678165312E-004
+2.84160000000E+008  +1.63443526995E-003  -5.29310678286E-004
+2.86146666667E+008  +1.24339820275E-003  -1.04826016319E-004
+2.88133333333E+008  +1.83452602017E-003  -3.26663248129E-004
+2.90120000000E+008  +1.36625469838E-003  -3.07122661548E-004
+2.92106666667E+008  +1.40143855007E-003  +1.03671705205E-004
+2.94093333333E+008  +1.35423085798E-003  -1.14180932294E-004
+2.96080000000E+008  +1.66650562557E-003  -4.15684411220E-004
+2.98066666667E+008  +1.11631882799E-003  -1.76975186692E-004
+3.00053333333E+008  +1.78476943216E-003  -1.97057915157E-004
+3.02040000000E+008  +1.71870007143E-003  -3.82272665735E-004
+3.04026666667E+008  +1.37268377106E-003  -5.87791694969E-004
+3.06013333333E+008  +1.02701021389E-003  -1.07441210840E-004
+3.08000000000E+008  +1.34277002231E-003  -4.23767474617E-004
+3.09986666667E+008  +1.26797359453E-003  -2.71965753668E-004
+3.11973333333E+008  +1.36641182602E-003  -4.66252424310E-004
+3.13960000000E+008  +1.38772109608E-003  -3.41033429640E-004
+3.15946666667E+008  +1.56567947028E-003  -1.38221715427E-004
+3.17933333333E+008  +1.29376902905E-003  -3.79730728168E-004
+3.19920000000E+008  +1.16113941042E-003  -4.85905797158E-004
+3.21906666667E+008  +1.28851602050E-003  +7.49318709096E-005
+3.23893333333E+008  +1.46619192505E-003  -8.42113984784E-005
+3.25880000000E+008  +9.31747304717E-004  -4.08553512528E-004
+3.27866666667E+008  +1.57208771201E-003  -3.06414507128E-004
+3.29853333333E+008  +1.33127419636E-003  -3.26107079854E-004
+3.31840000000E+008  +1.01886573440E-003  -4.92747447223E-005
+3.33826666667E+008  +9.88802539818E-004  -3.85041769752E-004
+3.35813333333E+008  +1.13538885261E-003  -3.39105390518E-004
+3.37800000000E+008  +1.67160060686E-003  -5.26242040411E-004
+3.39786666667E+008  +1.21711476163E-003  -4.45889096991E-004
+3.41773333333E+008  +1.33638629946E-003  -3.64996387232E-004
+3.43760000000E+008  +1.26098281811E-003  -1.75510246673E-004
+3.45746666667E+008  +1.62933073357E-003  -1.63261072625E-004
+3.47733333333E+008  +1.11919245020E-003  -1.69402849194E-004
+3.49720000000E+008  +1.43498008908E-003  -3.12201503658E-004
+3.51706666667E+008  +1.26949204408E-003  -7.56663920634E-004
+3.53693333333E+008  +1.38926110021E-003  -1.34201913754E-004
+3.55680000000E+008  +1.18135856357E-003  -3.03106000198E-004
+3.57666666667E+008  +8.80207095628E-004  -4.90976357926E-004
+3.59653333333E+008  +1.28177175009E-003  -5.57888353090E-004
+3.61640000000E+008  +1.24496019893E-003  -8.22241707890E-005
+3.63626666667E+008  +1.13009198585E-003  -5.27270694115E-004
+3.65613333333E+008  +1.63232559338E-003  -8.52958138823E-005
+3.67600000000E+008  +1.21829505659E-003  -3.84580008020E-004
+3.69586666667E+008  +1.47800807943E-003  -4.22500768152E-004
+3.71573333333E+008  +1.13704580662E-003  -4.66477362650E-004
+3.73560000000E+008  +1.17628826992E-003  -3.62559326086E-004
+3.75546666667E+008  +1.12132202683E-003  -4.21723254090E-004
+3.77533333333E+008  +1.39694172296E-003  -1.56009540241E-004
+3.79520000000E+008  +1.15575332798E-003  -6.96710089091E-005
+3.81506666667E+008  +8.90855572383E-004  -5.15579899732E-004
+3.83493333333E+008  +1.45443876725E-003  -4.26948735930E-004
+3.85480000000E+008  +1.21508513117E-003  -3.12366977278E-004
+3.87466666667E+008  +1.34480670240E-003  -6.00913555799E-004
+3.89453333333E+008  +1.39317137889E-003  -3.10232985242E-004
+3.91440000000E+008  +1.12573790683E-003  -4.93303616724E-004
+3.93426666667E+008  +1.12631333658E-003  -3.20982422150E-004
+3.95413333333E+008  +1.26495033720E-003  -5.50724334891E-004
+3.97400000000E+008  +9.80486930178E-004  -6.65039289903E-004
+3.99386666667E+008  +1.40038135681E-003  -6.11096753773E-004
+4.01373333333E+008  +1.27074146482E-003  -1.50863572686E-004
+4.03360000000E+008  +9.46455348453E-004  -4.57010973833E-004
+4.05346666667E+008  +9.91313731605E-004  -4.29908169067E-004
+4.07333333333E+008  +1.58381295636E-003  -2.17166563167E-004
+4.09320000000E+008  +1.30236200212E-003  -7.65270624144E-004
+4.11306666667E+008  +1.10103297764E-003  -5.79385654663E-004
+4.13293333333E+008  +1.27268701694E-003  -7.31829192362E-004
+4.15280000000E+008  +1.03180821404E-003  -9.35629575185E-004
+4.17266666667E+008  +9.89947799095E-004  -3.14573236848E-004
+4.19253333333E+008  +1.07482850706E-003  -2.39978185826E-004
+4.21240000000E+008  +1.40844449901E-003  -2.25888658792E-004
+4.23226666667E+008  +8.95681193284E-004  +6.72008166458E-005
+4.25213333333E+008  +1.32798781821E-003  -2.85553602652E-004
+4.27200000000E+008  +1.26309325570E-003  -4.05162882904E-004
+4.29186666667E+008  +1.13512756493E-003  -7.15093542662E-004
+4.31173333333E+008  +1.26519923009E-003  -6.56314251424E-004
+4.33160000000E+008  +1.13180232839E-003  -3.34048951116E-004
+4.35146666667E+008  +1.28637704251E-003  -1.77724413180E-004
+4.37133333333E+008  +1.18097891123E-003  -3.06986703750E-004
+4.39120000000E+008  +1.00793733663E-003  -6.47085958692E-004
+4.41106666667E+008  +9.41574329576E-004  -3.04370391369E-004
+4.43093333333E+008  +1.22237302861E-003  -2.22027934347E-004
+4.45080000000E+008  +1.14292071355E-003  -5.27219598225E-004
+4.47066666667E+008  +1.10984037697E-003  -4.93943693859E-004
+4.49053333333E+008  +1.23671451941E-003  -4.77300642489E-004
+4.51040000000E+008  +1.05799304902E-003  -1.29528810691E-004
+4.53026666667E+008  +9.93858450802E-004  -2.41212403834E-004
+4.55013333333E+008  +1.29515467268E-003  -7.11539852861E-004
+4.57000000000E+008  +1.49342268214E-003  -1.85674434964E-004
+4.58986666667E+008  +1.06776752444E-003  -6.77626486713E-004
+4.60973333333E+008  +1.10904668810E-003  -4.49397255008E-004
+4.62960000000E+008  +1.22597149712E-003  -1.63845538104E-004
+4.64946666667E+008  +1.19905208984E-003  -3.44465230062E-004
+4.66933333333E+008  +1.28396358943E-003  -4.85787874805E-004
+4.68920000000E+008  +1.21667119835E-003  -4.89753852978E-004
+4.70906666667E+008  +1.08119581800E-003  -6.69412999238E-004
+4.72893333333E+008  +9.54703948606E-004  -3.12679077119E-004
+4.74880000000E+008  +1.09037030025E-003  -7.01032459275E-004
+4.76866666667E+008  +1.31909717133E-003  -3.27577149450E-004
+4.78853333333E+008  +1.08094356559E-003  -1.64359407778E-004
+4.80840000000E+008  +9.98624822886E-004  -4.57311282344E-004
+4.82826666667E+008  +8.49983173953E-004  -3.34497607831E-004
+4.84813333333E+008  +8.05289837259E-004  -1.52802186530E-004
+4.86800000000E+008  +1.13192549971E-003  -4.61629747434E-004
+4.88786666667E+008  +1.29454331209E-003  -3.98708086431E-004
+4.90773333333E+008  +1.17227996617E-003  -2.54673213778E-004
+4.92760000000E+008  +9.85439901204E-004  -5.28644551452E-004
+4.94746666667E+008  +9.65053489219E-004  -7.94926916062E-005
+4.96733333333E+008  +1.23580358126E-003  -5.29763768328E-004
+4.98720000000E+008  +9.85434164910E-004  -5.02704062735E-004
+5.00706666667E+008  +1.02090259421E-003  -2.11425118899E-004
+5.02693333333E+008  +7.75092270447E-004  -4.20460650516E-004
+5.04680000000E+008  +8.19943556658E-004  -2.79132292649E-004
+5.06666666667E+008  +1.27327812196E-003  -2.28319708829E-005
+5.08653333333E+008  +1.31991008886E-003  -5.00282273750E-004
+5.10640000000E+008  +9.33729956551E-004  -4.74878922882E-004
+5.12626666667E+008  +9.15622702741E-004  -6.62851339482E-004
+5.14613333333E+008  +5.90219597167E-004  -4.73067461127E-004
+5.16600000000E+008  +8.41302870101E-004  -8.02590551401E-004
+5.18586666667E+008  +9.96299928656E-004  -2.40600629485E-004
+5.20573333333E+008  +8.54335778028E-004  -3.07155441162E-004
+5.22560000000E+008  +1.21574572825E-003  -2.89461033312E-004
+5.24546666667E+008  +9.87532773569E-004  -4.93853003050E-004
+5.26533333333E+008  +1.04017339226E-003  -3.53496410798E-004
+5.28520000000E+008  +1.15287858223E-003  -6.54770315910E-004
+5.30506666667E+008  +1.00642009122E-003  -5.74614021951E-004
+5.32493333333E+008  +1.33924113684E-003  -6.30349843774E-004
+5.34480000000E+008  +9.65891805340E-004  -6.11445421848E-004
+5.36466666667E+008  +1.16258451890E-003  -6.86176742914E-004
+5.38453333333E+008  +1.27656183590E-003  -6.26232656415E-004
+5.40440000000E+008  +8.51707341974E-004  -4.80985593655E-004
+5.42426666667E+008  +9.37020881796E-004  -6.40296243200E-004
+5.44413333333E+008  +4.07013538212E-004  -2.62672414858E-004
+5.46400000000E+008  +7.20084562139E-004  -2.34716404021E-004
+5.48386666667E+008  +1.04798105493E-003  -2.26039153200E-004
+5.50373333333E+008  +9.83642084956E-004  -3.98356963314E-004
+5.52360000000E+008  +1.06225748911E-003  -4.58003072322E-004
+5.54346666667E+008  +8.06668414563E-004  -5.04801338057E-004
+5.56333333333E+008  +1.21601427153E-003  -4.85766549264E-004
+5.58320000000E+008  +9.66345308594E-004  -7.51369208063E-004
+5.60306666667E+008  +1.15029764755E-003  -6.28140672698E-004
+5.62293333333E+008  +1.03477419230E-003  -1.16841538374E-004
+5.64280000000E+008  +1.11420377232E-003  -3.11495101671E-004
+5.66266666667E+008  +1.23333472168E-003  -4.77076613939E-004
+5.68253333333E+008  +6.32745296087E-004  -3.78454554269E-004
+5.70240000000E+008  +5.74768940820E-004  -6.20023431647E-004
+5.72226666667E+008  +1.03424164709E-003  -5.93925264722E-004
+5.74213333333E+008  +1.07367829233E-003  -5.70148978723E-004
+5.76200000000E+008  +6.68267039765E-004  -6.89222283820E-004
+5.78186666667E+008  +1.04802477501E-003  -5.99594246711E-004
+5.80173333333E+008  +1.23028638531E-003  -3.60964541078E-004
+5.82160000000E+008  +1.38675856051E-003  -2.16898563348E-004
+5.84146666667E+008  +7.74758040022E-004  -4.36596154517E-004
+5.86133333333E+008  +8.94146107778E-004  -5.48964010621E-004
+5.88120000000E+008  +8.70392797404E-004  -8.94855181272E-004
+5.90106666667E+008  +9.96217469274E-004  -6.13354729530E-004
+5.92093333333E+008  +1.00516852218E-003  -5.99612564956E-004
+5.94080000000E+008  +7.51261473696E-004  -3.53073215780E-004
+5.96066666667E+008  +7.86877840062E-004  -5.59552557705E-004
+5.98053333333E+008  +9.87686412775E-004  -4.54372702041E-004
+6.00040000000E+008  +9.51240510764E-004  -6.60172190349E-004
+6.02026666667E+008  +5.73257964344E-004  -2.68459804658E-004
+6.04013333333E+008  +9.89285723417E-004  -1.02007246259E-004
+6.06000000000E+008  +8.67158191150E-004  -6.38382390437E-004
+6.07986666667E+008  +7.02566885598E-004  -2.38045088908E-004
+6.09973333333E+008  +8.85035763768E-004  -2.95988493322E-004
+6.11960000000E+008  +6.23091662549E-004  -5.23998992651E-004
+6.13946666667E+008  +7.42033053199E-004  -6.58216770938E-004
+6.15933333333E+008  +8.37826092890E-004  -2.93007510200E-004
+6.17920000000E+008  +9.00162109808E-004  -3.96404968608E-004
+6.19906666667E+008  +8.91325781300E-004  -3.87815678986E-004
+6.21893333333E+008  +9.33716751893E-004  -6.30098631523E-004
+6.23880000000E+008  +7.44849788247E-004  +1.33974197473E-004
+6.25866666667E+008  +8.69643787259E-004  -5.44828869577E-004
+6.27853333333E+008  +8.31551458897E-004  -4.63661014976E-004
+6.29840000000E+008  +6.99641641655E-004  -4.93949584819E-004
+6.31826666667E+008  +8.98176243043E-004  -6.39616555359E-004
+6.33813333333E+008  +1.20887689953E-003  -4.89672520106E-004
+6.35800000000E+008  +8.84165208072E-004  -2.85473024681E-004
+6.37786666667E+008  +1.05225831181E-003  -3.99769535479E-004
+6.39773333333E+008  +5.45284829386E-004  -5.85316729879E-004
+6.41760000000E+008  +4.84185756922E-004  -6.50624331341E-004
+6.43746666667E+008  +7.21772589929E-004  -4.82716755898E-004
+6.45733333333E+008  +9.16854592153E-004  -6.34834871185E-004
+6.47720000000E+008  +3.14461677788E-004  -1.94348781032E-004
