# Hz S RI R 50.000000
! FREQ                re:S1  1             im:S1  1  
+1.00000000000E+007  -9.99586092140E-001  +2.73841465951E-003
+1.19866666667E+007  -9.99802267563E-001  +3.01780866590E-003
+1.39733333333E+007  -9.99733917368E-001  +3.38549954362E-003
+1.59600000000E+007  -9.99675758341E-001  +4.35795641454E-003
+1.79466666667E+007  -9.99608730530E-001  +4.58641401654E-003
+1.99333333333E+007  -9.99641643847E-001  +4.75643344828E-003
+2.19200000000E+007  -9.99545887260E-001  +5.57186491351E-003
+2.39066666667E+007  -9.99787459295E-001  +5.63585671595E-003
+2.58933333333E+007  -9.99619728060E-001  +6.10992152478E-003
+2.78800000000E+007  -9.99637259422E-001  +7.00338209569E-003
+2.98666666667E+007  -9.99321970457E-001  +7.06216229367E-003
+3.18533333333E+007  -9.99371480564E-001  +7.75357288098E-003
+3.38400000000E+007  -9.99709197109E-001  +8.20632469382E-003
+3.58266666667E+007  -9.99506216906E-001  +8.54907441766E-003
+3.78133333333E+007  -9.99415089775E-001  +9.18103274936E-003
+3.98000000000E+007  -9.99531905092E-001  +9.25069394355E-003
+4.17866666667E+007  -9.99374174952E-001  +1.01071853690E-002
+4.37733333333E+007  -9.99547044923E-001  +1.03354158533E-002
+4.57600000000E+007  -9.99385367260E-001  +1.08243820120E-002
+4.77466666667E+007  -9.99270293180E-001  +1.14014622243E-002
+4.97333333333E+007  -9.99599411557E-001  +1.19824927479E-002
+5.17200000000E+007  -9.99304907056E-001  +1.23851865161E-002
+5.37066666667E+007  -9.99222983202E-001  +1.28819425708E-002
+5.56933333333E+007  -9.99113150617E-001  +1.29026129221E-002
+5.76800000000E+007  -9.99332196625E-001  +1.39357180794E-002
+5.96666666667E+007  -9.99242863491E-001  +1.41611857902E-002
+6.16533333333E+007  -9.99477718182E-001  +1.45938321007E-002
+6.36400000000E+007  -9.99177665542E-001  +1.49988877650E-002
+6.56266666667E+007  -9.99390661917E-001  +1.54452491128E-002
+6.76133333333E+007  -9.98998196811E-001  +1.60682823488E-002
+6.96000000000E+007  -9.98893832751E-001  +1.64273885856E-002
+7.15866666667E+007  -9.99176043249E-001  +1.69250565915E-002
+7.35733333333E+007  -9.99107261655E-001  +1.73460645733E-002
+7.55600000000E+007  -9.99111098188E-001  +1.80214759622E-002
+7.75466666667E+007  -9.98933010921E-001  +1.81973068931E-002
+7.95333333333E+007  -9.98999371785E-001  +1.84897669629E-002
+8.15200000000E+007  -9.98842996342E-001  +1.90472732554E-002
+8.35066666667E+007  -9.98543629451E-001  +1.95964721946E-002
+8.54933333333E+007  -9.99002871584E-001  +2.03094758350E-002
+8.74800000000E+007  -9.98579284695E-001  +2.05971472249E-002
+8.94666666667E+007  -9.98726527222E-001  +2.09478822565E-002
+9.14533333333E+007  -9.98905793265E-001  +2.13140226089E-002
+9.34400000000E+007  -9.98888002155E-001  +2.20424163815E-002
+9.54266666667E+007  -9.98724775260E-001  +2.26649411927E-002
+9.74133333333E+007  -9.99018324832E-001  +2.25636732942E-002
+9.94000000000E+007  -9.98761103460E-001  +2.30381255326E-002
+1.01386666667E+008  -9.98828596331E-001  +2.36663081820E-002
+1.03373333333E+008  -9.99073527732E-001  +2.43014628746E-002
+1.05360000000E+008  -9.98656540495E-001  +2.45492099985E-002
+1.07346666667E+008  -9.98563254406E-001  +2.51250351005E-002
+1.09333333333E+008  -9.98652298864E-001  +2.56365540652E-002
+1.11320000000E+008  -9.98493148896E-001  +2.57865529100E-002
+1.13306666667E+008  -9.99098804727E-001  +2.64072156316E-002
+1.15293333333E+008  -9.98517656724E-001  +2.67409475707E-002
+1.17280000000E+008  -9.98699116239E-001  +2.71940963050E-002
+1.19266666667E+008  -9.98624018002E-001  +2.76693086859E-002
+1.21253333333E+008  -9.98602148849E-001  +2.79543069840E-002
+1.23240000000E+008  -9.98612770002E-001  +2.85611387884E-002
+1.25226666667E+008  -9.98469000457E-001  +2.93827423512E-002
+1.27213333333E+008  -9.98346997787E-001  +2.95458297167E-002
+1.29200000000E+008  -9.98202611436E-001  +3.05073374506E-002
+1.31186666667E+008  -9.98341208655E-001  +3.07208797284E-002
+1.33173333333E+008  -9.98152946763E-001  +3.09773452611E-002
+1.35160000000E+008  -9.98443991239E-001  +3.17195142408E-002
+1.37146666667E+008  -9.98364842627E-001  +3.16139489963E-002
+1.39133333333E+008  -9.98102766753E-001  +3.19384063260E-002
+1.41120000000E+008  -9.98322723076E-001  +3.27346462089E-002
+1.43106666667E+008  -9.98277807514E-001  +3.31554996821E-002
+1.45093333333E+008  -9.98256640549E-001  +3.36218202495E-002
+1.47080000000E+008  -9.97985136574E-001  +3.44318821755E-002
+1.49066666667E+008  -9.98139468958E-001  +3.47346909608E-002
+1.51053333333E+008  -9.98097206414E-001  +3.49165322870E-002
+1.53040000000E+008  -9.98038152344E-001  +3.54707194450E-002
+1.55026666667E+008  -9.97879112419E-001  +3.58832362945E-002
+1.57013333333E+008  -9.98103496480E-001  +3.64085408114E-002
+1.59000000000E+008  -9.98011017005E-001  +3.66826528294E-002
+1.60986666667E+008  -9.97968756082E-001  +3.74365920119E-002
+1.62973333333E+008  -9.97983501519E-001  +3.79665184198E-002
+1.64960000000E+008  -9.98046434721E-001  +3.82947209280E-002
+1.66946666667E+008  -9.97773455261E-001  +3.87989346568E-002
+1.68933333333E+008  -9.97928334575E-001  +3.90821110617E-002
+1.70920000000E+008  -9.97913537926E-001  +3.97760911178E-002
+1.72906666667E+008  -9.97913208213E-001  +3.98781439349E-002
+1.74893333333E+008  -9.97877146173E-001  +4.04780776054E-002
+1.76880000000E+008  -9.97516730534E-001  +4.07283648276E-002
+1.78866666667E+008  -9.97767938473E-001  +4.12128918531E-002
+1.80853333333E+008  -9.97797563266E-001  +4.15752165491E-002
+1.82840000000E+008  -9.97709061161E-001  +4.24381617641E-002
+1.84826666667E+008  -9.97533060199E-001  +4.26670437838E-002
+1.86813333333E+008  -9.97836143676E-001  +4.32594565726E-002
+1.88800000000E+008  -9.97850012883E-001  +4.39004699811E-002
+1.90786666667E+008  -9.97640118584E-001  +4.43397591852E-002
+1.92773333333E+008  -9.97434745343E-001  +4.46721162892E-002
+1.94760000000E+008  -9.97686405929E-001  +4.46915430517E-002
+1.96746666667E+008  -9.97573236410E-001  +4.53806007337E-002
+1.98733333333E+008  -9.97528028329E-001  +4.56537895676E-002
+2.00720000000E+008  -9.97688265656E-001  +4.64552503340E-002
+2.02706666667E+008  -9.97990574301E-001  +4.69886777551E-002
+2.04693333333E+008  -9.97869078432E-001  +4.71496205068E-002
+2.06680000000E+008  -9.97915158828E-001  +4.75581448036E-002
+2.08666666667E+008  -9.97603748125E-001  +4.82001800783E-002
+2.10653333333E+008  -9.97735222468E-001  +4.85013130719E-002
+2.12640000000E+008  -9.97211822888E-001  +4.90790270915E-002
+2.14626666667E+008  -9.97453882130E-001  +4.92843195869E-002
+2.16613333333E+008  -9.97656677799E-001  +4.99346838861E-002
+2.18600000000E+008  -9.97695470746E-001  +5.05307207503E-002
+2.20586666667E+008  -9.97454101316E-001  +5.02101592874E-002
+2.22573333333E+008  -9.97562738729E-001  +5.10470027476E-002
+2.24560000000E+008  -9.97029528489E-001  +5.19323560276E-002
+2.26546666667E+008  -9.97376241911E-001  +5.22329344970E-002
+2.28533333333E+008  -9.97436531414E-001  +5.26165989591E-002
+2.30520000000E+008  -9.97213623441E-001  +5.30058089005E-002
+2.32506666667E+008  -9.96978147594E-001  +5.36548217919E-002
+2.34493333333E+008  -9.97265188551E-001  +5.39539939264E-002
+2.36480000000E+008  -9.97243749566E-001  +5.46998795949E-002
+2.38466666667E+008  -9.96431423044E-001  +5.47611504925E-002
+2.40453333333E+008  -9.96664546375E-001  +5.49779350005E-002
+2.42440000000E+008  -9.96833644410E-001  +5.57854825387E-002
+2.44426666667E+008  -9.96937314249E-001  +5.62469022958E-002
+2.46413333333E+008  -9.96587333516E-001  +5.66590348146E-002
+2.48400000000E+008  -9.97142177560E-001  +5.74923127295E-002
+2.50386666667E+008  -9.96546630379E-001  +5.78581323105E-002
+2.52373333333E+008  -9.97183410041E-001  +5.82473100492E-002
+2.54360000000E+008  -9.96688198504E-001  +5.82913133539E-002
+2.56346666667E+008  -9.96718777266E-001  +5.86777449891E-002
+2.58333333333E+008  -9.96439304727E-001  +5.92773148000E-002
+2.60320000000E+008  -9.96803192036E-001  +6.00450288002E-002
+2.62306666667E+008  -9.96595308577E-001  +6.04735285578E-002
+2.64293333333E+008  -9.96824568375E-001  +6.07522553662E-002
+2.66280000000E+008  -9.96173026786E-001  +6.12571520804E-002
+2.68266666667E+008  -9.96443185646E-001  +6.18867323614E-002
+2.70253333333E+008  -9.96277467106E-001  +6.24013966344E-002
+2.72240000000E+008  -9.96537302881E-001  +6.28555318418E-002
+2.74226666667E+008  -9.96432228570E-001  +6.30628652777E-002
+2.76213333333E+008  -9.96730917382E-001  +6.29638462191E-002
+2.78200000000E+008  -9.96310208063E-001  +6.39494393680E-002
+2.80186666667E+008  -9.96458659342E-001  +6.43987510627E-002
+2.82173333333E+008  -9.96242452029E-001  +6.45258906021E-002
+2.84160000000E+008  -9.96377550682E-001  +6.51439781352E-002
+2.86146666667E+008  -9.95937266230E-001  +6.55464399018E-002
+2.88133333333E+008  -9.95991706870E-001  +6.60531902959E-002
+2.90120000000E+008  -9.96076676094E-001  +6.67718875794E-002
+2.92106666667E+008  -9.95984844554E-001  +6.71484734084E-002
+2.94093333333E+008  -9.96246820654E-001  +6.69497478228E-002
+2.96080000000E+008  -9.95592518732E-001  +6.77612913289E-002
+2.98066666667E+008  -9.96414229738E-001  +6.82402641497E-002
+3.00053333333E+008  -9.96040868558E-001  +6.89774528958E-002
+3.02040000000E+008  -9.96272183431E-001  +6.93572174865E-002
+3.04026666667E+008  -9.95948976531E-001  +6.92580770274E-002
+3.06013333333E+008  -9.96177622502E-001  +7.00462247725E-002
+3.08000000000E+008  -9.96114159577E-001  +7.07619297612E-002
+3.09986666667E+008  -9.95484614161E-001  +7.08742640127E-002
+3.11973333333E+008  -9.95726924195E-001  +7.11994700730E-002
+3.13960000000E+008  -9.95384123299E-001  +7.20650909818E-002
+3.15946666667E+008  -9.95769493636E-001  +7.22833307330E-002
+3.17933333333E+008  -9.95733701241E-001  +7.28480809365E-002
+3.19920000000E+008  -9.95320502981E-001  +7.33027147816E-002
+3.21906666667E+008  -9.95771882873E-001  +7.38994335597E-002
+3.23893333333E+008  -9.95445695458E-001  +7.41399377294E-002
+3.25880000000E+008  -9.95517878859E-001  +7.43588611622E-002
+3.27866666667E+008  -9.95149329341E-001  +7.51342844375E-002
+3.29853333333E+008  -9.94910809509E-001  +7.54970992095E-002
+3.31840000000E+008  -9.95468115323E-001  +7.60720912292E-002
+3.33826666667E+008  -9.95347055575E-001  +7.60649439675E-002
+3.35813333333E+008  -9.94801198040E-001  +7.67595315260E-002
+3.37800000000E+008  -9.95118455157E-001  +7.74132790178E-002
+3.39786666667E+008  -9.94513926475E-001  +7.74818824341E-002
+3.41773333333E+008  -9.95242279345E-001  +7.83312329527E-002
+3.43760000000E+008  -9.95464327555E-001  +7.88760985716E-002
+3.45746666667E+008  -9.94894248070E-001  +7.88785364018E-002
+3.47733333333E+008  -9.94926508487E-001  +7.96406542013E-002
+3.49720000000E+008  -9.95127522094E-001  +7.99936268995E-002
+3.51706666667E+008  -9.94928164860E-001  +8.04497351605E-002
+3.53693333333E+008  -9.94904079606E-001  +8.09782536024E-002
+3.55680000000E+008  -9.94998431454E-001  +8.14203743642E-002
+3.57666666667E+008  -9.94748067599E-001  +8.18024035107E-002
+3.59653333333E+008  -9.94749473101E-001  +8.18964926998E-002
+3.61640000000E+008  -9.94289795687E-001  +8.30568153682E-002
+3.63626666667E+008  -9.94243359924E-001  +8.33777649117E-002
+3.65613333333E+008  -9.94659859169E-001  +8.33703115248E-002
+3.67600000000E+008  -9.94439220494E-001  +8.42630720096E-002
+3.69586666667E+008  -9.94110050517E-001  +8.46596286528E-002
+3.71573333333E+008  -9.94950441414E-001  +8.49092869657E-002
+3.73560000000E+008  -9.94681144663E-001  +8.59042198851E-002
+3.75546666667E+008  -9.94230294117E-001  +8.55172809195E-002
+3.77533333333E+008  -9.94075970583E-001  +8.62041808838E-002
+3.79520000000E+008  -9.93548804888E-001  +8.70462069621E-002
+3.81506666667E+008  -9.94419011769E-001  +8.76115486184E-002
+3.83493333333E+008  -9.94057118699E-001  +8.78043323577E-002
+3.85480000000E+008  -9.94426613490E-001  +8.84436985615E-002
+3.87466666667E+008  -9.93534377680E-001  +8.79376497601E-002
+3.89453333333E+008  -9.93795172615E-001  +8.88437341779E-002
+3.91440000000E+008  -9.93991349580E-001  +8.95690956327E-002
+3.93426666667E+008  -9.93655836333E-001  +8.99605916237E-002
+3.95413333333E+008  -9.93972005347E-001  +9.04389983051E-002
+3.97400000000E+008  -9.94482854071E-001  +9.05201898928E-002
+3.99386666667E+008  -9.93915821844E-001  +9.12582361214E-002
+4.01373333333E+008  -9.93423277881E-001  +9.18348864782E-002
+4.03360000000E+008  -9.93691506178E-001  +9.20400429142E-002
+4.05346666667E+008  -9.93956831252E-001  +9.23818295511E-002
+4.07333333333E+008  -9.93653571791E-001  +9.33539238223E-002
+4.09320000000E+008  -9.94065555213E-001  +9.33945885826E-002
+4.11306666667E+008  -9.93571800843E-001  +9.38448193660E-002
+4.13293333333E+008  -9.93606038091E-001  +9.46632985716E-002
+4.15280000000E+008  -9.93392335693E-001  +9.43428744251E-002
+4.17266666667E+008  -9.93549144980E-001  +9.53960874234E-002
+4.19253333333E+008  -9.93314505833E-001  +9.56714990518E-002
+4.21240000000E+008  -9.93436771688E-001  +9.58008735760E-002
+4.23226666667E+008  -9.93332323106E-001  +9.68292827489E-002
+4.25213333333E+008  -9.93763737158E-001  +9.74218735790E-002
+4.27200000000E+008  -9.92834938760E-001  +9.78758342837E-002
+4.29186666667E+008  -9.93165553745E-001  +9.80152471002E-002
+4.31173333333E+008  -9.93031387041E-001  +9.83216951198E-002
+4.33160000000E+008  -9.92992305413E-001  +9.86119957850E-002
+4.35146666667E+008  -9.93253028954E-001  +9.91589296239E-002
+4.37133333333E+008  -9.92857479071E-001  +9.99916658189E-002
+4.39120000000E+008  -9.93242236094E-001  +1.00454265103E-001
+4.41106666667E+008  -9.92748000905E-001  +1.01136454139E-001
+4.43093333333E+008  -9.92667108138E-001  +1.01538354894E-001
+4.45080000000E+008  -9.92777150655E-001  +1.01513113411E-001
+4.47066666667E+008  -9.92780908778E-001  +1.02081767850E-001
+4.49053333333E+008  -9.92445385436E-001  +1.02853448850E-001
+4.51040000000E+008  -9.92256565942E-001  +1.03274873023E-001
+4.53026666667E+008  -9.92463951079E-001  +1.03851036013E-001
+4.55013333333E+008  -9.92428173790E-001  +1.03504728107E-001
+4.57000000000E+008  -9.92461489856E-001  +1.04126686866E-001
+4.58986666667E+008  -9.92309129609E-001  +1.04663803597E-001
+4.60973333333E+008  -9.92397342569E-001  +1.05225409313E-001
+4.62960000000E+008  -9.92124395177E-001  +1.05932459363E-001
+4.64946666667E+008  -9.91613300731E-001  +1.05421870969E-001
+4.66933333333E+008  -9.92185565587E-001  +1.05951516907E-001
+4.68920000000E+008  -9.92041723443E-001  +1.06980253192E-001
+4.70906666667E+008  -9.91843013145E-001  +1.07254567387E-001
+4.72893333333E+008  -9.92392594920E-001  +1.07581088149E-001
+4.74880000000E+008  -9.91556602620E-001  +1.08581202363E-001
+4.76866666667E+008  -9.92049923648E-001  +1.08492590699E-001
+4.78853333333E+008  -9.91575717568E-001  +1.09293896528E-001
+4.80840000000E+008  -9.91187097595E-001  +1.09301574734E-001
+4.82826666667E+008  -9.91074500893E-001  +1.10231800769E-001
+4.84813333333E+008  -9.91437499921E-001  +1.10751161123E-001
+4.86800000000E+008  -9.91982870994E-001  +1.10620025878E-001
+4.88786666667E+008  -9.91454837817E-001  +1.10940718099E-001
+4.90773333333E+008  -9.91330219883E-001  +1.12170163849E-001
+4.92760000000E+008  -9.91417263992E-001  +1.12317460811E-001
+4.94746666667E+008  -9.91322907045E-001  +1.13365485427E-001
+4.96733333333E+008  -9.91402641991E-001  +1.13074962098E-001
+4.98720000000E+008  -9.90693633699E-001  +1.13854912315E-001
+5.00706666667E+008  -9.91197693672E-001  +1.14449634434E-001
+5.02693333333E+008  -9.91297877604E-001  +1.14504311316E-001
+5.04680000000E+008  -9.90920187199E-001  +1.15101486085E-001
+5.06666666667E+008  -9.90611120330E-001  +1.15145555368E-001
+5.08653333333E+008  -9.91022637766E-001  +1.16029870520E-001
+5.10640000000E+008  -9.90740821241E-001  +1.16226459103E-001
+5.12626666667E+008  -9.90457653055E-001  +1.16957673040E-001
+5.14613333333E+008  -9.91343703933E-001  +1.17606288770E-001
+5.16600000000E+008  -9.90398224340E-001  +1.17734993424E-001
+5.18586666667E+008  -9.90163516208E-001  +1.18055580621E-001
+5.20573333333E+008  -9.90531333349E-001  +1.18476279671E-001
+5.22560000000E+008  -9.90769171633E-001  +1.18407836044E-001
+5.24546666667E+008  -9.90474788601E-001  +1.18798667614E-001
+5.26533333333E+008  -9.90573704047E-001  +1.19645263326E-001
+5.28520000000E+008  -9.90264345673E-001  +1.20662689701E-001
+5.30506666667E+008  -9.90183620787E-001  +1.20315678346E-001
+5.32493333333E+008  -9.89728955778E-001  +1.20695180877E-001
+5.34480000000E+008  -9.90024769683E-001  +1.21829690448E-001
+5.36466666667E+008  -9.89979299391E-001  +1.21159870571E-001
+5.38453333333E+008  -9.89576386818E-001  +1.22133572728E-001
+5.40440000000E+008  -9.89933174050E-001  +1.22850160024E-001
+5.42426666667E+008  -9.89948243093E-001  +1.23497900427E-001
+5.44413333333E+008  -9.89772632095E-001  +1.24209043188E-001
+5.46400000000E+008  -9.89522589084E-001  +1.24328640748E-001
+5.48386666667E+008  -9.89951807005E-001  +1.24535189144E-001
+5.50373333333E+008  -9.89395345887E-001  +1.26036360219E-001
+5.52360000000E+008  -9.89923072342E-001  +1.25762522448E-001
+5.54346666667E+008  -9.89338432356E-001  +1.26290711029E-001
+5.56333333333E+008  -9.89151775071E-001  +1.26212072976E-001
+5.58320000000E+008  -9.89473968020E-001  +1.27051488330E-001
+5.60306666667E+008  -9.89617636872E-001  +1.27563561259E-001
+5.62293333333E+008  -9.89194866576E-001  +1.27895167866E-001
+5.64280000000E+008  -9.89152042946E-001  +1.28813013968E-001
+5.66266666667E+008  -9.89185967952E-001  +1.28834246067E-001
+5.68253333333E+008  -9.88927440487E-001  +1.29716072587E-001
+5.70240000000E+008  -9.89351162822E-001  +1.29312145538E-001
+5.72226666667E+008  -9.88935547874E-001  +1.29935355995E-001
+5.74213333333E+008  -9.88592561284E-001  +1.30421419596E-001
+5.76200000000E+008  -9.89217192053E-001  +1.30998688773E-001
+5.78186666667E+008  -9.88610819215E-001  +1.31571983019E-001
+5.80173333333E+008  -9.88830796980E-001  +1.31854417964E-001
+5.82160000000E+008  -9.88563473318E-001  +1.32247170720E-001
+5.84146666667E+008  -9.88950711292E-001  +1.32515270490E-001
+5.86133333333E+008  -9.88128692970E-001  +1.33500523427E-001
+5.88120000000E+008  -9.88557585877E-001  +1.33233911663E-001
+5.90106666667E+008  -9.88035115394E-001  +1.34098228771E-001
+5.92093333333E+008  -9.88294769451E-001  +1.34545349857E-001
+5.94080000000E+008  -9.88384688970E-001  +1.34782595240E-001
+5.96066666667E+008  -9.87709485868E-001  +1.35364425041E-001
+5.98053333333E+008  -9.88397709358E-001  +1.36263553412E-001
+6.00040000000E+008  -9.87602067601E-001  +1.35713927501E-001
+6.02026666667E+008  -9.87977423852E-001  +1.36835246156E-001
+6.04013333333E+008  -9.87974506105E-001  +1.37101444500E-001
+6.06000000000E+008  -9.88177331156E-001  +1.38053589050E-001
+6.07986666667E+008  -9.87131044075E-001  +1.37265925982E-001
+6.09973333333E+008  -9.87835038470E-001  +1.38333536328E-001
+6.11960000000E+008  -9.87614154223E-001  +1.38818706084E-001
+6.13946666667E+008  -9.87837738405E-001  +1.39166020390E-001
+6.15933333333E+008  -9.87989408390E-001  +1.40560192479E-001
+6.17920000000E+008  -9.87443410184E-001  +1.40865113066E-001
+6.19906666667E+008  -9.87476319709E-001  +1.40800491938E-001
+6.21893333333E+008  -9.87532766739E-001  +1.40913255118E-001
+6.23880000000E+008  -9.87294364523E-001  +1.41534564404E-001
+6.25866666667E+008  -9.86961700672E-001  +1.41933429124E-001
+6.27853333333E+008  -9.87064262781E-001  +1.42216161918E-001
+6.29840000000E+008  -9.86556980476E-001  +1.43317266192E-001
+6.31826666667E+008  -9.86776551862E-001  +1.43729173942E-001
+6.33813333333E+008  -9.86827362481E-001  +1.44203930612E-001
+6.35800000000E+008  -9.86753700814E-001  +1.44623978736E-001
+6.37786666667E+008  -9.86865710467E-001  +1.44844551752E-001
+6.39773333333E+008  -9.86497148043E-001  +1.45319758013E-001
+6.41760000000E+008  -9.86783098780E-001  +1.45765842205E-001
+6.43746666667E+008  -9.86546379243E-001  +1.46194064970E-001
+6.45733333333E+008  -9.86736562808E-001  +1.46260791650E-001
