# Hz S RI R 50.000000
+1.00000000000E+007  +9.99832501184E-001  -2.16258115950E-003
+1.19866666667E+007  +1.00001724785E+000  -2.71787518223E-003
+1.39733333333E+007  +9.99701919592E-001  -3.53285882737E-003
+1.59600000000E+007  +1.00037871290E+000  -3.90041866226E-003
+1.79466666667E+007  +1.00034775428E+000  -4.82483263060E-003
+1.99333333333E+007  +9.99392754516E-001  -4.95653531016E-003
+2.19200000000E+007  +9.99893577504E-001  -5.84613236174E-003
+2.39066666667E+007  +9.99541920819E-001  -6.32040423904E-003
+2.58933333333E+007  +9.99839050622E-001  -6.56079864661E-003
+2.78800000000E+007  +1.00017431418E+000  -7.44028213301E-003
+2.98666666667E+007  +1.00013283403E+000  -7.79985531930E-003
+3.18533333333E+007  +9.99408044089E-001  -8.20570448475E-003
+3.38400000000E+007  +9.99910525163E-001  -9.10074003929E-003
+3.58266666667E+007  +9.99861611183E-001  -9.29294974201E-003
+3.78133333333E+007  +9.99885035672E-001  -9.61484966555E-003
+3.98000000000E+007  +1.00015987639E+000  -1.06901379282E-002
+4.17866666667E+007  +9.99884984027E-001  -1.03924878579E-002
+4.37733333333E+007  +9.99778325758E-001  -1.12988597528E-002
+4.57600000000E+007  +9.99949914610E-001  -1.21041825472E-002
+4.77466666667E+007  +1.00023434499E+000  -1.24473307685E-002
+4.97333333333E+007  +1.00047221921E+000  -1.35167569232E-002
+5.17200000000E+007  +9.99808645584E-001  -1.32588485202E-002
+5.37066666667E+007  +1.00065457338E+000  -1.40420867176E-002
+5.56933333333E+007  +9.99873191168E-001  -1.41183073312E-002
+5.76800000000E+007  +9.99958173209E-001  -1.44422366866E-002
+5.96666666667E+007  +1.00002393184E+000  -1.52126730490E-002
+6.16533333333E+007  +1.00028961584E+000  -1.64431060819E-002
+6.36400000000E+007  +9.99199556308E-001  -1.70194650798E-002
+6.56266666667E+007  +9.99366694545E-001  -1.73419477304E-002
+6.76133333333E+007  +9.99678182071E-001  -1.80533291209E-002
+6.96000000000E+007  +9.99623441911E-001  -1.82140247135E-002
+7.15866666667E+007  +1.00005373675E+000  -1.85886604840E-002
+7.35733333333E+007  +9.99627177281E-001  -1.89166145011E-002
+7.55600000000E+007  +9.99714461037E-001  -1.99018516814E-002
+7.75466666667E+007  +9.99965106325E-001  -2.04367526898E-002
+7.95333333333E+007  +9.99862330184E-001  -2.11248449674E-002
+8.15200000000E+007  +9.98941851132E-001  -2.19874365664E-002
+8.35066666667E+007  +9.99324322064E-001  -2.21330739267E-002
+8.54933333333E+007  +9.99434882658E-001  -2.24794110461E-002
+8.74800000000E+007  +1.00000666517E+000  -2.25920585584E-002
+8.94666666667E+007  +1.00001898935E+000  -2.34419605754E-002
+9.14533333333E+007  +1.00018980580E+000  -2.45017844903E-002
+9.34400000000E+007  +1.00010839150E+000  -2.48543459394E-002
+9.54266666667E+007  +9.99924329368E-001  -2.51876518764E-002
+9.74133333333E+007  +9.99468075612E-001  -2.53582281529E-002
+9.94000000000E+007  +9.99064927746E-001  -2.59178953880E-002
+1.01386666667E+008  +9.99365257302E-001  -2.65872098846E-002
+1.03373333333E+008  +9.99490786771E-001  -2.69971797281E-002
+1.05360000000E+008  +9.99654470407E-001  -2.74861818630E-002
+1.07346666667E+008  +9.98991228884E-001  -2.78295288003E-002
+1.09333333333E+008  +9.99847140084E-001  -2.91488290773E-002
+1.11320000000E+008  +9.99020225576E-001  -2.96223361089E-002
+1.13306666667E+008  +1.00011914925E+000  -2.92945675948E-002
+1.15293333333E+008  +9.99493240450E-001  -3.02352680846E-002
+1.17280000000E+008  +9.99568559594E-001  -3.07293555369E-002
+1.19266666667E+008  +9.99732338272E-001  -3.14765283947E-002
+1.21253333333E+008  +9.99398206391E-001  -3.18174668411E-002
+1.23240000000E+008  +9.99568095692E-001  -3.22059717651E-002
+1.25226666667E+008  +9.99858417788E-001  -3.27990480918E-002
+1.27213333333E+008  +9.99262531855E-001  -3.31299362493E-002
+1.29200000000E+008  +9.99327687393E-001  -3.38970273019E-002
+1.31186666667E+008  +9.99462763129E-001  -3.47760944251E-002
+1.33173333333E+008  +9.99734935597E-001  -3.48830166419E-002
+1.35160000000E+008  +9.99150940684E-001  -3.54653006299E-002
+1.37146666667E+008  +9.98945534374E-001  -3.58697239105E-002
+1.39133333333E+008  +9.99743844079E-001  -3.64914236738E-002
+1.41120000000E+008  +9.99350850988E-001  -3.67117365608E-002
+1.43106666667E+008  +9.98760909168E-001  -3.74053929244E-002
+1.45093333333E+008  +9.99720043305E-001  -3.78716353536E-002
+1.47080000000E+008  +9.99377279059E-001  -3.83632449666E-002
+1.49066666667E+008  +9.99512492775E-001  -3.88118309190E-002
+1.51053333333E+008  +9.98980212602E-001  -3.98647075690E-002
+1.53040000000E+008  +9.98999036515E-001  -4.02001058768E-002
+1.55026666667E+008  +9.98584340521E-001  -3.98716643560E-002
+1.57013333333E+008  +9.99517384224E-001  -4.09669934170E-002
+1.59000000000E+008  +9.98980107248E-001  -4.16962544203E-002
+1.60986666667E+008  +9.99441423498E-001  -4.20866644423E-002
+1.62973333333E+008  +9.98650534535E-001  -4.26437239152E-002
+1.64960000000E+008  +9.99248824848E-001  -4.30169622223E-002
+1.66946666667E+008  +9.99599573799E-001  -4.33313879687E-002
+1.68933333333E+008  +9.99107674276E-001  -4.43557101230E-002
+1.70920000000E+008  +9.98972317950E-001  -4.45505957613E-002
+1.72906666667E+008  +9.99089604900E-001  -4.50592356133E-002
+1.74893333333E+008  +9.98429632579E-001  -4.58747448198E-002
+1.76880000000E+008  +9.98750974639E-001  -4.66550101865E-002
+1.78866666667E+008  +9.98975698839E-001  -4.65334047444E-002
+1.80853333333E+008  +9.98841018609E-001  -4.67734549939E-002
+1.82840000000E+008  +9.98993514354E-001  -4.79205543648E-002
+1.84826666667E+008  +9.98869692108E-001  -4.84571044721E-002
+1.86813333333E+008  +9.98736393182E-001  -4.85916726432E-002
+1.88800000000E+008  +9.98719631183E-001  -4.93154297662E-002
+1.90786666667E+008  +9.98859154383E-001  -4.99601896684E-002
+1.92773333333E+008  +9.98660023087E-001  -5.05662382806E-002
+1.94760000000E+008  +9.98062695344E-001  -5.09078104663E-002
+1.96746666667E+008  +9.98493307285E-001  -5.11919622576E-002
+1.98733333333E+008  +9.98592873020E-001  -5.15590964332E-002
+2.00720000000E+008  +9.98448012551E-001  -5.28981390671E-002
+2.02706666667E+008  +9.98521199592E-001  -5.29812933154E-002
+2.04693333333E+008  +9.98048079636E-001  -5.32055753343E-002
+2.06680000000E+008  +9.98544158570E-001  -5.40116498353E-002
+2.08666666667E+008  +9.98486031853E-001  -5.44253286514E-002
+2.10653333333E+008  +9.98345136370E-001  -5.48985984079E-002
+2.12640000000E+008  +9.97928731462E-001  -5.54694687975E-002
+2.14626666667E+008  +9.97979832857E-001  -5.56722750746E-002
+2.16613333333E+008  +9.98188896179E-001  -5.68630467025E-002
+2.18600000000E+008  +9.98419699785E-001  -5.71273365433E-002
+2.20586666667E+008  +9.98047636411E-001  -5.72326842737E-002
+2.22573333333E+008  +9.98378281920E-001  -5.81677046363E-002
+2.24560000000E+008  +9.97935362435E-001  -5.87939899441E-002
+2.26546666667E+008  +9.98034302391E-001  -5.92316769059E-002
+2.28533333333E+008  +9.98203947730E-001  -5.98739309900E-002
+2.30520000000E+008  +9.98277701798E-001  -6.05027398850E-002
+2.32506666667E+008  +9.97866557263E-001  -6.04293680918E-002
+2.34493333333E+008  +9.97935224388E-001  -6.09399830254E-002
+2.36480000000E+008  +9.98137966886E-001  -6.14591941573E-002
+2.38466666667E+008  +9.98231038095E-001  -6.19787101310E-002
+2.40453333333E+008  +9.98703699707E-001  -6.28526389182E-002
+2.42440000000E+008  +9.98568981373E-001  -6.30525399147E-002
+2.44426666667E+008  +9.98017622678E-001  -6.36348872336E-002
+2.46413333333E+008  +9.97974830566E-001  -6.40271328754E-002
+2.48400000000E+008  +9.97917917486E-001  -6.49430607637E-002
+2.50386666667E+008  +9.97685749350E-001  -6.54930300271E-002
+2.52373333333E+008  +9.98024870365E-001  -6.61738680737E-002
+2.54360000000E+008  +9.98095098221E-001  -6.63524603977E-002
+2.56346666667E+008  +9.97604679287E-001  -6.68069915291E-002
+2.58333333333E+008  +9.97658532683E-001  -6.69181797586E-002
+2.60320000000E+008  +9.98055732113E-001  -6.78350216697E-002
+2.62306666667E+008  +9.97730016938E-001  -6.85488615367E-002
+2.64293333333E+008  +9.97594894469E-001  -6.88631062653E-002
+2.66280000000E+008  +9.97344498034E-001  -6.91541347436E-002
+2.68266666667E+008  +9.97680419444E-001  -6.99867690122E-002
+2.70253333333E+008  +9.98081839428E-001  -6.98802842260E-002
+2.72240000000E+008  +9.97398668456E-001  -7.07759045086E-002
+2.74226666667E+008  +9.97681432648E-001  -7.09489783006E-002
+2.76213333333E+008  +9.97478928907E-001  -7.20461482775E-002
+2.78200000000E+008  +9.97125261401E-001  -7.24898723742E-002
+2.80186666667E+008  +9.96903551562E-001  -7.27363409011E-002
+2.82173333333E+008  +9.97195490815E-001  -7.37897234174E-002
+2.84160000000E+008  +9.97353258522E-001  -7.40300640472E-002
+2.86146666667E+008  +9.97210516311E-001  -7.45961815781E-002
+2.88133333333E+008  +9.96961991539E-001  -7.53652442837E-002
+2.90120000000E+008  +9.97030440415E-001  -7.55843607580E-002
+2.92106666667E+008  +9.97189973764E-001  -7.59311370547E-002
+2.94093333333E+008  +9.96701165491E-001  -7.67545061694E-002
+2.96080000000E+008  +9.96780523214E-001  -7.71136375883E-002
+2.98066666667E+008  +9.96897822226E-001  -7.71381631613E-002
+3.00053333333E+008  +9.97006726757E-001  -7.79945485770E-002
+3.02040000000E+008  +9.97070331620E-001  -7.88093712998E-002
+3.04026666667E+008  +9.96915951713E-001  -7.92652436634E-002
+3.06013333333E+008  +9.96976046626E-001  -7.96791324575E-002
+3.08000000000E+008  +9.96165943642E-001  -7.99635277843E-002
+3.09986666667E+008  +9.96400252683E-001  -8.06735352411E-002
+3.11973333333E+008  +9.96638488298E-001  -8.10879309352E-002
+3.13960000000E+008  +9.96218471983E-001  -8.15106912512E-002
+3.15946666667E+008  +9.96320928398E-001  -8.18459260734E-002
+3.17933333333E+008  +9.96627636403E-001  -8.27925231063E-002
+3.19920000000E+008  +9.96608654660E-001  -8.29633823887E-002
+3.21906666667E+008  +9.96366132887E-001  -8.38368176594E-002
+3.23893333333E+008  +9.96155325548E-001  -8.43823736779E-002
+3.25880000000E+008  +9.96319380102E-001  -8.46514490685E-002
+3.27866666667E+008  +9.95680750796E-001  -8.50221832251E-002
+3.29853333333E+008  +9.96266300992E-001  -8.58960522783E-002
+3.31840000000E+008  +9.96018620407E-001  -8.63550766132E-002
+3.33826666667E+008  +9.96112932309E-001  -8.69676667895E-002
+3.35813333333E+008  +9.96334479498E-001  -8.69650092408E-002
+3.37800000000E+008  +9.96124179033E-001  -8.82460007833E-002
+3.39786666667E+008  +9.96342131503E-001  -8.88070493351E-002
+3.41773333333E+008  +9.95792421601E-001  -8.90678012259E-002
+3.43760000000E+008  +9.96017670696E-001  -8.90398417660E-002
+3.45746666667E+008  +9.95854640104E-001  -8.99267098699E-002
+3.47733333333E+008  +9.95745834985E-001  -9.00186867009E-002
+3.49720000000E+008  +9.95356881798E-001  -9.13596444059E-002
+3.51706666667E+008  +9.95606493189E-001  -9.11485784943E-002
+3.53693333333E+008  +9.96087610370E-001  -9.19058307618E-002
+3.55680000000E+008  +9.95668663078E-001  -9.28544934601E-002
+3.57666666667E+008  +9.95731564093E-001  -9.23549098243E-002
+3.59653333333E+008  +9.95510670670E-001  -9.32760070185E-002
+3.61640000000E+008  +9.95395459338E-001  -9.38895725075E-002
+3.63626666667E+008  +9.95562039019E-001  -9.37848395329E-002
+3.65613333333E+008  +9.95756188863E-001  -9.48224628092E-002
+3.67600000000E+008  +9.95438952034E-001  -9.56483861662E-002
+3.69586666667E+008  +9.95570857245E-001  -9.59703307539E-002
+3.71573333333E+008  +9.95111719802E-001  -9.61454284344E-002
+3.73560000000E+008  +9.94975312506E-001  -9.67605938072E-002
+3.75546666667E+008  +9.95402766557E-001  -9.74760615437E-002
+3.77533333333E+008  +9.94548936368E-001  -9.81499504454E-002
+3.79520000000E+008  +9.95017893271E-001  -9.87602093482E-002
+3.81506666667E+008  +9.95048358462E-001  -9.90814548045E-002
+3.83493333333E+008  +9.95259091161E-001  -9.93152330052E-002
+3.85480000000E+008  +9.94841604541E-001  -1.00417536161E-001
+3.87466666667E+008  +9.94703722746E-001  -1.00710184690E-001
+3.89453333333E+008  +9.95374086670E-001  -1.01421565376E-001
+3.91440000000E+008  +9.94459440998E-001  -1.01714552400E-001
+3.93426666667E+008  +9.94701156484E-001  -1.02567640497E-001
+3.95413333333E+008  +9.94300980234E-001  -1.02807469155E-001
+3.97400000000E+008  +9.94341914006E-001  -1.03403764191E-001
+3.99386666667E+008  +9.94374677965E-001  -1.03466353963E-001
+4.01373333333E+008  +9.94459039740E-001  -1.03821228452E-001
+4.03360000000E+008  +9.94075169241E-001  -1.04482090390E-001
+4.05346666667E+008  +9.94110967038E-001  -1.05092276453E-001
+4.07333333333E+008  +9.94586959074E-001  -1.05768920539E-001
+4.09320000000E+008  +9.94183901726E-001  -1.06077098590E-001
+4.11306666667E+008  +9.94057059656E-001  -1.06829311907E-001
+4.13293333333E+008  +9.93934982735E-001  -1.07578913594E-001
+4.15280000000E+008  +9.94021942254E-001  -1.07731733881E-001
+4.17266666667E+008  +9.94029103375E-001  -1.08143124887E-001
+4.19253333333E+008  +9.94240591714E-001  -1.08758888667E-001
+4.21240000000E+008  +9.93996864863E-001  -1.09392168906E-001
+4.23226666667E+008  +9.93911688005E-001  -1.09938657396E-001
+4.25213333333E+008  +9.93853084802E-001  -1.10243252645E-001
+4.27200000000E+008  +9.93563652918E-001  -1.10823812395E-001
+4.29186666667E+008  +9.93875132834E-001  -1.11383281346E-001
+4.31173333333E+008  +9.93968581911E-001  -1.11984754232E-001
+4.33160000000E+008  +9.93797091523E-001  -1.12546498793E-001
+4.35146666667E+008  +9.93372287649E-001  -1.12690068309E-001
+4.37133333333E+008  +9.93415079481E-001  -1.13471355925E-001
+4.39120000000E+008  +9.93271166655E-001  -1.13788816859E-001
+4.41106666667E+008  +9.93378191436E-001  -1.14666067767E-001
+4.43093333333E+008  +9.92990871232E-001  -1.15002020799E-001
+4.45080000000E+008  +9.93255772245E-001  -1.15575092921E-001
+4.47066666667E+008  +9.93148902212E-001  -1.16049976544E-001
+4.49053333333E+008  +9.93040018950E-001  -1.16230123271E-001
+4.51040000000E+008  +9.92909867017E-001  -1.17093271798E-001
+4.53026666667E+008  +9.92828210837E-001  -1.17288910300E-001
+4.55013333333E+008  +9.92621443577E-001  -1.18032373372E-001
+4.57000000000E+008  +9.92574139018E-001  -1.18777925078E-001
+4.58986666667E+008  +9.92720931766E-001  -1.18917701509E-001
+4.60973333333E+008  +9.92559493996E-001  -1.19506312434E-001
+4.62960000000E+008  +9.92421586035E-001  -1.20059089024E-001
+4.64946666667E+008  +9.92581864437E-001  -1.20629035691E-001
+4.66933333333E+008  +9.92504996436E-001  -1.20927413848E-001
+4.68920000000E+008  +9.92734520070E-001  -1.21477164675E-001
+4.70906666667E+008  +9.92549051675E-001  -1.21870687855E-001
+4.72893333333E+008  +9.92380194134E-001  -1.22797389991E-001
+4.74880000000E+008  +9.92704621013E-001  -1.23042518338E-001
+4.76866666667E+008  +9.92396684422E-001  -1.23484615617E-001
+4.78853333333E+008  +9.92293655736E-001  -1.24139050973E-001
+4.80840000000E+008  +9.92118505772E-001  -1.24935207964E-001
+4.82826666667E+008  +9.91841715351E-001  -1.25381814805E-001
+4.84813333333E+008  +9.92174840140E-001  -1.25557544566E-001
+4.86800000000E+008  +9.91721792081E-001  -1.26188202161E-001
+4.88786666667E+008  +9.91895613016E-001  -1.26673341752E-001
+4.90773333333E+008  +9.92169645605E-001  -1.27200415355E-001
+4.92760000000E+008  +9.91908281929E-001  -1.27870810880E-001
+4.94746666667E+008  +9.91960826658E-001  -1.28186457569E-001
+4.96733333333E+008  +9.91147542501E-001  -1.28675621510E-001
+4.98720000000E+008  +9.91283820749E-001  -1.29080383309E-001
+5.00706666667E+008  +9.91354832368E-001  -1.29579973205E-001
+5.02693333333E+008  +9.91492996036E-001  -1.30306341030E-001
+5.04680000000E+008  +9.90891276374E-001  -1.30871724277E-001
+5.06666666667E+008  +9.91384023497E-001  -1.31581560534E-001
+5.08653333333E+008  +9.91242781717E-001  -1.31821478424E-001
+5.10640000000E+008  +9.91129790717E-001  -1.32389246364E-001
+5.12626666667E+008  +9.91161351505E-001  -1.32551147312E-001
+5.14613333333E+008  +9.91069828349E-001  -1.33295752293E-001
+5.16600000000E+008  +9.90568424513E-001  -1.33755510497E-001
+5.18586666667E+008  +9.90820836432E-001  -1.34584430403E-001
+5.20573333333E+008  +9.91204412554E-001  -1.34826741155E-001
+5.22560000000E+008  +9.90745719337E-001  -1.35409221909E-001
+5.24546666667E+008  +9.90877629025E-001  -1.35884264885E-001
+5.26533333333E+008  +9.90711675346E-001  -1.36551101203E-001
+5.28520000000E+008  +9.91013549027E-001  -1.36715989262E-001
+5.30506666667E+008  +9.90725969227E-001  -1.37876133291E-001
+5.32493333333E+008  +9.90112026267E-001  -1.37591594748E-001
+5.34480000000E+008  +9.90391472690E-001  -1.38234517116E-001
+5.36466666667E+008  +9.90357889029E-001  -1.38839562301E-001
+5.38453333333E+008  +9.90483520351E-001  -1.39693204064E-001
+5.40440000000E+008  +9.89927401759E-001  -1.39967514989E-001
+5.42426666667E+008  +9.89928022072E-001  -1.40792925640E-001
+5.44413333333E+008  +9.90165786902E-001  -1.40941327052E-001
+5.46400000000E+008  +9.89827678823E-001  -1.41385529473E-001
+5.48386666667E+008  +9.90022689496E-001  -1.41954936430E-001
+5.50373333333E+008  +9.89786948594E-001  -1.42691988640E-001
+5.52360000000E+008  +9.89533059144E-001  -1.43258698346E-001
+5.54346666667E+008  +9.89510541200E-001  -1.43681200280E-001
+5.56333333333E+008  +9.89601817433E-001  -1.44232147262E-001
+5.58320000000E+008  +9.89284579121E-001  -1.44635287180E-001
+5.60306666667E+008  +9.89167677982E-001  -1.45072680635E-001
+5.62293333333E+008  +9.89353070544E-001  -1.45904724963E-001
+5.64280000000E+008  +9.89319390018E-001  -1.46007506477E-001
+5.66266666667E+008  +9.89223066272E-001  -1.46809362407E-001
+5.68253333333E+008  +9.89117022181E-001  -1.46843673935E-001
+5.70240000000E+008  +9.89318246309E-001  -1.47306035557E-001
+5.72226666667E+008  +9.89004399504E-001  -1.48161366824E-001
+5.74213333333E+008  +9.89124255591E-001  -1.48546083258E-001
+5.76200000000E+008  +9.88593849949E-001  -1.49009785438E-001
+5.78186666667E+008  +9.88586279836E-001  -1.49967608564E-001
+5.80173333333E+008  +9.88455480441E-001  -1.50333918481E-001
+5.82160000000E+008  +9.88470455534E-001  -1.50583499279E-001
+5.84146666667E+008  +9.88708154114E-001  -1.50905506143E-001
+5.86133333333E+008  +9.88395325023E-001  -1.51600913591E-001
+5.88120000000E+008  +9.88436407439E-001  -1.52371898592E-001
+5.90106666667E+008  +9.88313832265E-001  -1.52405253411E-001
+5.92093333333E+008  +9.88144955441E-001  -1.53043889728E-001
+5.94080000000E+008  +9.88096010370E-001  -1.53564934959E-001
+5.96066666667E+008  +9.87959720138E-001  -1.54182517510E-001
+5.98053333333E+008  +9.88037540858E-001  -1.54342590543E-001
+6.00040000000E+008  +9.87909290471E-001  -1.55213062763E-001
+6.02026666667E+008  +9.87652714091E-001  -1.55797390450E-001
+6.04013333333E+008  +9.87752913463E-001  -1.56135187094E-001
+6.06000000000E+008  +9.87467583356E-001  -1.56848569189E-001
+6.07986666667E+008  +9.87601668361E-001  -1.57108564200E-001
+6.09973333333E+008  +9.87624598358E-001  -1.57953087232E-001
+6.11960000000E+008  +9.87311395554E-001  -1.57967115495E-001
+6.13946666667E+008  +9.87259668999E-001  -1.58808269377E-001
+6.15933333333E+008  +9.87049802584E-001  -1.59409455787E-001
+6.17920000000E+008  +9.87251404341E-001  -1.59598430952E-001
+6.19906666667E+008  +9.87267124103E-001  -1.60488021017E-001
+6.21893333333E+008  +9.86941059069E-001  -1.60813686497E-001
+6.23880000000E+008  +9.87111223945E-001  -1.61134903236E-001
+6.25866666667E+008  +9.86633025423E-001  -1.61779896544E-001
+6.27853333333E+008  +9.87101272402E-001  -1.62246733703E-001
+6.29840000000E+008  +9.86622763326E-001  -1.62836062047E-001
+6.31826666667E+008  +9.86175103360E-001  -1.63506245974E-001
+6.33813333333E+008  +9.86730709851E-001  -1.63875412343E-001
+6.35800000000E+008  +9.86159388846E-001  -1.64498970035E-001
+6.37786666667E+008  +9.86503703490E-001  -1.64966302221E-001
+6.39773333333E+008  +9.86542260277E-001  -1.65475068413E-001
+6.41760000000E+008  +9.86039043001E-001  -1.66312651006E-001
+6.43746666667E+008  +9.85851620189E-001  -1.66366017870E-001
+6.45733333333E+008  +9.86077813965E-001  -1.66859605412E-001
+6.47720000000E+008  +9.85907328338E-001  -1.67321632652E-001
