# Hz S RI R 50.000000
! FREQ                re:S1,1             im:S1,1          
5.00E+07	1.00E+00	-1.52E-03
5.47E+07	1.00E+00	-1.52E-03
6.22E+07	1.00E+00	-1.67E-03
6.96E+07	1.00E+00	-2.10E-03
7.71E+07	1.00E+00	-1.30E-03
8.45E+07	1.00E+00	-1.87E-03
9.20E+07	1.00E+00	-1.13E-03
9.94E+07	1.00E+00	-6.58E-04
1.07E+08	1.00E+00	-2.07E-03
1.14E+08	1.00E+00	-1.91E-03
1.22E+08	1.00E+00	-1.45E-03
1.29E+08	1.00E+00	-2.32E-03
1.37E+08	1.00E+00	-7.57E-04
1.44E+08	1.00E+00	-1.22E-03
1.52E+08	1.00E+00	-1.23E-03
1.59E+08	1.00E+00	-6.09E-04
1.66E+08	1.00E+00	-1.08E-03
1.74E+08	1.00E+00	-1.04E-03
1.81E+08	1.00E+00	-1.69E-03
1.89E+08	1.00E+00	3.30E-05
1.96E+08	1.00E+00	-6.45E-04
2.04E+08	1.00E+00	-7.22E-04
2.11E+08	1.00E+00	-1.26E-03
2.19E+08	1.00E+00	-6.32E-04
2.26E+08	1.00E+00	-1.70E-04
2.34E+08	1.00E+00	-4.75E-04
2.41E+08	1.00E+00	1.88E-05
2.48E+08	1.00E+00	4.14E-04
2.56E+08	1.00E+00	6.48E-07
2.63E+08	1.00E+00	4.92E-05
2.71E+08	1.00E+00	1.06E-03
2.78E+08	1.00E+00	-4.82E-04
2.86E+08	1.00E+00	-4.13E-04
2.93E+08	1.00E+00	-4.87E-04
3.01E+08	1.00E+00	1.43E-04
3.08E+08	1.00E+00	5.51E-04
3.15E+08	1.00E+00	4.08E-04
3.23E+08	1.00E+00	1.00E-03
3.30E+08	1.00E+00	-5.81E-04
3.38E+08	1.00E+00	9.50E-04
3.45E+08	1.00E+00	3.25E-04
3.53E+08	1.00E+00	5.75E-04
3.60E+08	1.00E+00	1.29E-04
3.68E+08	1.00E+00	-2.02E-04
3.75E+08	1.00E+00	1.70E-03
3.83E+08	1.00E+00	-2.02E-04
3.90E+08	1.00E+00	4.28E-04
3.97E+08	1.00E+00	4.62E-04
4.05E+08	1.00E+00	2.78E-04
4.12E+08	1.00E+00	3.76E-04
4.20E+08	1.00E+00	-8.89E-05
4.27E+08	1.00E+00	-4.55E-05
4.35E+08	1.00E+00	3.96E-05
4.42E+08	1.00E+00	2.91E-04
4.50E+08	9.99E-01	9.49E-05
4.57E+08	9.99E-01	3.06E-04
4.64E+08	9.99E-01	-3.86E-04
4.72E+08	9.99E-01	-4.10E-04
4.79E+08	9.99E-01	-4.00E-04
4.87E+08	9.99E-01	-2.78E-04
4.94E+08	9.99E-01	-5.16E-04
5.02E+08	9.98E-01	-7.30E-04
5.09E+08	9.99E-01	1.64E-04
5.17E+08	9.98E-01	-6.08E-04
5.24E+08	9.98E-01	-4.74E-04
5.32E+08	9.98E-01	-1.10E-03
5.39E+08	9.98E-01	-1.14E-03
5.46E+08	9.97E-01	-1.63E-03
5.54E+08	9.97E-01	-1.57E-03
5.61E+08	9.98E-01	-4.38E-04
5.69E+08	9.97E-01	-1.39E-03
5.76E+08	9.97E-01	-1.01E-03
5.84E+08	9.97E-01	-1.45E-03
5.91E+08	9.97E-01	-1.82E-03
5.99E+08	9.97E-01	-1.38E-03
6.06E+08	9.97E-01	-2.10E-03
6.13E+08	9.97E-01	-2.19E-03
6.21E+08	9.97E-01	-1.84E-03
6.28E+08	9.97E-01	-2.10E-03
6.36E+08	9.97E-01	-3.30E-03
6.43E+08	9.97E-01	-2.92E-03
6.51E+08	9.98E-01	-2.88E-03
6.58E+08	9.98E-01	-3.14E-03
6.66E+08	9.97E-01	-3.88E-03
6.73E+08	9.98E-01	-3.61E-03
6.81E+08	9.98E-01	-2.77E-03
6.88E+08	9.98E-01	-3.04E-03
6.95E+08	9.98E-01	-3.94E-03
7.03E+08	9.98E-01	-4.06E-03
7.10E+08	9.98E-01	-3.72E-03
7.18E+08	9.98E-01	-4.80E-03
7.25E+08	9.99E-01	-4.60E-03
7.33E+08	9.99E-01	-4.98E-03
7.40E+08	9.99E-01	-6.14E-03
7.48E+08	9.99E-01	-4.87E-03
7.55E+08	9.99E-01	-6.04E-03
7.62E+08	9.99E-01	-5.15E-03
7.70E+08	9.99E-01	-6.22E-03
7.77E+08	1.00E+00	-5.77E-03
7.85E+08	1.00E+00	-6.47E-03
7.92E+08	1.00E+00	-5.63E-03
8.00E+08	1.00E+00	-6.70E-03
8.07E+08	1.00E+00	-7.46E-03
8.15E+08	1.00E+00	-5.70E-03
8.22E+08	1.00E+00	-6.75E-03
8.30E+08	1.00E+00	-6.85E-03
8.37E+08	1.00E+00	-6.78E-03
8.44E+08	1.00E+00	-7.36E-03
8.52E+08	1.00E+00	-7.77E-03
8.59E+08	1.00E+00	-7.22E-03
8.67E+08	1.00E+00	-6.95E-03
8.74E+08	1.00E+00	-7.55E-03
8.82E+08	1.00E+00	-7.10E-03
8.89E+08	1.00E+00	-7.31E-03
8.97E+08	1.00E+00	-6.58E-03
9.04E+08	1.00E+00	-7.87E-03
9.11E+08	1.00E+00	-7.09E-03
9.19E+08	1.00E+00	-8.17E-03
9.26E+08	1.00E+00	-8.34E-03
9.34E+08	1.00E+00	-6.74E-03
9.41E+08	1.00E+00	-7.79E-03
9.49E+08	1.00E+00	-7.64E-03
9.56E+08	1.00E+00	-7.87E-03
9.64E+08	1.00E+00	-7.36E-03
9.71E+08	1.00E+00	-6.87E-03
9.79E+08	1.00E+00	-6.91E-03
9.86E+08	1.00E+00	-7.59E-03
9.93E+08	1.00E+00	-7.13E-03
1.00E+09	1.00E+00	-6.76E-03
1.01E+09	1.00E+00	-7.40E-03
1.02E+09	1.00E+00	-5.79E-03
1.02E+09	1.00E+00	-6.05E-03
1.03E+09	1.00E+00	-6.38E-03
1.04E+09	1.00E+00	-6.82E-03
1.05E+09	1.00E+00	-5.98E-03
1.05E+09	1.00E+00	-5.71E-03
1.06E+09	1.00E+00	-5.18E-03
1.07E+09	1.00E+00	-5.14E-03
1.08E+09	1.00E+00	-5.33E-03
1.08E+09	1.00E+00	-4.77E-03
1.09E+09	1.00E+00	-4.74E-03
1.10E+09	1.00E+00	-4.73E-03
1.11E+09	1.00E+00	-3.89E-03
1.11E+09	1.00E+00	-4.42E-03
1.12E+09	1.00E+00	-4.86E-03
1.13E+09	1.00E+00	-3.81E-03
1.13E+09	1.00E+00	-3.06E-03
1.14E+09	1.00E+00	-3.45E-03
1.15E+09	1.00E+00	-2.73E-03
1.16E+09	1.00E+00	-3.33E-03
1.16E+09	1.00E+00	-2.84E-03
1.17E+09	1.00E+00	-3.48E-03
1.18E+09	1.00E+00	-3.48E-03
1.19E+09	1.00E+00	-2.93E-03
1.19E+09	1.00E+00	-2.79E-03
1.20E+09	9.99E-01	-2.99E-03
1.21E+09	9.99E-01	-2.76E-03
1.22E+09	9.99E-01	-2.58E-03
1.22E+09	9.99E-01	-1.88E-03
1.23E+09	9.98E-01	-2.33E-03
1.24E+09	9.99E-01	-1.93E-03
1.25E+09	9.98E-01	-3.21E-03
1.25E+09	9.98E-01	-2.66E-03
1.26E+09	9.98E-01	-2.33E-03
1.27E+09	9.98E-01	-2.24E-03
1.28E+09	9.97E-01	-2.75E-03
1.28E+09	9.97E-01	-2.99E-03
1.29E+09	9.96E-01	-2.75E-03
1.30E+09	9.97E-01	-2.51E-03
1.31E+09	9.96E-01	-2.50E-03
1.31E+09	9.96E-01	-3.52E-03
1.32E+09	9.96E-01	-3.42E-03
1.33E+09	9.96E-01	-3.35E-03
1.34E+09	9.95E-01	-2.62E-03
1.34E+09	9.95E-01	-3.58E-03
1.35E+09	9.95E-01	-3.27E-03
1.36E+09	9.94E-01	-4.04E-03
1.37E+09	9.94E-01	-4.75E-03
1.37E+09	9.93E-01	-5.50E-03
1.38E+09	9.93E-01	-5.32E-03
1.39E+09	9.93E-01	-5.05E-03
1.40E+09	9.93E-01	-6.24E-03
1.40E+09	9.93E-01	-5.82E-03
1.41E+09	9.92E-01	-7.20E-03
1.42E+09	9.92E-01	-7.09E-03
1.43E+09	9.92E-01	-8.05E-03
1.43E+09	9.92E-01	-7.43E-03
1.44E+09	9.92E-01	-8.25E-03
1.45E+09	9.91E-01	-8.24E-03
1.46E+09	9.91E-01	-8.04E-03
1.46E+09	9.91E-01	-1.00E-02
1.47E+09	9.91E-01	-8.83E-03
1.48E+09	9.92E-01	-9.70E-03
1.49E+09	9.91E-01	-1.02E-02
1.49E+09	9.91E-01	-1.00E-02
1.50E+09	9.91E-01	-1.12E-02
