# Hz S RI R 50.000000
! FREQ                re:S1,1             im:S1,1          
5.00E+07	-1.01E+00	-8.60E-04
5.47E+07	-1.01E+00	-8.60E-04
6.22E+07	-1.00E+00	7.44E-04
6.96E+07	-1.00E+00	4.19E-04
7.71E+07	-1.00E+00	1.08E-03
8.45E+07	-1.00E+00	9.91E-04
9.20E+07	-1.00E+00	1.71E-03
9.94E+07	-1.00E+00	1.15E-03
1.07E+08	-1.00E+00	1.89E-03
1.14E+08	-1.00E+00	1.58E-03
1.22E+08	-1.00E+00	1.97E-03
1.29E+08	-1.00E+00	3.00E-03
1.37E+08	-9.99E-01	1.96E-03
1.44E+08	-1.00E+00	2.51E-03
1.52E+08	-9.99E-01	2.63E-03
1.59E+08	-9.99E-01	1.37E-03
1.66E+08	-9.99E-01	3.11E-03
1.74E+08	-9.99E-01	2.95E-03
1.81E+08	-9.99E-01	2.98E-03
1.89E+08	-9.98E-01	2.98E-03
1.96E+08	-9.98E-01	3.40E-03
2.04E+08	-9.99E-01	2.92E-03
2.11E+08	-9.99E-01	4.02E-03
2.19E+08	-9.99E-01	4.33E-03
2.26E+08	-9.99E-01	3.75E-03
2.34E+08	-9.99E-01	4.04E-03
2.41E+08	-9.99E-01	3.63E-03
2.48E+08	-9.99E-01	4.67E-03
2.56E+08	-9.99E-01	3.47E-03
2.63E+08	-9.99E-01	3.94E-03
2.71E+08	-9.99E-01	4.20E-03
2.78E+08	-9.99E-01	5.23E-03
2.86E+08	-1.00E+00	4.67E-03
2.93E+08	-1.00E+00	4.96E-03
3.01E+08	-1.00E+00	5.30E-03
3.08E+08	-1.00E+00	4.79E-03
3.15E+08	-1.00E+00	4.95E-03
3.23E+08	-1.00E+00	4.13E-03
3.30E+08	-1.00E+00	4.07E-03
3.38E+08	-1.00E+00	4.82E-03
3.45E+08	-1.00E+00	5.09E-03
3.53E+08	-1.00E+00	3.86E-03
3.60E+08	-1.00E+00	4.53E-03
3.68E+08	-1.00E+00	6.12E-03
3.75E+08	-1.00E+00	4.34E-03
3.83E+08	-1.00E+00	4.75E-03
3.90E+08	-1.00E+00	3.78E-03
3.97E+08	-1.00E+00	5.37E-03
4.05E+08	-1.00E+00	5.06E-03
4.12E+08	-1.00E+00	4.99E-03
4.20E+08	-1.00E+00	5.40E-03
4.27E+08	-1.00E+00	4.92E-03
4.35E+08	-1.00E+00	4.51E-03
4.42E+08	-1.00E+00	4.67E-03
4.50E+08	-1.00E+00	5.03E-03
4.57E+08	-1.00E+00	4.18E-03
4.64E+08	-1.00E+00	3.39E-03
4.72E+08	-1.00E+00	4.85E-03
4.79E+08	-1.00E+00	4.34E-03
4.87E+08	-1.00E+00	4.17E-03
4.94E+08	-1.00E+00	4.44E-03
5.02E+08	-1.00E+00	5.24E-03
5.09E+08	-1.00E+00	4.42E-03
5.17E+08	-1.00E+00	4.89E-03
5.24E+08	-1.00E+00	4.26E-03
5.32E+08	-1.00E+00	4.61E-03
5.39E+08	-1.00E+00	4.12E-03
5.46E+08	-1.00E+00	3.93E-03
5.54E+08	-1.00E+00	4.32E-03
5.61E+08	-1.00E+00	2.88E-03
5.69E+08	-1.00E+00	4.84E-03
5.76E+08	-1.00E+00	3.52E-03
5.84E+08	-1.00E+00	3.96E-03
5.91E+08	-1.00E+00	3.37E-03
5.99E+08	-1.00E+00	3.93E-03
6.06E+08	-1.00E+00	3.49E-03
6.13E+08	-1.00E+00	3.47E-03
6.21E+08	-1.00E+00	3.05E-03
6.28E+08	-1.00E+00	1.43E-03
6.36E+08	-1.00E+00	3.87E-03
6.43E+08	-1.00E+00	2.73E-03
6.51E+08	-1.00E+00	2.81E-03
6.58E+08	-1.00E+00	3.16E-03
6.66E+08	-1.00E+00	2.75E-03
6.73E+08	-1.00E+00	3.09E-03
6.81E+08	-1.00E+00	2.17E-03
6.88E+08	-1.00E+00	2.32E-03
6.95E+08	-1.00E+00	1.11E-03
7.03E+08	-1.00E+00	3.35E-03
7.10E+08	-1.00E+00	1.89E-03
7.18E+08	-1.00E+00	1.50E-03
7.25E+08	-1.00E+00	2.32E-03
7.33E+08	-1.00E+00	1.77E-03
7.40E+08	-1.00E+00	2.11E-03
7.48E+08	-9.99E-01	1.26E-03
7.55E+08	-9.99E-01	7.45E-04
7.62E+08	-9.99E-01	9.45E-04
7.70E+08	-9.99E-01	1.23E-03
7.77E+08	-9.98E-01	4.96E-04
7.85E+08	-9.98E-01	6.88E-04
7.92E+08	-9.98E-01	1.05E-03
8.00E+08	-9.98E-01	1.33E-03
8.07E+08	-9.97E-01	6.15E-04
8.15E+08	-9.97E-01	3.84E-04
8.22E+08	-9.97E-01	3.80E-04
8.30E+08	-9.97E-01	7.91E-04
8.37E+08	-9.97E-01	4.41E-04
8.44E+08	-9.97E-01	2.08E-04
8.52E+08	-9.97E-01	-3.72E-04
8.59E+08	-9.96E-01	4.78E-04
8.67E+08	-9.96E-01	8.30E-04
8.74E+08	-9.96E-01	5.92E-04
8.82E+08	-9.96E-01	1.61E-04
8.89E+08	-9.96E-01	2.81E-04
8.97E+08	-9.96E-01	3.33E-06
9.04E+08	-9.95E-01	8.74E-04
9.11E+08	-9.95E-01	5.21E-04
9.19E+08	-9.95E-01	8.83E-04
9.26E+08	-9.95E-01	1.50E-03
9.34E+08	-9.94E-01	2.44E-04
9.41E+08	-9.95E-01	1.38E-03
9.49E+08	-9.94E-01	8.46E-04
9.56E+08	-9.94E-01	1.63E-03
9.64E+08	-9.94E-01	1.22E-03
9.71E+08	-9.94E-01	1.05E-03
9.79E+08	-9.94E-01	1.57E-03
9.86E+08	-9.94E-01	2.52E-03
9.93E+08	-9.93E-01	3.28E-03
1.00E+09	-9.93E-01	2.51E-03
1.01E+09	-9.94E-01	2.41E-03
1.02E+09	-9.94E-01	2.55E-03
1.02E+09	-9.94E-01	2.49E-03
1.03E+09	-9.94E-01	3.66E-03
1.04E+09	-9.94E-01	2.75E-03
1.05E+09	-9.94E-01	3.98E-03
1.05E+09	-9.94E-01	4.15E-03
1.06E+09	-9.94E-01	4.96E-03
1.07E+09	-9.94E-01	4.07E-03
1.08E+09	-9.94E-01	4.84E-03
1.08E+09	-9.94E-01	4.65E-03
1.09E+09	-9.94E-01	5.38E-03
1.10E+09	-9.94E-01	6.11E-03
1.11E+09	-9.94E-01	5.84E-03
1.11E+09	-9.95E-01	6.78E-03
1.12E+09	-9.95E-01	6.71E-03
1.13E+09	-9.95E-01	7.11E-03
1.13E+09	-9.95E-01	6.77E-03
1.14E+09	-9.95E-01	7.47E-03
1.15E+09	-9.95E-01	7.63E-03
1.16E+09	-9.95E-01	7.50E-03
1.16E+09	-9.96E-01	7.60E-03
1.17E+09	-9.96E-01	9.19E-03
1.18E+09	-9.96E-01	9.07E-03
1.19E+09	-9.96E-01	8.68E-03
1.19E+09	-9.96E-01	9.05E-03
1.20E+09	-9.97E-01	8.86E-03
1.21E+09	-9.97E-01	9.85E-03
1.22E+09	-9.97E-01	1.02E-02
1.22E+09	-9.97E-01	9.87E-03
1.23E+09	-9.97E-01	9.35E-03
1.24E+09	-9.97E-01	9.57E-03
1.25E+09	-9.98E-01	1.08E-02
1.25E+09	-9.98E-01	1.02E-02
1.26E+09	-9.98E-01	1.02E-02
1.27E+09	-9.99E-01	9.59E-03
1.28E+09	-9.99E-01	9.97E-03
1.28E+09	-9.99E-01	9.98E-03
1.29E+09	-1.00E+00	1.03E-02
1.30E+09	-1.00E+00	1.06E-02
1.31E+09	-1.00E+00	1.01E-02
1.31E+09	-1.00E+00	1.09E-02
1.32E+09	-1.00E+00	9.83E-03
1.33E+09	-1.00E+00	9.40E-03
1.34E+09	-1.00E+00	9.67E-03
1.34E+09	-1.00E+00	8.78E-03
1.35E+09	-1.00E+00	9.76E-03
1.36E+09	-1.00E+00	9.17E-03
1.37E+09	-1.00E+00	9.24E-03
1.37E+09	-1.00E+00	8.34E-03
1.38E+09	-1.00E+00	9.14E-03
1.39E+09	-1.00E+00	7.96E-03
1.40E+09	-1.00E+00	8.02E-03
1.40E+09	-1.00E+00	7.58E-03
1.41E+09	-1.00E+00	7.08E-03
1.42E+09	-1.00E+00	7.08E-03
1.43E+09	-1.00E+00	6.88E-03
1.43E+09	-1.00E+00	7.09E-03
1.44E+09	-1.00E+00	6.70E-03
1.45E+09	-1.00E+00	6.46E-03
1.46E+09	-1.00E+00	6.29E-03
1.46E+09	-1.00E+00	5.85E-03
1.47E+09	-1.00E+00	6.30E-03
1.48E+09	-1.00E+00	5.14E-03
1.49E+09	-1.00E+00	5.21E-03
1.49E+09	-1.00E+00	3.88E-03
1.50E+09	-1.00E+00	4.33E-03
