# Hz S RI R 50.000000
! FREQ                re:S1,1             im:S1,1          
5.00E+07	-1.07E-04	3.73E-04
5.47E+07	-1.07E-04	3.73E-04
6.22E+07	6.62E-04	3.31E-04
6.96E+07	4.90E-04	-1.03E-03
7.71E+07	1.86E-03	2.90E-04
8.45E+07	9.33E-04	5.73E-04
9.20E+07	1.57E-03	-2.56E-04
9.94E+07	1.39E-03	8.70E-04
1.07E+08	1.80E-03	4.09E-04
1.14E+08	1.94E-03	1.15E-03
1.22E+08	1.18E-03	1.28E-03
1.29E+08	2.06E-03	1.14E-03
1.37E+08	2.43E-03	1.16E-03
1.44E+08	1.83E-03	1.01E-03
1.52E+08	1.95E-03	1.39E-03
1.59E+08	1.70E-03	1.33E-03
1.66E+08	2.09E-03	1.80E-03
1.74E+08	2.11E-03	1.60E-03
1.81E+08	1.76E-03	1.73E-03
1.89E+08	2.02E-03	1.76E-03
1.96E+08	1.97E-03	2.06E-03
2.04E+08	1.75E-03	2.41E-03
2.11E+08	1.80E-03	2.43E-03
2.19E+08	1.45E-03	2.52E-03
2.26E+08	1.34E-03	2.68E-03
2.34E+08	1.29E-03	2.63E-03
2.41E+08	1.28E-03	2.79E-03
2.48E+08	1.02E-03	2.17E-03
2.56E+08	1.05E-03	2.60E-03
2.63E+08	1.15E-03	2.71E-03
2.71E+08	6.52E-04	2.59E-03
2.78E+08	4.77E-04	3.08E-03
2.86E+08	3.54E-04	2.94E-03
2.93E+08	4.13E-04	2.91E-03
3.01E+08	3.17E-04	3.16E-03
3.08E+08	6.07E-05	2.74E-03
3.15E+08	-4.42E-05	2.96E-03
3.23E+08	-9.22E-05	2.65E-03
3.30E+08	-2.29E-04	2.77E-03
3.38E+08	-4.62E-04	2.91E-03
3.45E+08	-6.30E-04	3.09E-03
3.53E+08	-7.11E-04	2.94E-03
3.60E+08	-9.59E-04	2.78E-03
3.68E+08	-7.59E-04	2.86E-03
3.75E+08	-1.02E-03	2.62E-03
3.83E+08	-1.14E-03	2.56E-03
3.90E+08	-1.40E-03	2.49E-03
3.97E+08	-1.61E-03	2.50E-03
4.05E+08	-1.68E-03	2.31E-03
4.12E+08	-1.69E-03	2.42E-03
4.20E+08	-1.91E-03	2.30E-03
4.27E+08	-1.96E-03	2.47E-03
4.35E+08	-2.12E-03	2.39E-03
4.42E+08	-2.37E-03	1.95E-03
4.50E+08	-2.46E-03	1.73E-03
4.57E+08	-2.59E-03	1.68E-03
4.64E+08	-2.67E-03	1.75E-03
4.72E+08	-2.48E-03	1.49E-03
4.79E+08	-2.79E-03	1.37E-03
4.87E+08	-2.94E-03	1.25E-03
4.94E+08	-2.84E-03	1.40E-03
5.02E+08	-2.96E-03	1.01E-03
5.09E+08	-3.07E-03	9.89E-04
5.17E+08	-3.16E-03	8.92E-04
5.24E+08	-3.19E-03	6.81E-04
5.32E+08	-3.07E-03	4.09E-04
5.39E+08	-3.16E-03	3.77E-04
5.46E+08	-3.32E-03	2.85E-05
5.54E+08	-3.30E-03	8.45E-05
5.61E+08	-3.20E-03	-1.76E-04
5.69E+08	-3.89E-03	-1.35E-04
5.76E+08	-3.51E-03	-5.30E-04
5.84E+08	-3.21E-03	-7.57E-04
5.91E+08	-3.15E-03	-7.64E-04
5.99E+08	-3.79E-03	-1.21E-03
6.06E+08	-3.02E-03	-1.37E-03
6.13E+08	-3.27E-03	-1.47E-03
6.21E+08	-3.18E-03	-1.42E-03
6.28E+08	-3.31E-03	-1.77E-03
6.36E+08	-2.96E-03	-1.90E-03
6.43E+08	-2.71E-03	-2.04E-03
6.51E+08	-2.90E-03	-2.17E-03
6.58E+08	-2.78E-03	-2.41E-03
6.66E+08	-2.70E-03	-2.39E-03
6.73E+08	-2.60E-03	-2.57E-03
6.81E+08	-2.35E-03	-2.69E-03
6.88E+08	-2.38E-03	-2.81E-03
6.95E+08	-2.31E-03	-2.83E-03
7.03E+08	-2.15E-03	-3.26E-03
7.10E+08	-1.97E-03	-3.30E-03
7.18E+08	-2.05E-03	-3.64E-03
7.25E+08	-1.68E-03	-3.69E-03
7.33E+08	-1.33E-03	-3.63E-03
7.40E+08	-1.45E-03	-3.83E-03
7.48E+08	-1.15E-03	-3.90E-03
7.55E+08	-1.12E-03	-3.91E-03
7.62E+08	-7.95E-04	-3.84E-03
7.70E+08	-8.07E-04	-3.90E-03
7.77E+08	-3.92E-04	-4.09E-03
7.85E+08	-4.87E-04	-4.17E-03
7.92E+08	-1.07E-04	-4.26E-03
8.00E+08	-1.73E-05	-4.04E-03
8.07E+08	3.98E-04	-4.35E-03
8.15E+08	5.54E-04	-4.10E-03
8.22E+08	7.11E-04	-4.03E-03
8.30E+08	8.27E-04	-3.95E-03
8.37E+08	7.76E-04	-3.92E-03
8.44E+08	1.27E-03	-4.03E-03
8.52E+08	1.45E-03	-3.89E-03
8.59E+08	1.65E-03	-3.90E-03
8.67E+08	1.74E-03	-3.76E-03
8.74E+08	2.28E-03	-3.75E-03
8.82E+08	2.26E-03	-3.62E-03
8.89E+08	2.38E-03	-3.63E-03
8.97E+08	2.69E-03	-3.28E-03
9.04E+08	2.88E-03	-3.54E-03
9.11E+08	2.91E-03	-3.17E-03
9.19E+08	2.64E-03	-3.42E-03
9.26E+08	3.32E-03	-3.09E-03
9.34E+08	3.02E-03	-2.85E-03
9.41E+08	3.55E-03	-2.50E-03
9.49E+08	3.56E-03	-2.52E-03
9.56E+08	3.74E-03	-2.33E-03
9.64E+08	3.82E-03	-2.20E-03
9.71E+08	4.02E-03	-2.05E-03
9.79E+08	3.94E-03	-1.85E-03
9.86E+08	4.10E-03	-1.66E-03
9.93E+08	4.17E-03	-1.45E-03
1.00E+09	4.17E-03	-1.08E-03
1.01E+09	3.93E-03	-1.33E-03
1.02E+09	4.15E-03	-6.42E-04
1.02E+09	4.28E-03	-5.14E-04
1.03E+09	4.19E-03	-1.50E-04
1.04E+09	4.34E-03	-2.83E-04
1.05E+09	4.31E-03	3.55E-04
1.05E+09	4.50E-03	5.79E-04
1.06E+09	4.19E-03	8.87E-04
1.07E+09	4.22E-03	4.79E-04
1.08E+09	4.18E-03	1.18E-03
1.08E+09	4.10E-03	1.52E-03
1.09E+09	3.96E-03	1.63E-03
1.10E+09	3.96E-03	1.43E-03
1.11E+09	3.94E-03	1.99E-03
1.11E+09	3.78E-03	2.52E-03
1.12E+09	3.58E-03	2.39E-03
1.13E+09	3.87E-03	2.59E-03
1.13E+09	3.20E-03	2.88E-03
1.14E+09	3.23E-03	3.08E-03
1.15E+09	2.82E-03	3.17E-03
1.16E+09	2.74E-03	3.43E-03
1.16E+09	2.56E-03	3.58E-03
1.17E+09	2.13E-03	3.83E-03
1.18E+09	2.22E-03	3.93E-03
1.19E+09	1.82E-03	4.04E-03
1.19E+09	1.72E-03	4.28E-03
1.20E+09	1.45E-03	4.35E-03
1.21E+09	1.18E-03	4.27E-03
1.22E+09	8.73E-04	4.38E-03
1.22E+09	5.01E-04	4.43E-03
1.23E+09	2.32E-04	4.49E-03
1.24E+09	3.32E-04	4.42E-03
1.25E+09	-2.81E-04	4.70E-03
1.25E+09	-5.45E-04	4.45E-03
1.26E+09	-6.93E-04	4.53E-03
1.27E+09	-9.95E-04	4.66E-03
1.28E+09	-1.28E-03	4.39E-03
1.28E+09	-1.53E-03	4.44E-03
1.29E+09	-1.88E-03	4.49E-03
1.30E+09	-1.90E-03	4.58E-03
1.31E+09	-2.62E-03	4.07E-03
1.31E+09	-2.57E-03	4.14E-03
1.32E+09	-2.81E-03	3.63E-03
1.33E+09	-3.05E-03	4.08E-03
1.34E+09	-3.34E-03	3.63E-03
1.34E+09	-3.51E-03	3.37E-03
1.35E+09	-3.72E-03	3.17E-03
1.36E+09	-4.12E-03	3.11E-03
1.37E+09	-4.17E-03	2.82E-03
1.37E+09	-4.56E-03	2.47E-03
1.38E+09	-4.81E-03	2.40E-03
1.39E+09	-4.59E-03	1.94E-03
1.40E+09	-5.12E-03	1.93E-03
1.40E+09	-5.12E-03	1.53E-03
1.41E+09	-5.45E-03	1.20E-03
1.42E+09	-6.29E-03	1.35E-03
1.43E+09	-5.97E-03	9.11E-04
1.43E+09	-5.65E-03	7.36E-04
1.44E+09	-5.71E-03	5.14E-04
1.45E+09	-7.03E-03	5.39E-04
1.46E+09	-5.51E-03	-8.79E-05
1.46E+09	-5.80E-03	-3.55E-04
1.47E+09	-5.58E-03	-1.04E-03
1.48E+09	-5.63E-03	-1.29E-03
1.49E+09	-5.48E-03	-1.60E-03
1.49E+09	-5.19E-03	-1.92E-03
1.50E+09	-5.72E-03	-2.73E-03
