# Hz S RI R 50.000000
! FREQ                re:S1,1             im:S1,1          
1.00E+07  4.81E+01  1.61E-02
1.20E+07  4.75E+01  -1.02E+00
1.40E+07  4.70E+01  -8.14E-01
1.60E+07  4.73E+01  -9.98E-01
1.79E+07  4.78E+01  -9.91E-01
1.99E+07  4.73E+01  -9.94E-01
2.19E+07  4.80E+01  -9.59E-01
2.39E+07  4.76E+01  -5.29E-01
2.59E+07  4.74E+01  -8.31E-01
2.79E+07  4.78E+01  -6.43E-01
2.99E+07  4.78E+01  -6.10E-01
3.19E+07  4.79E+01  -6.04E-01
3.38E+07  4.76E+01  -6.73E-01
3.58E+07  4.78E+01  -3.01E-01
3.78E+07  4.78E+01  -6.96E-01
3.98E+07  4.80E+01  -7.60E-01
4.18E+07  4.80E+01  -5.74E-01
4.38E+07  4.78E+01  -5.68E-01
4.58E+07  4.80E+01  -7.48E-01
4.77E+07  4.77E+01  -5.67E-01
4.97E+07  4.80E+01  -7.34E-01
5.17E+07  4.80E+01  -7.51E-01
5.37E+07  4.80E+01  -7.54E-01
5.57E+07  4.80E+01  -7.18E-01
5.77E+07  4.80E+01  -8.24E-01
5.97E+07  4.80E+01  -9.97E-01
6.17E+07  4.79E+01  -9.28E-01
6.36E+07  4.79E+01  -9.94E-01
6.56E+07  4.80E+01  -1.17E+00
6.76E+07  4.80E+01  -1.20E+00
6.96E+07  4.80E+01  -1.06E+00
7.16E+07  4.80E+01  -1.02E+00
7.36E+07  4.81E+01  -1.19E+00
7.56E+07  4.81E+01  -1.13E+00
7.75E+07  4.81E+01  -1.06E+00
7.95E+07  4.81E+01  -1.12E+00
8.15E+07  4.82E+01  -1.25E+00
8.35E+07  4.82E+01  -1.04E+00
8.55E+07  4.82E+01  -1.11E+00
8.75E+07  4.82E+01  -1.13E+00
8.95E+07  4.82E+01  -1.17E+00
9.15E+07  4.84E+01  -1.35E+00
9.34E+07  4.83E+01  -1.26E+00
9.54E+07  4.83E+01  -1.11E+00
9.74E+07  4.83E+01  -1.29E+00
9.94E+07  4.84E+01  -1.34E+00
1.01E+08  4.84E+01  -1.29E+00
1.03E+08  4.84E+01  -1.22E+00
1.05E+08  4.83E+01  -1.36E+00
1.07E+08  4.84E+01  -1.33E+00
1.09E+08  4.84E+01  -1.49E+00
1.11E+08  4.84E+01  -1.47E+00
1.13E+08  4.84E+01  -1.45E+00
1.15E+08  4.85E+01  -1.55E+00
1.17E+08  4.85E+01  -1.42E+00
1.19E+08  4.84E+01  -1.57E+00
1.21E+08  4.85E+01  -1.47E+00
1.23E+08  4.85E+01  -1.58E+00
1.25E+08  4.85E+01  -1.56E+00
1.27E+08  4.86E+01  -1.54E+00
1.29E+08  4.85E+01  -1.55E+00
1.31E+08  4.86E+01  -1.52E+00
1.33E+08  4.86E+01  -1.58E+00
1.35E+08  4.86E+01  -1.58E+00
1.37E+08  4.87E+01  -1.67E+00
1.39E+08  4.87E+01  -1.64E+00
1.41E+08  4.86E+01  -1.61E+00
1.43E+08  4.87E+01  -1.70E+00
1.45E+08  4.88E+01  -1.63E+00
1.47E+08  4.88E+01  -1.64E+00
1.49E+08  4.87E+01  -1.76E+00
1.51E+08  4.88E+01  -1.76E+00
1.53E+08  4.88E+01  -1.74E+00
1.55E+08  4.88E+01  -1.87E+00
1.57E+08  4.89E+01  -1.77E+00
1.59E+08  4.88E+01  -1.75E+00
1.61E+08  4.88E+01  -1.81E+00
1.63E+08  4.90E+01  -1.84E+00
1.65E+08  4.89E+01  -1.80E+00
1.67E+08  4.89E+01  -1.83E+00
1.69E+08  4.89E+01  -1.83E+00
1.71E+08  4.90E+01  -1.86E+00
1.73E+08  4.91E+01  -1.88E+00
1.75E+08  4.90E+01  -1.90E+00
1.77E+08  4.90E+01  -1.89E+00
1.79E+08  4.91E+01  -1.87E+00
1.81E+08  4.91E+01  -1.95E+00
1.83E+08  4.91E+01  -1.97E+00
1.85E+08  4.91E+01  -1.93E+00
1.87E+08  4.92E+01  -1.90E+00
1.89E+08  4.91E+01  -2.00E+00
1.91E+08  4.92E+01  -1.97E+00
1.93E+08  4.91E+01  -2.00E+00
1.95E+08  4.93E+01  -1.97E+00
1.97E+08  4.93E+01  -2.01E+00
1.99E+08  4.93E+01  -2.02E+00
2.01E+08  4.93E+01  -2.04E+00
2.03E+08  4.93E+01  -2.04E+00
2.05E+08  4.94E+01  -2.04E+00
2.07E+08  4.94E+01  -2.05E+00
2.09E+08  4.94E+01  -2.09E+00
2.11E+08  4.94E+01  -2.09E+00
2.13E+08  4.94E+01  -2.04E+00
2.15E+08  4.95E+01  -2.06E+00
2.17E+08  4.95E+01  -2.10E+00
2.19E+08  4.95E+01  -2.08E+00
2.21E+08  4.95E+01  -2.11E+00
2.23E+08  4.95E+01  -2.07E+00
2.25E+08  4.96E+01  -2.09E+00
2.27E+08  4.97E+01  -2.10E+00
2.29E+08  4.96E+01  -2.15E+00
2.31E+08  4.96E+01  -2.10E+00
2.33E+08  4.97E+01  -2.10E+00
2.34E+08  4.97E+01  -2.15E+00
2.36E+08  4.97E+01  -2.10E+00
2.38E+08  4.98E+01  -2.12E+00
2.40E+08  4.98E+01  -2.13E+00
2.42E+08  4.98E+01  -2.13E+00
2.44E+08  4.99E+01  -2.13E+00
2.46E+08  4.99E+01  -2.12E+00
2.48E+08  4.99E+01  -2.17E+00
2.50E+08  4.99E+01  -2.12E+00
2.52E+08  4.99E+01  -2.14E+00
2.54E+08  4.99E+01  -2.15E+00
2.56E+08  5.00E+01  -2.17E+00
2.58E+08  5.00E+01  -2.16E+00
2.60E+08  5.01E+01  -2.17E+00
2.62E+08  5.00E+01  -2.15E+00
2.64E+08  5.01E+01  -2.13E+00
2.66E+08  5.01E+01  -2.17E+00
2.68E+08  5.01E+01  -2.17E+00
2.70E+08  5.02E+01  -2.14E+00
2.72E+08  5.02E+01  -2.19E+00
2.74E+08  5.02E+01  -2.15E+00
2.76E+08  5.03E+01  -2.15E+00
2.78E+08  5.03E+01  -2.15E+00
2.80E+08  5.03E+01  -2.14E+00
2.82E+08  5.03E+01  -2.11E+00
2.84E+08  5.03E+01  -2.14E+00
2.86E+08  5.04E+01  -2.12E+00
2.88E+08  5.04E+01  -2.16E+00
2.90E+08  5.04E+01  -2.14E+00
2.92E+08  5.04E+01  -2.14E+00
2.94E+08  5.05E+01  -2.13E+00
2.96E+08  5.05E+01  -2.15E+00
2.98E+08  5.05E+01  -2.08E+00
3.00E+08  5.05E+01  -2.09E+00
3.02E+08  5.06E+01  -2.14E+00
3.04E+08  5.06E+01  -2.10E+00
3.06E+08  5.06E+01  -2.08E+00
3.08E+08  5.07E+01  -2.10E+00
3.10E+08  5.07E+01  -2.11E+00
3.12E+08  5.07E+01  -2.06E+00
3.14E+08  5.07E+01  -2.08E+00
3.16E+08  5.08E+01  -2.06E+00
3.18E+08  5.07E+01  -2.03E+00
3.20E+08  5.08E+01  -2.03E+00
3.22E+08  5.08E+01  -2.02E+00
3.24E+08  5.08E+01  -2.03E+00
3.26E+08  5.09E+01  -1.99E+00
3.28E+08  5.09E+01  -2.03E+00
3.30E+08  5.09E+01  -2.00E+00
3.32E+08  5.09E+01  -2.01E+00
3.34E+08  5.10E+01  -1.97E+00
3.36E+08  5.10E+01  -1.97E+00
3.38E+08  5.10E+01  -1.96E+00
3.40E+08  5.10E+01  -1.95E+00
3.42E+08  5.10E+01  -1.94E+00
3.44E+08  5.11E+01  -1.92E+00
3.46E+08  5.11E+01  -1.91E+00
3.48E+08  5.11E+01  -1.89E+00
3.50E+08  5.12E+01  -1.88E+00
3.52E+08  5.12E+01  -1.89E+00
3.54E+08  5.12E+01  -1.87E+00
3.56E+08  5.12E+01  -1.86E+00
3.58E+08  5.12E+01  -1.85E+00
3.60E+08  5.13E+01  -1.81E+00
3.62E+08  5.13E+01  -1.83E+00
3.64E+08  5.13E+01  -1.83E+00
3.66E+08  5.13E+01  -1.78E+00
3.68E+08  5.14E+01  -1.79E+00
3.70E+08  5.14E+01  -1.77E+00
3.72E+08  5.14E+01  -1.75E+00
3.74E+08  5.14E+01  -1.71E+00
3.76E+08  5.15E+01  -1.72E+00
3.78E+08  5.14E+01  -1.67E+00
3.80E+08  5.15E+01  -1.68E+00
3.82E+08  5.15E+01  -1.64E+00
3.83E+08  5.15E+01  -1.65E+00
3.85E+08  5.15E+01  -1.62E+00
3.87E+08  5.16E+01  -1.59E+00
3.89E+08  5.16E+01  -1.58E+00
3.91E+08  5.16E+01  -1.55E+00
3.93E+08  5.16E+01  -1.53E+00
3.95E+08  5.16E+01  -1.53E+00
3.97E+08  5.16E+01  -1.52E+00
3.99E+08  5.16E+01  -1.50E+00
4.01E+08  5.17E+01  -1.46E+00
4.03E+08  5.17E+01  -1.44E+00
4.05E+08  5.17E+01  -1.44E+00
4.07E+08  5.17E+01  -1.42E+00
4.09E+08  5.17E+01  -1.39E+00
4.11E+08  5.18E+01  -1.40E+00
4.13E+08  5.18E+01  -1.35E+00
4.15E+08  5.18E+01  -1.35E+00
4.17E+08  5.18E+01  -1.30E+00
4.19E+08  5.18E+01  -1.26E+00
4.21E+08  5.19E+01  -1.25E+00
4.23E+08  5.19E+01  -1.24E+00
4.25E+08  5.19E+01  -1.23E+00
4.27E+08  5.19E+01  -1.21E+00
4.29E+08  5.19E+01  -1.15E+00
4.31E+08  5.19E+01  -1.17E+00
4.33E+08  5.19E+01  -1.10E+00
4.35E+08  5.19E+01  -1.12E+00
4.37E+08  5.20E+01  -1.10E+00
4.39E+08  5.20E+01  -1.06E+00
4.41E+08  5.20E+01  -1.02E+00
4.43E+08  5.20E+01  -1.02E+00
4.45E+08  5.20E+01  -1.00E+00
4.47E+08  5.20E+01  -9.24E-01
4.49E+08  5.20E+01  -9.21E-01
4.51E+08  5.21E+01  -9.30E-01
4.53E+08  5.21E+01  -9.05E-01
4.55E+08  5.21E+01  -8.61E-01
4.57E+08  5.21E+01  -8.42E-01
4.59E+08  5.21E+01  -8.08E-01
4.61E+08  5.21E+01  -7.66E-01
4.63E+08  5.21E+01  -7.73E-01
4.65E+08  5.21E+01  -7.33E-01
4.67E+08  5.21E+01  -7.21E-01
4.69E+08  5.21E+01  -6.98E-01
4.71E+08  5.21E+01  -6.81E-01
4.73E+08  5.21E+01  -6.34E-01
4.75E+08  5.22E+01  -5.99E-01
4.77E+08  5.22E+01  -5.92E-01
4.79E+08  5.22E+01  -5.67E-01
4.81E+08  5.22E+01  -5.43E-01
4.83E+08  5.22E+01  -4.99E-01
4.85E+08  5.22E+01  -4.86E-01
4.87E+08  5.22E+01  -4.61E-01
4.89E+08  5.22E+01  -4.47E-01
4.91E+08  5.22E+01  -4.13E-01
4.93E+08  5.22E+01  -3.93E-01
4.95E+08  5.22E+01  -3.41E-01
4.97E+08  5.22E+01  -3.39E-01
4.99E+08  5.22E+01  -3.09E-01
5.01E+08  5.22E+01  -3.10E-01
5.03E+08  5.22E+01  -2.85E-01
5.05E+08  5.22E+01  -2.17E-01
5.07E+08  5.22E+01  -1.86E-01
5.09E+08  5.23E+01  -1.83E-01
5.11E+08  5.23E+01  -1.54E-01
5.13E+08  5.23E+01  -1.18E-01
5.15E+08  5.22E+01  -7.79E-02
5.17E+08  5.22E+01  -7.42E-02
5.19E+08  5.23E+01  -5.08E-02
5.21E+08  5.23E+01  -4.18E-02
5.23E+08  5.23E+01  7.48E-03
5.25E+08  5.22E+01  6.80E-02
5.27E+08  5.23E+01  8.51E-02
5.29E+08  5.22E+01  1.01E-01
5.31E+08  5.22E+01  1.24E-01
5.32E+08  5.22E+01  1.64E-01
5.34E+08  5.22E+01  1.86E-01
5.36E+08  5.22E+01  1.87E-01
5.38E+08  5.22E+01  2.20E-01
5.40E+08  5.22E+01  2.62E-01
5.42E+08  5.22E+01  2.78E-01
5.44E+08  5.22E+01  3.24E-01
5.46E+08  5.22E+01  3.52E-01
5.48E+08  5.22E+01  3.56E-01
5.50E+08  5.22E+01  4.07E-01
5.52E+08  5.22E+01  4.22E-01
5.54E+08  5.22E+01  4.56E-01
5.56E+08  5.22E+01  4.82E-01
5.58E+08  5.22E+01  4.91E-01
5.60E+08  5.22E+01  5.24E-01
5.62E+08  5.22E+01  5.40E-01
5.64E+08  5.22E+01  5.73E-01
5.66E+08  5.22E+01  5.98E-01
5.68E+08  5.22E+01  6.29E-01
5.70E+08  5.22E+01  6.64E-01
5.72E+08  5.22E+01  6.90E-01
5.74E+08  5.21E+01  7.05E-01
5.76E+08  5.21E+01  7.06E-01
5.78E+08  5.21E+01  7.60E-01
5.80E+08  5.21E+01  7.85E-01
5.82E+08  5.21E+01  8.09E-01
5.84E+08  5.21E+01  8.51E-01
5.86E+08  5.21E+01  8.56E-01
5.88E+08  5.21E+01  8.96E-01
5.90E+08  5.21E+01  9.15E-01
5.92E+08  5.20E+01  9.53E-01
5.94E+08  5.20E+01  9.47E-01
5.96E+08  5.20E+01  9.99E-01
5.98E+08  5.20E+01  1.01E+00
6.00E+08  5.20E+01  1.02E+00
6.02E+08  5.20E+01  1.04E+00
6.04E+08  5.20E+01  1.07E+00
6.06E+08  5.19E+01  1.10E+00
6.08E+08  5.19E+01  1.13E+00
6.10E+08  5.19E+01  1.14E+00
6.12E+08  5.19E+01  1.17E+00
6.14E+08  5.19E+01  1.18E+00
6.16E+08  5.19E+01  1.21E+00
6.18E+08  5.19E+01  1.25E+00
6.20E+08  5.18E+01  1.25E+00
6.22E+08  5.18E+01  1.28E+00
6.24E+08  5.18E+01  1.30E+00
6.26E+08  5.18E+01  1.32E+00
6.28E+08  5.18E+01  1.33E+00
6.30E+08  5.18E+01  1.38E+00
6.32E+08  5.17E+01  1.39E+00
6.34E+08  5.17E+01  1.42E+00
6.36E+08  5.17E+01  1.43E+00
6.38E+08  5.17E+01  1.47E+00
6.40E+08  5.17E+01  1.48E+00
6.42E+08  5.17E+01  1.50E+00
6.44E+08  5.16E+01  1.52E+00
6.46E+08  5.16E+01  1.52E+00
6.48E+08  5.16E+01  1.54E+00
6.50E+08  5.16E+01  1.55E+00
6.52E+08  5.16E+01  1.57E+00
6.54E+08  5.16E+01  1.61E+00
6.56E+08  5.15E+01  1.63E+00
6.58E+08  5.15E+01  1.63E+00
6.60E+08  5.15E+01  1.66E+00
6.62E+08  5.15E+01  1.66E+00
6.64E+08  5.14E+01  1.71E+00
6.66E+08  5.14E+01  1.68E+00
6.68E+08  5.14E+01  1.71E+00
6.70E+08  5.14E+01  1.76E+00
6.72E+08  5.14E+01  1.75E+00
6.74E+08  5.13E+01  1.77E+00
6.76E+08  5.13E+01  1.78E+00
6.78E+08  5.13E+01  1.80E+00
6.80E+08  5.13E+01  1.80E+00
6.81E+08  5.12E+01  1.81E+00
6.83E+08  5.12E+01  1.82E+00
6.85E+08  5.12E+01  1.85E+00
6.87E+08  5.12E+01  1.86E+00
6.89E+08  5.11E+01  1.87E+00
6.91E+08  5.11E+01  1.88E+00
6.93E+08  5.11E+01  1.90E+00
6.95E+08  5.11E+01  1.90E+00
6.97E+08  5.10E+01  1.91E+00
6.99E+08  5.10E+01  1.95E+00
7.01E+08  5.10E+01  1.94E+00
7.03E+08  5.10E+01  1.95E+00
7.05E+08  5.10E+01  1.96E+00
7.07E+08  5.09E+01  1.97E+00
7.09E+08  5.09E+01  2.00E+00
7.11E+08  5.09E+01  2.00E+00
7.13E+08  5.08E+01  2.01E+00
7.15E+08  5.08E+01  2.02E+00
7.17E+08  5.08E+01  2.04E+00
7.19E+08  5.08E+01  2.03E+00
7.21E+08  5.07E+01  2.06E+00
7.23E+08  5.07E+01  2.06E+00
7.25E+08  5.07E+01  2.07E+00
7.27E+08  5.07E+01  2.07E+00
7.29E+08  5.07E+01  2.07E+00
7.31E+08  5.06E+01  2.08E+00
7.33E+08  5.06E+01  2.11E+00
7.35E+08  5.06E+01  2.09E+00
7.37E+08  5.06E+01  2.11E+00
7.39E+08  5.05E+01  2.11E+00
7.41E+08  5.05E+01  2.11E+00
7.43E+08  5.05E+01  2.13E+00
7.45E+08  5.04E+01  2.14E+00
7.47E+08  5.04E+01  2.14E+00
7.49E+08  5.04E+01  2.13E+00
7.51E+08  5.03E+01  2.14E+00
7.53E+08  5.03E+01  2.14E+00
7.55E+08  5.03E+01  2.16E+00
7.57E+08  5.03E+01  2.15E+00
7.59E+08  5.02E+01  2.16E+00
7.61E+08  5.02E+01  2.15E+00
7.63E+08  5.02E+01  2.15E+00
7.65E+08  5.02E+01  2.15E+00
7.67E+08  5.02E+01  2.15E+00
7.69E+08  5.01E+01  2.16E+00
7.71E+08  5.01E+01  2.15E+00
7.73E+08  5.01E+01  2.15E+00
7.75E+08  5.01E+01  2.14E+00
7.77E+08  5.00E+01  2.15E+00
7.79E+08  5.00E+01  2.15E+00
7.81E+08  5.00E+01  2.13E+00
7.83E+08  4.99E+01  2.17E+00
7.85E+08  4.99E+01  2.13E+00
7.87E+08  4.99E+01  2.16E+00
7.89E+08  4.99E+01  2.13E+00
7.91E+08  4.98E+01  2.14E+00
7.93E+08  4.98E+01  2.14E+00
7.95E+08  4.98E+01  2.13E+00
7.97E+08  4.98E+01  2.13E+00
7.99E+08  4.97E+01  2.14E+00
8.01E+08  4.97E+01  2.13E+00
8.03E+08  4.97E+01  2.14E+00
8.05E+08  4.97E+01  2.10E+00
8.07E+08  4.96E+01  2.09E+00
8.09E+08  4.96E+01  2.11E+00
8.11E+08  4.96E+01  2.08E+00
8.13E+08  4.95E+01  2.08E+00
8.15E+08  4.95E+01  2.07E+00
8.17E+08  4.95E+01  2.08E+00
8.19E+08  4.94E+01  2.06E+00
8.21E+08  4.94E+01  2.06E+00
8.23E+08  4.94E+01  2.04E+00
8.25E+08  4.94E+01  2.04E+00
8.27E+08  4.94E+01  2.06E+00
8.29E+08  4.94E+01  2.00E+00
8.30E+08  4.93E+01  2.01E+00
8.32E+08  4.93E+01  1.99E+00
8.34E+08  4.93E+01  2.01E+00
8.36E+08  4.92E+01  1.98E+00
8.38E+08  4.92E+01  2.01E+00
8.40E+08  4.92E+01  1.97E+00
8.42E+08  4.92E+01  1.98E+00
8.44E+08  4.91E+01  1.93E+00
8.46E+08  4.91E+01  1.94E+00
8.48E+08  4.91E+01  1.94E+00
8.50E+08  4.91E+01  1.90E+00
8.52E+08  4.91E+01  1.91E+00
8.54E+08  4.90E+01  1.90E+00
8.56E+08  4.90E+01  1.88E+00
8.58E+08  4.90E+01  1.86E+00
8.60E+08  4.90E+01  1.84E+00
8.62E+08  4.89E+01  1.83E+00
8.64E+08  4.89E+01  1.82E+00
8.66E+08  4.89E+01  1.79E+00
8.68E+08  4.89E+01  1.77E+00
8.70E+08  4.88E+01  1.78E+00
8.72E+08  4.88E+01  1.73E+00
8.74E+08  4.88E+01  1.73E+00
8.76E+08  4.88E+01  1.74E+00
8.78E+08  4.87E+01  1.72E+00
8.80E+08  4.87E+01  1.70E+00
8.82E+08  4.87E+01  1.69E+00
8.84E+08  4.87E+01  1.66E+00
8.86E+08  4.87E+01  1.63E+00
8.88E+08  4.86E+01  1.62E+00
8.90E+08  4.86E+01  1.59E+00
8.92E+08  4.86E+01  1.59E+00
8.94E+08  4.86E+01  1.62E+00
8.96E+08  4.86E+01  1.56E+00
8.98E+08  4.85E+01  1.56E+00
9.00E+08  4.85E+01  1.54E+00
9.02E+08  4.85E+01  1.50E+00
9.04E+08  4.85E+01  1.50E+00
9.06E+08  4.85E+01  1.46E+00
9.08E+08  4.85E+01  1.45E+00
9.10E+08  4.84E+01  1.45E+00
9.12E+08  4.84E+01  1.40E+00
9.14E+08  4.84E+01  1.39E+00
9.16E+08  4.84E+01  1.36E+00
9.18E+08  4.84E+01  1.33E+00
9.20E+08  4.84E+01  1.33E+00
9.22E+08  4.84E+01  1.31E+00
9.24E+08  4.83E+01  1.28E+00
9.26E+08  4.83E+01  1.27E+00
9.28E+08  4.83E+01  1.25E+00
9.30E+08  4.83E+01  1.20E+00
9.32E+08  4.82E+01  1.18E+00
9.34E+08  4.82E+01  1.17E+00
9.36E+08  4.83E+01  1.16E+00
9.38E+08  4.82E+01  1.15E+00
9.40E+08  4.82E+01  1.11E+00
9.42E+08  4.82E+01  1.11E+00
9.44E+08  4.82E+01  1.06E+00
9.46E+08  4.82E+01  1.04E+00
9.48E+08  4.81E+01  1.01E+00
9.50E+08  4.81E+01  1.01E+00
9.52E+08  4.81E+01  9.82E-01
9.54E+08  4.81E+01  9.33E-01
9.56E+08  4.81E+01  9.64E-01
9.58E+08  4.81E+01  8.91E-01
9.60E+08  4.81E+01  8.76E-01
9.62E+08  4.81E+01  8.51E-01
9.64E+08  4.81E+01  8.29E-01
9.66E+08  4.81E+01  7.94E-01
9.68E+08  4.80E+01  7.89E-01
9.70E+08  4.80E+01  7.82E-01
9.72E+08  4.80E+01  7.22E-01
9.74E+08  4.80E+01  7.25E-01
9.76E+08  4.80E+01  6.83E-01
9.78E+08  4.80E+01  6.58E-01
9.79E+08  4.80E+01  6.40E-01
9.81E+08  4.80E+01  5.93E-01
9.83E+08  4.79E+01  5.90E-01
9.85E+08  4.80E+01  5.66E-01
9.87E+08  4.79E+01  5.24E-01
9.89E+08  4.79E+01  5.17E-01
9.91E+08  4.79E+01  4.72E-01
9.93E+08  4.79E+01  4.41E-01
9.95E+08  4.79E+01  4.29E-01
9.97E+08  4.79E+01  4.21E-01
9.99E+08  4.79E+01  3.73E-01
1.00E+09  4.79E+01  3.43E-01
1.00E+09  4.79E+01  3.13E-01
1.01E+09  4.79E+01  2.72E-01
1.01E+09  4.79E+01  2.60E-01
1.01E+09  4.79E+01  2.36E-01
1.01E+09  4.79E+01  2.43E-01
1.01E+09  4.79E+01  1.67E-01
1.02E+09  4.79E+01  1.69E-01
1.02E+09  4.79E+01  1.41E-01
1.02E+09  4.79E+01  1.03E-01
1.02E+09  4.79E+01  8.26E-02
1.02E+09  4.79E+01  6.43E-02
1.03E+09  4.79E+01  7.06E-03
1.03E+09  4.79E+01  -1.25E-03
1.03E+09  4.79E+01  -2.09E-02
1.03E+09  4.79E+01  -4.63E-02
1.03E+09  4.79E+01  -6.73E-02
1.04E+09  4.79E+01  -1.15E-01
1.04E+09  4.79E+01  -1.08E-01
1.04E+09  4.79E+01  -1.63E-01
1.04E+09  4.79E+01  -1.86E-01
1.04E+09  4.79E+01  -2.11E-01
1.05E+09  4.79E+01  -2.33E-01
1.05E+09  4.79E+01  -2.64E-01
1.05E+09  4.79E+01  -3.17E-01
1.05E+09  4.78E+01  -3.10E-01
1.05E+09  4.79E+01  -3.52E-01
1.05E+09  4.79E+01  -3.65E-01
1.06E+09  4.79E+01  -3.88E-01
1.06E+09  4.79E+01  -4.20E-01
1.06E+09  4.79E+01  -4.54E-01
1.06E+09  4.79E+01  -4.88E-01
1.06E+09  4.79E+01  -5.05E-01
1.07E+09  4.79E+01  -5.52E-01
1.07E+09  4.79E+01  -5.52E-01
1.07E+09  4.79E+01  -5.88E-01
1.07E+09  4.79E+01  -6.28E-01
1.07E+09  4.79E+01  -6.26E-01
1.08E+09  4.79E+01  -6.76E-01
1.08E+09  4.79E+01  -6.94E-01
1.08E+09  4.79E+01  -7.34E-01
1.08E+09  4.80E+01  -7.50E-01
1.08E+09  4.80E+01  -7.65E-01
1.09E+09  4.80E+01  -7.85E-01
1.09E+09  4.80E+01  -8.23E-01
1.09E+09  4.80E+01  -8.33E-01
1.09E+09  4.80E+01  -8.71E-01
1.09E+09  4.80E+01  -9.09E-01
1.10E+09  4.80E+01  -9.25E-01
1.10E+09  4.80E+01  -9.52E-01
1.10E+09  4.80E+01  -9.73E-01
1.10E+09  4.80E+01  -9.98E-01
1.10E+09  4.80E+01  -1.02E+00
1.11E+09  4.81E+01  -1.03E+00
1.11E+09  4.81E+01  -1.09E+00
1.11E+09  4.81E+01  -1.10E+00
1.11E+09  4.81E+01  -1.13E+00
1.11E+09  4.81E+01  -1.15E+00
1.12E+09  4.82E+01  -1.18E+00
1.12E+09  4.82E+01  -1.18E+00
1.12E+09  4.81E+01  -1.22E+00
1.12E+09  4.82E+01  -1.24E+00
1.12E+09  4.82E+01  -1.26E+00
1.13E+09  4.82E+01  -1.30E+00
1.13E+09  4.82E+01  -1.32E+00
1.13E+09  4.82E+01  -1.34E+00
1.13E+09  4.82E+01  -1.36E+00
1.13E+09  4.83E+01  -1.36E+00
1.14E+09  4.83E+01  -1.41E+00
1.14E+09  4.83E+01  -1.42E+00
1.14E+09  4.83E+01  -1.45E+00
1.14E+09  4.83E+01  -1.47E+00
1.14E+09  4.83E+01  -1.47E+00
1.15E+09  4.83E+01  -1.51E+00
1.15E+09  4.84E+01  -1.53E+00
1.15E+09  4.84E+01  -1.54E+00
1.15E+09  4.84E+01  -1.59E+00
1.15E+09  4.84E+01  -1.58E+00
1.16E+09  4.84E+01  -1.62E+00
1.16E+09  4.85E+01  -1.63E+00
1.16E+09  4.85E+01  -1.64E+00
1.16E+09  4.85E+01  -1.68E+00
1.16E+09  4.85E+01  -1.70E+00
1.17E+09  4.86E+01  -1.71E+00
1.17E+09  4.86E+01  -1.74E+00
1.17E+09  4.86E+01  -1.77E+00
1.17E+09  4.86E+01  -1.78E+00
1.17E+09  4.86E+01  -1.80E+00
1.18E+09  4.86E+01  -1.81E+00
1.18E+09  4.87E+01  -1.83E+00
1.18E+09  4.87E+01  -1.85E+00
1.18E+09  4.87E+01  -1.87E+00
1.18E+09  4.87E+01  -1.88E+00
1.19E+09  4.87E+01  -1.91E+00
1.19E+09  4.88E+01  -1.92E+00
1.19E+09  4.88E+01  -1.95E+00
1.19E+09  4.88E+01  -1.95E+00
1.19E+09  4.89E+01  -1.95E+00
1.20E+09  4.89E+01  -1.98E+00
1.20E+09  4.89E+01  -2.03E+00
1.20E+09  4.89E+01  -2.01E+00
1.20E+09  4.89E+01  -2.02E+00
1.20E+09  4.90E+01  -2.05E+00
1.21E+09  4.90E+01  -2.04E+00
1.21E+09  4.90E+01  -2.07E+00
1.21E+09  4.90E+01  -2.08E+00
1.21E+09  4.91E+01  -2.12E+00
1.21E+09  4.91E+01  -2.12E+00
1.22E+09  4.91E+01  -2.13E+00
1.22E+09  4.91E+01  -2.14E+00
1.22E+09  4.92E+01  -2.18E+00
1.22E+09  4.92E+01  -2.15E+00
1.22E+09  4.92E+01  -2.20E+00
1.23E+09  4.92E+01  -2.18E+00
1.23E+09  4.93E+01  -2.20E+00
1.23E+09  4.93E+01  -2.24E+00
1.23E+09  4.93E+01  -2.21E+00
1.23E+09  4.93E+01  -2.24E+00
1.24E+09  4.94E+01  -2.26E+00
1.24E+09  4.94E+01  -2.25E+00
1.24E+09  4.94E+01  -2.27E+00
1.24E+09  4.94E+01  -2.30E+00
1.24E+09  4.95E+01  -2.29E+00
1.25E+09  4.95E+01  -2.29E+00
1.25E+09  4.95E+01  -2.31E+00
1.25E+09  4.96E+01  -2.33E+00
1.25E+09  4.96E+01  -2.32E+00
1.25E+09  4.96E+01  -2.33E+00
1.26E+09  4.97E+01  -2.35E+00
1.26E+09  4.97E+01  -2.34E+00
1.26E+09  4.97E+01  -2.34E+00
1.26E+09  4.97E+01  -2.35E+00
1.26E+09  4.98E+01  -2.36E+00
1.27E+09  4.98E+01  -2.38E+00
1.27E+09  4.98E+01  -2.37E+00
1.27E+09  4.99E+01  -2.36E+00
1.27E+09  4.99E+01  -2.39E+00
1.27E+09  4.99E+01  -2.39E+00
1.28E+09  4.99E+01  -2.38E+00
1.28E+09  5.00E+01  -2.39E+00
1.28E+09  5.00E+01  -2.39E+00
1.28E+09  5.00E+01  -2.40E+00
1.28E+09  5.01E+01  -2.40E+00
1.29E+09  5.01E+01  -2.40E+00
1.29E+09  5.01E+01  -2.39E+00
1.29E+09  5.01E+01  -2.39E+00
1.29E+09  5.02E+01  -2.41E+00
1.29E+09  5.02E+01  -2.41E+00
1.30E+09  5.03E+01  -2.39E+00
1.30E+09  5.03E+01  -2.39E+00
1.30E+09  5.03E+01  -2.40E+00
1.30E+09  5.03E+01  -2.38E+00
1.30E+09  5.04E+01  -2.38E+00
1.31E+09  5.04E+01  -2.38E+00
1.31E+09  5.04E+01  -2.37E+00
1.31E+09  5.05E+01  -2.39E+00
1.31E+09  5.05E+01  -2.38E+00
1.31E+09  5.05E+01  -2.38E+00
1.32E+09  5.05E+01  -2.38E+00
1.32E+09  5.06E+01  -2.35E+00
1.32E+09  5.06E+01  -2.36E+00
1.32E+09  5.07E+01  -2.38E+00
1.32E+09  5.07E+01  -2.35E+00
1.33E+09  5.07E+01  -2.39E+00
1.33E+09  5.07E+01  -2.35E+00
1.33E+09  5.07E+01  -2.34E+00
1.33E+09  5.08E+01  -2.33E+00
1.33E+09  5.08E+01  -2.33E+00
1.34E+09  5.09E+01  -2.31E+00
1.34E+09  5.09E+01  -2.28E+00
1.34E+09  5.09E+01  -2.31E+00
1.34E+09  5.09E+01  -2.32E+00
1.34E+09  5.10E+01  -2.27E+00
