! This is a Touchstone .s1p format file
! It should be saved with .s1p extension 
! HEWLETT PACKARD,8720D,0,7.74  
! Date = 21 Mar 2018
! Time = 01:37:42
! S11 measured = FALSE
! S21 measured = FALSE
! S12 measured = FALSE
! S22 measured = TRUE
! Start frequency = 0.050000000 GHz
! Centre frequency  = 3.524999936 GHz
! Stop frequency  = 7.000000000 GHz
! IF bandwidth = 300 Hz
! Smoothing = OFF
! Smoothing aperture = 1.000000 %
! Averaging = OFF
! Averaging factor = 16
! Source power = On
! Source power = Auto mode
! Output power level = 5.000000 dBm
! Retrace power = Off
! Testset switching = Continuous
! Number of sweeps for test set switching (0=hold, 1=continuous,2-999 = number of sweeps) = 1
! Step sweep = On (check)
! List frequency sweep = Off (check)
! IFBW setting for a list-frequency table in swept list mode = Disabled (Check)
! Power setting for a list-frequency table in swept list mode = Disabled (Check)
! Measurement mode = Chop A and B
! Port extensions = OFF
! Port extension 1 = 0.000000 ps
! Port extension 2 = 57.970000 ps
! Points  = 1601
! Calibration kit = 3.5 mm D
! Power = 5.000000 dBm
! Frequency magS22 angS22
! Magnitudes are in log form
! Angles are in degrees
# MHz S DB R 50
50.00000 -11.06396 -6.61670
54.34375 -11.12598 -7.13428
58.68750 -11.12061 -7.76465
63.03125 -11.10205 -8.37158
67.37500 -11.10938 -8.69043
71.71875 -11.12354 -9.45654
76.06250 -11.14062 -10.02100
80.40625 -11.10889 -10.57715
84.75000 -11.11035 -11.03174
89.09375 -11.12598 -11.70752
93.43750 -11.13379 -12.19092
97.78125 -11.11279 -13.01367
102.12500 -11.10645 -13.45996
106.46875 -11.12402 -14.09424
110.81250 -11.12256 -14.53809
115.15625 -11.12695 -15.13818
119.50000 -11.12988 -15.67480
123.84375 -11.12500 -16.21094
128.18750 -11.11621 -16.74609
132.53125 -11.11963 -17.33789
136.87500 -11.11377 -18.00391
141.21875 -11.12158 -18.54785
145.56250 -11.12842 -19.09863
149.90625 -11.12305 -19.71680
154.25000 -11.11914 -20.23340
158.59375 -11.11963 -20.83789
162.93750 -11.12012 -21.39355
167.28125 -11.12207 -21.94727
171.62500 -11.12109 -22.48633
175.96875 -11.11621 -23.10742
180.31250 -11.12402 -23.66797
184.65625 -11.12646 -24.25684
189.00000 -11.12256 -24.77051
193.34375 -11.12500 -25.38281
197.68750 -11.12402 -25.92090
202.03125 -11.12598 -26.49512
206.37500 -11.12646 -27.06152
210.71875 -11.12695 -27.65625
215.06250 -11.12451 -28.20898
219.40625 -11.12842 -28.75293
223.75000 -11.12500 -29.30664
228.09375 -11.13086 -29.89453
232.43750 -11.13672 -30.44238
236.78125 -11.13086 -30.98047
241.12500 -11.12646 -31.61621
245.46875 -11.13232 -32.17773
249.81250 -11.13086 -32.74219
254.15625 -11.12891 -33.29492
258.50000 -11.13037 -33.89844
262.84375 -11.13330 -34.43555
267.18750 -11.13672 -35.01367
271.53125 -11.12744 -35.54492
275.87500 -11.13525 -36.15234
280.21875 -11.12451 -36.73047
284.56250 -11.13916 -37.28125
288.90625 -11.13770 -37.86133
293.25000 -11.13574 -38.41992
297.59375 -11.13965 -38.93555
301.93750 -11.14404 -39.51953
306.28125 -11.14014 -40.10156
310.62500 -11.14014 -40.67188
314.96875 -11.14160 -41.21484
319.31250 -11.14551 -41.77344
323.65625 -11.14258 -42.38867
328.00000 -11.13965 -42.94336
332.34375 -11.13916 -43.49805
336.68750 -11.14502 -44.09961
341.03125 -11.14160 -44.64062
345.37500 -11.14453 -45.23633
349.71875 -11.14600 -45.76172
354.06250 -11.14551 -46.31445
358.40625 -11.14746 -46.88281
362.75000 -11.14648 -47.46680
367.09375 -11.14844 -48.02539
371.43750 -11.14258 -48.63672
375.78125 -11.14453 -49.09766
380.12500 -11.15186 -49.71680
384.46875 -11.14941 -50.24609
388.81250 -11.16016 -50.80664
393.15625 -11.16357 -51.38867
397.50000 -11.15625 -51.91797
401.84375 -11.16064 -52.49219
406.18750 -11.15723 -53.04102
410.53125 -11.15869 -53.67383
414.87500 -11.16748 -54.17773
419.21875 -11.15576 -54.80469
423.56250 -11.15283 -55.33008
427.90625 -11.16699 -55.93164
432.25000 -11.14941 -56.49609
436.59375 -11.16797 -57.00586
440.93750 -11.17041 -57.59766
445.28125 -11.16406 -58.10938
449.62500 -11.17236 -58.74023
453.96875 -11.16260 -59.25781
458.31250 -11.16650 -59.78320
462.65625 -11.16797 -60.41992
467.00000 -11.17383 -60.92188
471.34375 -11.16895 -61.50586
475.68750 -11.16309 -62.11133
480.03125 -11.17480 -62.67578
484.37500 -11.17041 -63.21094
488.71875 -11.17822 -63.79102
493.06250 -11.16992 -64.32031
497.40625 -11.17627 -64.96094
501.75000 -11.18018 -65.50391
506.09375 -11.18115 -66.04297
510.43750 -11.17871 -66.63281
514.78125 -11.17529 -67.20312
519.12500 -11.17578 -67.80859
523.46875 -11.17383 -68.24609
527.81250 -11.19336 -68.86719
532.15625 -11.17871 -69.39453
536.50000 -11.17871 -69.98438
540.84375 -11.19189 -70.58203
545.18750 -11.18262 -71.14844
549.53125 -11.18896 -71.69141
553.87500 -11.19434 -72.26953
558.21875 -11.18945 -72.76562
562.56250 -11.19971 -73.39453
566.90625 -11.19531 -73.96875
571.25000 -11.20459 -74.46484
575.59375 -11.20410 -75.09766
579.93750 -11.20557 -75.60156
584.28125 -11.21045 -76.12500
588.62500 -11.21240 -76.73047
592.96875 -11.20508 -77.28516
597.31250 -11.20166 -77.92578
601.65625 -11.20801 -78.42969
606.00000 -11.20508 -78.98828
610.34375 -11.21973 -79.55078
614.68750 -11.21680 -80.03516
619.03125 -11.21973 -80.63281
623.37500 -11.21875 -81.20703
627.71875 -11.22021 -81.73438
632.06250 -11.22803 -82.32812
636.40625 -11.22607 -82.85938
640.75000 -11.22803 -83.46875
645.09375 -11.22803 -83.99219
649.43750 -11.23291 -84.57812
653.78125 -11.22949 -85.12500
658.12500 -11.23682 -85.69922
662.46875 -11.23486 -86.17578
666.81250 -11.24072 -86.76172
671.15625 -11.23975 -87.33984
675.50000 -11.24121 -87.91406
679.84375 -11.23926 -88.51172
684.18750 -11.24658 -89.04297
688.53125 -11.24512 -89.58984
692.87500 -11.24609 -90.08984
697.21875 -11.25195 -90.71875
701.56250 -11.24365 -91.27344
705.90625 -11.25977 -91.80859
710.25000 -11.25244 -92.34375
714.59375 -11.26318 -92.99219
718.93750 -11.25928 -93.45312
723.28125 -11.26025 -94.08203
727.62500 -11.27344 -94.58984
731.96875 -11.27197 -95.06250
736.31250 -11.26562 -95.64062
740.65625 -11.27246 -96.26562
745.00000 -11.26758 -96.79297
749.34375 -11.27246 -97.35156
753.68750 -11.27344 -97.85547
758.03125 -11.28027 -98.46875
762.37500 -11.28271 -99.03516
766.71875 -11.27197 -99.57812
771.06250 -11.28857 -100.14062
775.40625 -11.29590 -100.72656
779.75000 -11.29932 -101.27344
784.09375 -11.29346 -101.78516
788.43750 -11.29004 -102.30859
792.78125 -11.29248 -102.88672
797.12500 -11.30371 -103.42578
801.46875 -11.30029 -104.01953
805.81250 -11.29980 -104.58984
810.15625 -11.29736 -105.10156
814.50000 -11.31006 -105.65625
818.84375 -11.30566 -106.18750
823.18750 -11.30859 -106.76172
827.53125 -11.31152 -107.35547
831.87500 -11.31348 -107.84375
836.21875 -11.31396 -108.42969
840.56250 -11.31543 -109.01953
844.90625 -11.31689 -109.51953
849.25000 -11.32178 -110.09766
853.59375 -11.33105 -110.64844
857.93750 -11.33252 -111.19141
862.28125 -11.33057 -111.76562
866.62500 -11.32812 -112.28906
870.96875 -11.33545 -112.86328
875.31250 -11.33496 -113.44141
879.65625 -11.33887 -113.97266
884.00000 -11.34717 -114.51562
888.34375 -11.34814 -115.08203
892.68750 -11.35498 -115.62500
897.03125 -11.35107 -116.17578
901.37500 -11.35352 -116.76172
905.71875 -11.35889 -117.26172
910.06250 -11.35400 -117.84375
914.40625 -11.36279 -118.39062
918.75000 -11.36621 -118.89844
923.09375 -11.36133 -119.50391
927.43750 -11.36572 -120.07031
931.78125 -11.37207 -120.65625
936.12500 -11.37500 -121.17578
940.46875 -11.38037 -121.70703
944.81250 -11.38184 -122.27344
949.15625 -11.37891 -122.82031
953.50000 -11.38623 -123.37500
957.84375 -11.39355 -123.92188
962.18750 -11.39258 -124.46484
966.53125 -11.39600 -125.00000
970.87500 -11.39600 -125.62109
975.21875 -11.40186 -126.15625
979.56250 -11.40186 -126.67969
983.90625 -11.41064 -127.26172
988.25000 -11.40918 -127.76562
992.59375 -11.41748 -128.35938
996.93750 -11.41113 -128.92969
1001.28125 -11.42041 -129.46875
1005.62500 -11.42432 -130.03906
1009.96875 -11.42871 -130.56250
1014.31250 -11.42627 -131.13281
1018.65625 -11.43408 -131.61719
1023.00000 -11.44043 -132.22656
1027.34375 -11.43701 -132.75000
1031.68750 -11.44482 -133.28125
1036.03125 -11.44775 -133.85938
1040.37500 -11.45215 -134.40625
1044.71875 -11.45752 -134.93750
1049.06250 -11.46436 -135.50000
1053.40625 -11.46387 -136.05469
1057.75000 -11.46387 -136.57812
1062.09375 -11.47363 -137.12500
1066.43750 -11.47412 -137.75000
1070.78125 -11.47314 -138.24219
1075.12500 -11.47803 -138.77344
1079.46875 -11.48340 -139.37500
1083.81250 -11.48730 -139.92188
1088.15625 -11.48779 -140.46875
1092.50000 -11.50000 -140.99219
1096.84375 -11.49951 -141.53906
1101.18750 -11.50146 -142.07031
1105.53125 -11.50635 -142.65625
1109.87500 -11.51172 -143.21094
1114.21875 -11.51758 -143.74219
1118.56250 -11.52002 -144.27344
1122.90625 -11.52051 -144.86719
1127.25000 -11.52246 -145.41406
1131.59375 -11.52881 -145.91406
1135.93750 -11.53467 -146.50000
1140.28125 -11.54639 -147.03906
1144.62500 -11.53857 -147.54688
1148.96875 -11.55615 -148.14844
1153.31250 -11.54980 -148.67969
1157.65625 -11.55762 -149.21094
1162.00000 -11.55762 -149.75000
1166.34375 -11.56543 -150.28906
1170.68750 -11.56299 -150.85938
1175.03125 -11.57861 -151.40625
1179.37500 -11.57275 -151.95312
1183.71875 -11.58008 -152.50000
1188.06250 -11.58350 -153.09375
1192.40625 -11.59473 -153.58594
1196.75000 -11.59521 -154.10938
1201.09375 -11.59326 -154.70312
1205.43750 -11.60059 -155.24219
1209.78125 -11.60742 -155.72656
1214.12500 -11.61279 -156.35938
1218.46875 -11.61279 -156.89844
1222.81250 -11.62207 -157.41406
1227.15625 -11.62646 -157.99219
1231.50000 -11.63379 -158.47656
1235.84375 -11.63086 -159.01562
1240.18750 -11.63623 -159.62500
1244.53125 -11.64111 -160.14062
1248.87500 -11.64551 -160.69531
1253.21875 -11.65088 -161.22656
1257.56250 -11.65723 -161.77344
1261.90625 -11.66016 -162.31250
1266.25000 -11.66602 -162.89844
1270.59375 -11.66406 -163.44531
1274.93750 -11.67773 -164.00000
1279.28125 -11.68213 -164.55469
1283.62500 -11.68701 -165.07812
1287.96875 -11.68994 -165.62500
1292.31250 -11.69385 -166.20312
1296.65625 -11.70215 -166.66406
1301.00000 -11.69971 -167.25781
1305.34375 -11.70801 -167.79688
1309.68750 -11.71289 -168.31250
1314.03125 -11.72070 -168.88281
1318.37500 -11.72607 -169.46875
1322.71875 -11.73389 -169.96094
1327.06250 -11.74072 -170.53125
1331.40625 -11.73633 -171.09375
1335.75000 -11.74219 -171.64844
1340.09375 -11.74316 -172.21094
1344.43750 -11.74854 -172.74219
1348.78125 -11.76172 -173.26562
1353.12500 -11.76416 -173.82031
1357.46875 -11.77295 -174.39844
1361.81250 -11.77295 -174.88281
1366.15625 -11.77539 -175.44531
1370.50000 -11.78467 -176.00781
1374.84375 -11.79053 -176.55469
1379.18750 -11.79053 -177.14844
1383.53125 -11.80273 -177.66406
1387.87500 -11.80566 -178.24219
1392.21875 -11.80713 -178.75000
1396.56250 -11.81543 -179.28906
1400.90625 -11.81592 -179.87500
1405.25000 -11.82959 179.60156
1409.59375 -11.83203 179.03906
1413.93750 -11.83740 178.52344
1418.28125 -11.83691 177.95312
1422.62500 -11.84424 177.40625
1426.96875 -11.85254 176.86719
1431.31250 -11.86963 176.32812
1435.65625 -11.86865 175.79688
1440.00000 -11.86426 175.18750
1444.34375 -11.87109 174.65625
1448.68750 -11.88379 174.07812
1453.03125 -11.89111 173.53125
1457.37500 -11.89209 172.95312
1461.71875 -11.90967 172.46094
1466.06250 -11.90967 171.93750
1470.40625 -11.91504 171.35938
1474.75000 -11.91357 170.82812
1479.09375 -11.92139 170.28125
1483.43750 -11.92529 169.71094
1487.78125 -11.93652 169.15625
1492.12500 -11.94141 168.59375
1496.46875 -11.94580 168.05469
1500.81250 -11.95068 167.48438
1505.15625 -11.96240 166.94531
1509.50000 -11.96387 166.42188
1513.84375 -11.97314 165.86719
1518.18750 -11.97900 165.32031
1522.53125 -11.98682 164.78906
1526.87500 -11.99658 164.17969
1531.21875 -11.99609 163.62500
1535.56250 -12.00391 163.12500
1539.90625 -11.99756 162.60156
1544.25000 -12.01270 162.03125
1548.59375 -12.01465 161.50781
1552.93750 -12.02539 160.91406
1557.28125 -12.02832 160.40625
1561.62500 -12.03613 159.85938
1565.96875 -12.04639 159.27344
1570.31250 -12.05762 158.70312
1574.65625 -12.05811 158.19531
1579.00000 -12.06152 157.65625
1583.34375 -12.07959 157.07031
1587.68750 -12.07959 156.55469
1592.03125 -12.09180 156.00781
1596.37500 -12.10059 155.42188
1600.71875 -12.10107 154.86719
1605.06250 -12.10742 154.35156
1609.40625 -12.11572 153.74219
1613.75000 -12.12305 153.23438
1618.09375 -12.12744 152.64062
1622.43750 -12.13232 152.13281
1626.78125 -12.14111 151.57031
1631.12500 -12.14990 151.03906
1635.46875 -12.15820 150.50781
1639.81250 -12.17090 149.92188
1644.15625 -12.17627 149.35938
1648.50000 -12.17480 148.85156
1652.84375 -12.17871 148.28125
1657.18750 -12.20215 147.72656
1661.53125 -12.19824 147.11719
1665.87500 -12.20752 146.64062
1670.21875 -12.21582 146.07812
1674.56250 -12.21875 145.51562
1678.90625 -12.23096 144.96094
1683.25000 -12.24121 144.42969
1687.59375 -12.24756 143.84375
1691.93750 -12.25293 143.25781
1696.28125 -12.25977 142.78906
1700.62500 -12.26270 142.21094
1704.96875 -12.27197 141.64844
1709.31250 -12.28516 141.07812
1713.65625 -12.28857 140.55469
1718.00000 -12.29102 140.05469
1722.34375 -12.29395 139.42969
1726.68750 -12.30664 138.86719
1731.03125 -12.31738 138.36719
1735.37500 -12.32324 137.85938
1739.71875 -12.33740 137.23438
1744.06250 -12.32764 136.65625
1748.40625 -12.34180 136.14844
1752.75000 -12.35449 135.57812
1757.09375 -12.35010 135.03125
1761.43750 -12.35938 134.42969
1765.78125 -12.36816 133.96094
1770.12500 -12.37256 133.38281
1774.46875 -12.38770 132.83594
1778.81250 -12.39355 132.17969
1783.15625 -12.39941 131.67188
1787.50000 -12.40967 131.17188
1791.84375 -12.41553 130.57812
1796.18750 -12.41895 130.02344
1800.53125 -12.43311 129.46875
1804.87500 -12.43018 128.91406
1809.21875 -12.43457 128.39844
1813.56250 -12.44971 127.83594
1817.90625 -12.45850 127.21094
1822.25000 -12.47168 126.69531
1826.59375 -12.47217 126.13672
1830.93750 -12.47461 125.54688
1835.28125 -12.48438 125.01562
1839.62500 -12.49902 124.43750
1843.96875 -12.50195 123.93359
1848.31250 -12.50928 123.34766
1852.65625 -12.51855 122.77734
1857.00000 -12.51611 122.22656
1861.34375 -12.53418 121.66797
1865.68750 -12.53613 120.98828
1870.03125 -12.55029 120.50391
1874.37500 -12.55859 120.01562
1878.71875 -12.56396 119.46094
1883.06250 -12.57617 118.86719
1887.40625 -12.57812 118.28906
1891.75000 -12.59229 117.75781
1896.09375 -12.59668 117.12891
1900.43750 -12.59814 116.56641
1904.78125 -12.61084 116.00000
1909.12500 -12.62402 115.52734
1913.46875 -12.62793 114.92188
1917.81250 -12.63574 114.39062
1922.15625 -12.64014 113.78516
1926.50000 -12.65820 113.21875
1930.84375 -12.66455 112.67969
1935.18750 -12.66357 112.14844
1939.53125 -12.67920 111.53125
1943.87500 -12.68652 110.94141
1948.21875 -12.69580 110.39453
1952.56250 -12.69580 109.82812
1956.90625 -12.71582 109.31250
1961.25000 -12.71094 108.71875
1965.59375 -12.72461 108.10938
1969.93750 -12.73242 107.60156
1974.28125 -12.74219 106.99609
1978.62500 -12.74707 106.43359
1982.96875 -12.75293 105.89453
1987.31250 -12.76318 105.37109
1991.65625 -12.78076 104.76953
1996.00000 -12.78320 104.23047
2000.34375 -12.79395 103.65234
2004.68750 -12.80078 103.10156
2009.03125 -12.81006 102.53125
2013.37500 -12.81494 101.95312
2017.71875 -12.82617 101.39062
2022.06250 -12.83594 100.82422
2026.40625 -12.84424 100.25391
2030.75000 -12.84912 99.68750
2035.09375 -12.86084 99.10938
2039.43750 -12.86719 98.54688
2043.78125 -12.87646 97.98828
2048.12500 -12.88916 97.44531
2052.46875 -12.89404 96.82422
2056.81250 -12.90332 96.25391
2061.15625 -12.91016 95.70703
2065.50000 -12.91943 95.16016
2069.84375 -12.92676 94.57422
2074.18750 -12.93555 94.00391
2078.53125 -12.94482 93.41406
2082.87500 -12.95020 92.83984
2087.21875 -12.95801 92.29297
2091.56250 -12.97363 91.72656
2095.90625 -12.97852 91.14844
2100.25000 -12.98730 90.58984
2104.59375 -12.99951 89.99609
2108.93750 -13.00537 89.39844
2113.28125 -13.01074 88.83203
2117.62500 -13.02148 88.26953
2121.96875 -13.02734 87.71094
2126.31250 -13.03809 87.13281
2130.65625 -13.04541 86.55078
2135.00000 -13.05371 85.96484
2139.34375 -13.06445 85.40625
2143.68750 -13.07373 84.82422
2148.03125 -13.08252 84.25391
2152.37500 -13.08984 83.70703
2156.71875 -13.10059 83.10938
2161.06250 -13.10498 82.53516
2165.40625 -13.11133 81.97266
2169.75000 -13.12305 81.39844
2174.09375 -13.13477 80.79688
2178.43750 -13.13867 80.24219
2182.78125 -13.14893 79.66016
2187.12500 -13.16064 79.07422
2191.46875 -13.16797 78.50000
2195.81250 -13.17529 77.89453
2200.15625 -13.18457 77.34375
2204.50000 -13.19336 76.75000
2208.84375 -13.20264 76.19922
2213.18750 -13.20605 75.62109
2217.53125 -13.21387 75.01953
2221.87500 -13.22900 74.44922
2226.21875 -13.23389 73.86719
2230.56250 -13.24609 73.28125
2234.90625 -13.25146 72.68359
2239.25000 -13.26074 72.12109
2243.59375 -13.26807 71.51172
2247.93750 -13.27783 70.92578
2252.28125 -13.28857 70.38281
2256.62500 -13.29150 69.78906
2260.96875 -13.30225 69.20312
2265.31250 -13.30762 68.64062
2269.65625 -13.31982 68.04688
2274.00000 -13.32910 67.48438
2278.34375 -13.33594 66.87500
2282.68750 -13.34277 66.28516
2287.03125 -13.35352 65.71484
2291.37500 -13.36230 65.10938
2295.71875 -13.37207 64.52734
2300.06250 -13.37793 63.94922
2304.40625 -13.39111 63.36523
2308.75000 -13.39502 62.79102
2313.09375 -13.40332 62.16797
2317.43750 -13.41357 61.62109
2321.78125 -13.42041 61.00977
2326.12500 -13.42969 60.43750
2330.46875 -13.43750 59.85352
2334.81250 -13.44385 59.26367
2339.15625 -13.45557 58.65039
2343.50000 -13.46387 58.08008
2347.84375 -13.46777 57.48438
2352.18750 -13.47803 56.90820
2356.53125 -13.48535 56.33398
2360.87500 -13.49414 55.68945
2365.21875 -13.50342 55.14844
2369.56250 -13.51172 54.51562
2373.90625 -13.52490 53.92773
2378.25000 -13.52295 53.35352
2382.59375 -13.53760 52.84180
2386.93750 -13.54785 52.16406
2391.28125 -13.55371 51.56445
2395.62500 -13.57080 51.00586
2399.96875 -13.57031 50.43945
2404.31250 -13.57324 49.75391
2408.65625 -13.58740 49.22266
2413.00000 -13.59375 48.63281
2417.34375 -13.60352 48.02539
2421.68750 -13.61230 47.41797
2426.03125 -13.61230 46.80078
2430.37500 -13.63428 46.27148
2434.71875 -13.63232 45.62891
2439.06250 -13.63672 45.01367
2443.40625 -13.65088 44.39258
2447.75000 -13.65137 43.83398
2452.09375 -13.66211 43.16602
2456.43750 -13.67334 42.58984
2460.78125 -13.67627 41.95898
2465.12500 -13.69385 41.43359
2469.46875 -13.69727 40.83594
2473.81250 -13.70459 40.34570
2478.15625 -13.71094 39.64258
2482.50000 -13.71826 39.01758
2486.84375 -13.73096 38.49805
2491.18750 -13.73242 37.81836
2495.53125 -13.73145 37.23633
2499.87500 -13.74951 36.71289
2504.21875 -13.75879 36.03320
2508.56250 -13.76025 35.40430
2512.90625 -13.77930 34.87305
2517.25000 -13.77295 34.24023
2521.59375 -13.78809 33.61133
2525.93750 -13.79053 33.02344
2530.28125 -13.81006 32.44336
2534.62500 -13.80908 31.86035
2538.96875 -13.81934 31.17773
2543.31250 -13.82568 30.58984
2547.65625 -13.82715 29.99512
2552.00000 -13.84619 29.41504
2556.34375 -13.83887 28.80273
2560.68750 -13.85938 28.18359
2565.03125 -13.85449 27.55859
2569.37500 -13.85742 26.96680
2573.71875 -13.87061 26.38184
2578.06250 -13.88232 25.75293
2582.40625 -13.88184 25.14453
2586.75000 -13.89355 24.54199
2591.09375 -13.89307 24.00879
2595.43750 -13.91211 23.40723
2599.78125 -13.90186 22.75586
2604.12500 -13.92480 22.12598
2608.46875 -13.92285 21.50098
2612.81250 -13.92676 20.90625
2617.15625 -13.94482 20.33203
2621.50000 -13.95654 19.69824
2625.84375 -13.94727 19.08984
2630.18750 -13.95654 18.47949
2634.53125 -13.97119 17.88672
2638.87500 -13.97803 17.26074
2643.21875 -13.98535 16.65723
2647.56250 -13.98340 16.09277
2651.90625 -13.99072 15.43018
2656.25000 -13.99854 14.81738
2660.59375 -14.00830 14.25049
2664.93750 -14.00342 13.67627
2669.28125 -14.01855 13.02979
2673.62500 -14.01660 12.40869
2677.96875 -14.02002 11.77734
2682.31250 -14.02246 11.20166
2686.65625 -14.04297 10.60547
2691.00000 -14.04443 9.91357
2695.34375 -14.04639 9.34619
2699.68750 -14.05127 8.69141
2704.03125 -14.05811 8.19141
2708.37500 -14.06934 7.51172
2712.71875 -14.07031 6.86230
