! This is a Touchstone .s1p format file
! It should be saved with .s1p extension 
! HEWLETT PACKARD,8720D,0,7.74  
! Date = 21 Mar 2018
! Time = 01:37:42
! S11 measured = FALSE
! S21 measured = FALSE
! S12 measured = FALSE
! S22 measured = TRUE
! Start frequency = 0.050000000 GHz
! Centre frequency  = 3.524999936 GHz
! Stop frequency  = 7.000000000 GHz
! IF bandwidth = 300 Hz
! Smoothing = OFF
! Smoothing aperture = 1.000000 %
! Averaging = OFF
! Averaging factor = 16
! Source power = On
! Source power = Auto mode
! Output power level = 5.000000 dBm
! Retrace power = Off
! Testset switching = Continuous
! Number of sweeps for test set switching (0=hold, 1=continuous,2-999 = number of sweeps) = 1
! Step sweep = On (check)
! List frequency sweep = Off (check)
! IFBW setting for a list-frequency table in swept list mode = Disabled (Check)
! Power setting for a list-frequency table in swept list mode = Disabled (Check)
! Measurement mode = Chop A and B
! Port extensions = OFF
! Port extension 1 = 0.000000 ps
! Port extension 2 = 57.970000 ps
! Points  = 1601
! Calibration kit = 3.5 mm D
! Power = 5.000000 dBm
! Frequency magS22 angS22
! Magnitudes are in log form
! Angles are in degrees
# MHz S DB R 50
50.00000 -11.06396 -6.61670
54.34375 -11.12598 -7.13428
58.68750 -11.12061 -7.76465
63.03125 -11.10205 -8.37158
67.37500 -11.10938 -8.69043
71.71875 -11.12354 -9.45654
76.06250 -11.14062 -10.02100
80.40625 -11.10889 -10.57715
84.75000 -11.11035 -11.03174
89.09375 -11.12598 -11.70752
93.43750 -11.13379 -12.19092
97.78125 -11.11279 -13.01367
102.12500 -11.10645 -13.45996
106.46875 -11.12402 -14.09424
110.81250 -11.12256 -14.53809
115.15625 -11.12695 -15.13818
119.50000 -11.12988 -15.67480
123.84375 -11.12500 -16.21094
128.18750 -11.11621 -16.74609
132.53125 -11.11963 -17.33789
136.87500 -11.11377 -18.00391
141.21875 -11.12158 -18.54785
145.56250 -11.12842 -19.09863
149.90625 -11.12305 -19.71680
154.25000 -11.11914 -20.23340
158.59375 -11.11963 -20.83789
162.93750 -11.12012 -21.39355
167.28125 -11.12207 -21.94727
171.62500 -11.12109 -22.48633
175.96875 -11.11621 -23.10742
180.31250 -11.12402 -23.66797
184.65625 -11.12646 -24.25684
189.00000 -11.12256 -24.77051
193.34375 -11.12500 -25.38281
197.68750 -11.12402 -25.92090
202.03125 -11.12598 -26.49512
206.37500 -11.12646 -27.06152
210.71875 -11.12695 -27.65625
215.06250 -11.12451 -28.20898
219.40625 -11.12842 -28.75293
223.75000 -11.12500 -29.30664
228.09375 -11.13086 -29.89453
232.43750 -11.13672 -30.44238
236.78125 -11.13086 -30.98047
241.12500 -11.12646 -31.61621
245.46875 -11.13232 -32.17773
249.81250 -11.13086 -32.74219
254.15625 -11.12891 -33.29492
258.50000 -11.13037 -33.89844
262.84375 -11.13330 -34.43555
267.18750 -11.13672 -35.01367
271.53125 -11.12744 -35.54492
275.87500 -11.13525 -36.15234
280.21875 -11.12451 -36.73047
284.56250 -11.13916 -37.28125
288.90625 -11.13770 -37.86133
293.25000 -11.13574 -38.41992
297.59375 -11.13965 -38.93555
301.93750 -11.14404 -39.51953
306.28125 -11.14014 -40.10156
310.62500 -11.14014 -40.67188
314.96875 -11.14160 -41.21484
319.31250 -11.14551 -41.77344
323.65625 -11.14258 -42.38867
328.00000 -11.13965 -42.94336
332.34375 -11.13916 -43.49805
336.68750 -11.14502 -44.09961
341.03125 -11.14160 -44.64062
345.37500 -11.14453 -45.23633
349.71875 -11.14600 -45.76172
354.06250 -11.14551 -46.31445
358.40625 -11.14746 -46.88281
362.75000 -11.14648 -47.46680
367.09375 -11.14844 -48.02539
371.43750 -11.14258 -48.63672
375.78125 -11.14453 -49.09766
380.12500 -11.15186 -49.71680
384.46875 -11.14941 -50.24609
388.81250 -11.16016 -50.80664
393.15625 -11.16357 -51.38867
397.50000 -11.15625 -51.91797
401.84375 -11.16064 -52.49219
406.18750 -11.15723 -53.04102
410.53125 -11.15869 -53.67383
414.87500 -11.16748 -54.17773
419.21875 -11.15576 -54.80469
423.56250 -11.15283 -55.33008
427.90625 -11.16699 -55.93164
432.25000 -11.14941 -56.49609
436.59375 -11.16797 -57.00586
440.93750 -11.17041 -57.59766
445.28125 -11.16406 -58.10938
449.62500 -11.17236 -58.74023
453.96875 -11.16260 -59.25781
458.31250 -11.16650 -59.78320
462.65625 -11.16797 -60.41992
467.00000 -11.17383 -60.92188
471.34375 -11.16895 -61.50586
475.68750 -11.16309 -62.11133
480.03125 -11.17480 -62.67578
484.37500 -11.17041 -63.21094
488.71875 -11.17822 -63.79102
493.06250 -11.16992 -64.32031
497.40625 -11.17627 -64.96094
501.75000 -11.18018 -65.50391
506.09375 -11.18115 -66.04297
510.43750 -11.17871 -66.63281
514.78125 -11.17529 -67.20312
519.12500 -11.17578 -67.80859
523.46875 -11.17383 -68.24609
527.81250 -11.19336 -68.86719
532.15625 -11.17871 -69.39453
536.50000 -11.17871 -69.98438
540.84375 -11.19189 -70.58203
545.18750 -11.18262 -71.14844
549.53125 -11.18896 -71.69141
553.87500 -11.19434 -72.26953
558.21875 -11.18945 -72.76562
562.56250 -11.19971 -73.39453
566.90625 -11.19531 -73.96875
571.25000 -11.20459 -74.46484
575.59375 -11.20410 -75.09766
579.93750 -11.20557 -75.60156
584.28125 -11.21045 -76.12500
588.62500 -11.21240 -76.73047
592.96875 -11.20508 -77.28516
597.31250 -11.20166 -77.92578
601.65625 -11.20801 -78.42969
606.00000 -11.20508 -78.98828
610.34375 -11.21973 -79.55078
614.68750 -11.21680 -80.03516
619.03125 -11.21973 -80.63281
623.37500 -11.21875 -81.20703
627.71875 -11.22021 -81.73438
632.06250 -11.22803 -82.32812
636.40625 -11.22607 -82.85938
640.75000 -11.22803 -83.46875
645.09375 -11.22803 -83.99219
649.43750 -11.23291 -84.57812
653.78125 -11.22949 -85.12500
658.12500 -11.23682 -85.69922
662.46875 -11.23486 -86.17578
666.81250 -11.24072 -86.76172
671.15625 -11.23975 -87.33984
675.50000 -11.24121 -87.91406
679.84375 -11.23926 -88.51172
684.18750 -11.24658 -89.04297
688.53125 -11.24512 -89.58984
692.87500 -11.24609 -90.08984
697.21875 -11.25195 -90.71875
701.56250 -11.24365 -91.27344
705.90625 -11.25977 -91.80859
710.25000 -11.25244 -92.34375
714.59375 -11.26318 -92.99219
718.93750 -11.25928 -93.45312
723.28125 -11.26025 -94.08203
727.62500 -11.27344 -94.58984
731.96875 -11.27197 -95.06250
736.31250 -11.26562 -95.64062
740.65625 -11.27246 -96.26562
745.00000 -11.26758 -96.79297
749.34375 -11.27246 -97.35156
753.68750 -11.27344 -97.85547
758.03125 -11.28027 -98.46875
762.37500 -11.28271 -99.03516
766.71875 -11.27197 -99.57812
771.06250 -11.28857 -100.14062
775.40625 -11.29590 -100.72656
779.75000 -11.29932 -101.27344
784.09375 -11.29346 -101.78516
788.43750 -11.29004 -102.30859
792.78125 -11.29248 -102.88672
797.12500 -11.30371 -103.42578
801.46875 -11.30029 -104.01953
805.81250 -11.29980 -104.58984
810.15625 -11.29736 -105.10156
814.50000 -11.31006 -105.65625
818.84375 -11.30566 -106.18750
823.18750 -11.30859 -106.76172
827.53125 -11.31152 -107.35547
831.87500 -11.31348 -107.84375
836.21875 -11.31396 -108.42969
840.56250 -11.31543 -109.01953
844.90625 -11.31689 -109.51953
849.25000 -11.32178 -110.09766
853.59375 -11.33105 -110.64844
857.93750 -11.33252 -111.19141
862.28125 -11.33057 -111.76562
866.62500 -11.32812 -112.28906
870.96875 -11.33545 -112.86328
875.31250 -11.33496 -113.44141
879.65625 -11.33887 -113.97266
884.00000 -11.34717 -114.51562
888.34375 -11.34814 -115.08203
892.68750 -11.35498 -115.62500
897.03125 -11.35107 -116.17578
901.37500 -11.35352 -116.76172
905.71875 -11.35889 -117.26172
910.06250 -11.35400 -117.84375
914.40625 -11.36279 -118.39062
918.75000 -11.36621 -118.89844
923.09375 -11.36133 -119.50391
927.43750 -11.36572 -120.07031
931.78125 -11.37207 -120.65625
936.12500 -11.37500 -121.17578
940.46875 -11.38037 -121.70703
944.81250 -11.38184 -122.27344
949.15625 -11.37891 -122.82031
953.50000 -11.38623 -123.37500
957.84375 -11.39355 -123.92188
962.18750 -11.39258 -124.46484
966.53125 -11.39600 -125.00000
970.87500 -11.39600 -125.62109
975.21875 -11.40186 -126.15625
979.56250 -11.40186 -126.67969
983.90625 -11.41064 -127.26172
988.25000 -11.40918 -127.76562
992.59375 -11.41748 -128.35938
996.93750 -11.41113 -128.92969
1001.28125 -11.42041 -129.46875
1005.62500 -11.42432 -130.03906
1009.96875 -11.42871 -130.56250
1014.31250 -11.42627 -131.13281
1018.65625 -11.43408 -131.61719
1023.00000 -11.44043 -132.22656
1027.34375 -11.43701 -132.75000
1031.68750 -11.44482 -133.28125
1036.03125 -11.44775 -133.85938
1040.37500 -11.45215 -134.40625
1044.71875 -11.45752 -134.93750
1049.06250 -11.46436 -135.50000
1053.40625 -11.46387 -136.05469
1057.75000 -11.46387 -136.57812
1062.09375 -11.47363 -137.12500
1066.43750 -11.47412 -137.75000
1070.78125 -11.47314 -138.24219
1075.12500 -11.47803 -138.77344
1079.46875 -11.48340 -139.37500
1083.81250 -11.48730 -139.92188
1088.15625 -11.48779 -140.46875
1092.50000 -11.50000 -140.99219
1096.84375 -11.49951 -141.53906
1101.18750 -11.50146 -142.07031
1105.53125 -11.50635 -142.65625
1109.87500 -11.51172 -143.21094
1114.21875 -11.51758 -143.74219
1118.56250 -11.52002 -144.27344
1122.90625 -11.52051 -144.86719
1127.25000 -11.52246 -145.41406
1131.59375 -11.52881 -145.91406
1135.93750 -11.53467 -146.50000
1140.28125 -11.54639 -147.03906
1144.62500 -11.53857 -147.54688
1148.96875 -11.55615 -148.14844
1153.31250 -11.54980 -148.67969
1157.65625 -11.55762 -149.21094
1162.00000 -11.55762 -149.75000
1166.34375 -11.56543 -150.28906
1170.68750 -11.56299 -150.85938
1175.03125 -11.57861 -151.40625
1179.37500 -11.57275 -151.95312
1183.71875 -11.58008 -152.50000
1188.06250 -11.58350 -153.09375
1192.40625 -11.59473 -153.58594
1196.75000 -11.59521 -154.10938
1201.09375 -11.59326 -154.70312
1205.43750 -11.60059 -155.24219
1209.78125 -11.60742 -155.72656
1214.12500 -11.61279 -156.35938
1218.46875 -11.61279 -156.89844
1222.81250 -11.62207 -157.41406
1227.15625 -11.62646 -157.99219
1231.50000 -11.63379 -158.47656
1235.84375 -11.63086 -159.01562
1240.18750 -11.63623 -159.62500
1244.53125 -11.64111 -160.14062
1248.87500 -11.64551 -160.69531
1253.21875 -11.65088 -161.22656
1257.56250 -11.65723 -161.77344
1261.90625 -11.66016 -162.31250
1266.25000 -11.66602 -162.89844
1270.59375 -11.66406 -163.44531
1274.93750 -11.67773 -164.00000
1279.28125 -11.68213 -164.55469
1283.62500 -11.68701 -165.07812
1287.96875 -11.68994 -165.62500
1292.31250 -11.69385 -166.20312
1296.65625 -11.70215 -166.66406
1301.00000 -11.69971 -167.25781
1305.34375 -11.70801 -167.79688
1309.68750 -11.71289 -168.31250
1314.03125 -11.72070 -168.88281
1318.37500 -11.72607 -169.46875
1322.71875 -11.73389 -169.96094
1327.06250 -11.74072 -170.53125
1331.40625 -11.73633 -171.09375
1335.75000 -11.74219 -171.64844
1340.09375 -11.74316 -172.21094
1344.43750 -11.74854 -172.74219
1348.78125 -11.76172 -173.26562
1353.12500 -11.76416 -173.82031
1357.46875 -11.77295 -174.39844
1361.81250 -11.77295 -174.88281
1366.15625 -11.77539 -175.44531
1370.50000 -11.78467 -176.00781
1374.84375 -11.79053 -176.55469
1379.18750 -11.79053 -177.14844
1383.53125 -11.80273 -177.66406
1387.87500 -11.80566 -178.24219
1392.21875 -11.80713 -178.75000
1396.56250 -11.81543 -179.28906
1400.90625 -11.81592 -179.87500
1405.25000 -11.82959 179.60156
1409.59375 -11.83203 179.03906
1413.93750 -11.83740 178.52344
1418.28125 -11.83691 177.95312
1422.62500 -11.84424 177.40625
1426.96875 -11.85254 176.86719
1431.31250 -11.86963 176.32812
1435.65625 -11.86865 175.79688
1440.00000 -11.86426 175.18750
1444.34375 -11.87109 174.65625
1448.68750 -11.88379 174.07812
1453.03125 -11.89111 173.53125
1457.37500 -11.89209 172.95312
1461.71875 -11.90967 172.46094
1466.06250 -11.90967 171.93750
1470.40625 -11.91504 171.35938
1474.75000 -11.91357 170.82812
1479.09375 -11.92139 170.28125
1483.43750 -11.92529 169.71094
1487.78125 -11.93652 169.15625
1492.12500 -11.94141 168.59375
1496.46875 -11.94580 168.05469
1500.81250 -11.95068 167.48438
