! This is a Touchstone .s1p format file
! It should be saved with .s1p extension 
! HEWLETT PACKARD,8720D,0,7.74  
! Date = 21 Mar 2018
! Time = 01:15:33
! S11 measured = FALSE
! S21 measured = FALSE
! S12 measured = FALSE
! S22 measured = TRUE
! Start frequency = 0.050000000 GHz
! Centre frequency  = 3.524999936 GHz
! Stop frequency  = 7.000000000 GHz
! IF bandwidth = 300 Hz
! Smoothing = OFF
! Smoothing aperture = 1.000000 %
! Averaging = OFF
! Averaging factor = 16
! Source power = On
! Source power = Auto mode
! Output power level = 5.000000 dBm
! Retrace power = Off
! Testset switching = Continuous
! Number of sweeps for test set switching (0=hold, 1=continuous,2-999 = number of sweeps) = 1
! Step sweep = On (check)
! List frequency sweep = Off (check)
! IFBW setting for a list-frequency table in swept list mode = Disabled (Check)
! Power setting for a list-frequency table in swept list mode = Disabled (Check)
! Measurement mode = Chop A and B
! Port extensions = OFF
! Port extension 1 = 0.000000 ps
! Port extension 2 = 57.970000 ps
! Points  = 1601
! Calibration kit = 3.5 mm D
! Power = 5.000000 dBm
! Frequency magS22 angS22
! Magnitudes are in log form
! Angles are in degrees
# MHz S DB R 50
50	0.02761	177.96472
54.34375	-0.00216	177.72302
58.6875	0.0039	177.51428
63.03125	0.00919	177.32068
67.375	0.00294	177.1311
71.71875	0.00505	176.98975
76.0625	-0.00069	176.8208
80.40625	0.00469	176.65601
84.75	0.00317	176.41846
89.09375	-0.00069	176.27148
93.4375	0.00129	176.07373
97.78125	-0.00505	175.87183
102.125	-0.00119	175.71533
106.46875	0.00124	175.55054
110.8125	0.00216	175.3418
115.15625	0.00372	175.17407
119.5	-0.00638	175.03271
123.84375	0.00386	174.67017
128.1875	0.00418	174.6687
132.53125	0.00335	174.46826
136.875	0.00124	174.21704
141.21875	-0.00404	174.04541
145.5625	0.00073	173.84888
149.90625	-0.01291	173.63745
154.25	0.00638	173.5083
158.59375	0.00211	173.35718
162.9375	-0.00216	173.1499
167.28125	0.00198	173.01123
171.625	0.00386	172.79834
175.96875	-0.0091	172.55811
180.3125	-0.00413	172.44263
184.65625	-0.00032	172.2312
189	0.00032	172.04712
193.34375	0.0011	171.86035
197.6875	0.00735	171.71875
202.03125	0.0023	171.49072
206.375	-0.0034	171.31934
210.71875	0.00496	171.12158
215.0625	-0.0028	170.99658
219.40625	-0.00349	170.82617
223.75	0.00441	170.5957
228.09375	-0.00014	170.43604
232.4375	0.00193	170.22998
236.78125	-0.00234	170.06543
241.125	0.00358	169.83447
245.46875	0.00023	169.69189
249.8125	-0.00005	169.48877
254.15625	-0.00106	169.3335
258.5	0.00675	169.13721
262.84375	-0.0017	168.99414
267.1875	-0.00009	168.76758
271.53125	0.00928	168.59863
275.875	0.00005	168.41748
280.21875	0.00482	168.23877
284.5625	-0.00423	168.02344
288.90625	-0.0022	167.88477
293.25	-0.01254	167.60449
297.59375	-0.00386	167.4917
301.9375	0.00478	167.31592
306.28125	-0.00386	167.1167
310.625	0.00478	166.92334
314.96875	-0.00202	166.771
319.3125	-0.0062	166.57568
323.65625	-0.00271	166.3916
328	-0.00225	166.21484
332.34375	0.00051	166.01025
336.6875	-0.00799	165.83008
341.03125	0.00073	165.67627
345.375	0.00225	165.4541
349.71875	0.00271	165.33301
354.0625	0.00322	165.12695
358.40625	-0.00041	164.94727
362.75	0.00537	164.79199
367.09375	-0.00496	164.55176
371.4375	0.00404	164.41406
375.78125	0.00129	164.19434
380.125	0.0017	164.03271
384.46875	0.00542	163.88379
388.8125	-0.00266	163.66699
393.15625	-0.00234	163.47461
397.5	-0.00092	163.32129
401.84375	-0.0006	163.12012
406.1875	0.00037	162.94336
410.53125	0.00032	162.73047
414.875	-0.00096	162.56934
419.21875	0.00041	162.37891
423.5625	0.0006	162.2041
427.90625	0.00514	162.00684
432.25	0.00395	161.83887
436.59375	0.00138	161.65625
440.9375	0.00119	161.4834
445.28125	0.00198	161.31055
449.625	-0.00211	161.08887
453.96875	0.00133	160.91602
458.3125	0.00441	160.74609
462.65625	0.00138	160.55078
467	0.00115	160.38184
471.34375	0.00253	160.21582
475.6875	-0.00009	160.00879
480.03125	0.00055	159.83984
484.375	-0.00018	159.66016
488.71875	-0.00156	159.44238
493.0625	0.00023	159.2832
497.40625	-0.00064	159.07227
501.75	-0.00299	158.92773
506.09375	-0.00083	158.74512
510.4375	-0.00243	158.55957
514.78125	0.00106	158.39648
519.125	0.00491	158.18066
523.46875	0.00193	158.01465
527.8125	-0.0051	157.82227
532.15625	-0.00262	157.63184
536.5	-0.00037	157.48047
540.84375	-0.00142	157.27441
545.1875	-0.00009	157.08594
549.53125	-0.00073	156.88184
553.875	-0.00165	156.70996
558.21875	-0.0017	156.53418
562.5625	0.00377	156.32812
566.90625	-0.004	156.17676
571.25	-0.00175	155.98926
575.59375	-0.00041	155.79688
579.9375	-0.00299	155.64551
584.28125	-0.00069	155.46191
588.625	-0.00188	155.26953
592.96875	-0.00083	155.08789
597.3125	0.00303	154.88184
601.65625	0.00124	154.70312
606	-0.00358	154.52637
610.34375	-0.00184	154.38086
614.6875	-0.00367	154.19531
619.03125	-0.00179	153.98242
623.375	-0.00129	153.82031
627.71875	-0.00322	153.64062
632.0625	-0.00257	153.41992
636.40625	-0.00276	153.24219
640.75	-0.00616	153.05566
645.09375	-0.00625	152.91016
649.4375	-0.00211	152.71777
653.78125	-0.00046	152.51562
658.125	-0.00354	152.32812
662.46875	-0.00423	152.1709
666.8125	-0.00211	151.98047
671.15625	-0.00294	151.80566
675.5	-0.00583	151.62598
679.84375	-0.00211	151.43359
684.1875	-0.00317	151.23828
688.53125	0.00028	151.06055
692.875	0.00096	150.88574
697.21875	-0.00487	150.68066
701.5625	-0.00345	150.47656
705.90625	-0.0028	150.33789
710.25	0.00032	150.18262
714.59375	-0.00188	149.98633
718.9375	-0.0051	149.82031
723.28125	-0.00482	149.5752
727.625	0.00101	149.44141
731.96875	-0.00418	149.25879
736.3125	-0.00207	149.09473
740.65625	-0.00317	148.86719
745	-0.00129	148.69238
749.34375	-0.01341	148.44824
753.6875	0.00625	148.35742
758.03125	-0.00014	148.14453
762.375	-0.00253	148
766.71875	-0.00345	147.76367
771.0625	-0.0068	147.60938
775.40625	-0.00161	147.44336
779.75	-0.00239	147.21094
784.09375	-0.00432	147.07031
788.4375	-0.0057	146.87305
792.78125	-0.00547	146.69727
797.125	-0.00533	146.50586
801.46875	-0.00418	146.31836
805.8125	-0.00138	146.16992
810.15625	-0.00537	145.95898
814.5	-0.00423	145.76172
818.84375	0.00161	145.61719
823.1875	-0.00266	145.41211
827.53125	-0.00354	145.24219
831.875	-0.00147	145.03711
836.21875	-0.00028	144.87891
840.5625	-0.0057	144.68945
844.90625	-0.00138	144.51562
849.25	-0.00533	144.33008
853.59375	-0.00175	144.13477
857.9375	-0.00763	143.95703
862.28125	-0.00106	143.76562
866.625	-0.00299	143.60156
870.96875	-0.00519	143.4375
875.3125	-0.0034	143.21094
879.65625	-0.00372	143.03906
884	-0.00087	142.86914
888.34375	-0.00418	142.67188
892.6875	-0.00588	142.51367
897.03125	-0.00542	142.32617
901.375	-0.00446	142.14062
905.71875	-0.00436	141.93359
910.0625	-0.00285	141.76758
914.40625	-0.00055	141.58594
918.75	-0.00565	141.40039
923.09375	-0.00285	141.23438
927.4375	-0.00239	141.01758
931.78125	-0.00579	140.87305
936.125	-0.00446	140.67969
940.46875	-0.00308	140.49219
944.8125	-0.00142	140.31641
949.15625	-0.00239	140.125
953.5	-0.00299	139.9668
957.84375	-0.004	139.75977
962.1875	-0.00404	139.60352
966.53125	-0.00285	139.41797
970.875	-0.00597	139.21484
975.21875	-0.00276	139.02344
979.5625	-0.0017	138.83398
983.90625	-0.004	138.64648
988.25	-0.00873	138.50195
992.59375	-0.00767	138.28711
996.9375	-0.00597	138.13477
1001.28125	-0.00326	137.95703
1005.625	-0.0073	137.77148
1009.96875	-0.00804	137.56055
1014.3125	-0.00873	137.39844
1018.65625	-0.00657	137.19727
1023	-0.00684	137.01367
1027.34375	-0.00395	136.83984
1031.6875	-0.00395	136.67773
1036.03125	-0.00409	136.47461
1040.375	-0.00845	136.30078
1044.71875	-0.00689	136.08789
1049.0625	-0.00579	135.92969
1053.40625	-0.00505	135.75391
1057.75	-0.00726	135.57422
1062.09375	-0.00638	135.39844
1066.4375	-0.00537	135.19727
1070.78125	-0.00657	135.03125
1075.125	-0.00882	134.8457
1079.46875	-0.00606	134.65234
1083.8125	-0.00547	134.4707
1088.15625	-0.00629	134.29102
1092.5	-0.0074	134.10742
1096.84375	-0.00772	133.93359
1101.1875	-0.00602	133.75391
1105.53125	-0.00905	133.55078
1109.875	-0.00629	133.375
1114.21875	-0.01056	133.20117
1118.5625	-0.00864	133
1122.90625	-0.00776	132.83984
1127.25	-0.00629	132.66211
1131.59375	-0.00969	132.46289
1135.9375	-0.00937	132.30273
1140.28125	-0.01011	132.125
1144.625	-0.01001	131.94336
1148.96875	-0.00533	131.76953
1153.3125	-0.00859	131.58008
1157.65625	-0.00841	131.38086
1162	-0.00928	131.2207
1166.34375	-0.00671	131.04297
1170.6875	-0.009	130.85352
1175.03125	-0.00887	130.67383
1179.375	-0.00551	130.49805
1183.71875	-0.00671	130.30469
1188.0625	-0.00395	130.11914
1192.40625	-0.0074	129.95117
1196.75	-0.00574	129.74609
1201.09375	-0.01364	129.55664
1205.4375	-0.0152	129.35547
1209.78125	-0.01259	129.18359
1214.125	0.00808	129.04102
1218.46875	-0.00335	128.8418
1222.8125	-0.00629	128.65625
1227.15625	-0.00652	128.49219
1231.5	-0.00822	128.33008
1235.84375	-0.00882	128.11133
1240.1875	-0.00703	127.93359
1244.53125	-0.00914	127.76562
1248.875	-0.01043	127.56055
1253.21875	-0.00923	127.38672
1257.5625	-0.00836	127.19727
1261.90625	-0.01125	127.00977
1266.25	-0.01406	126.85742
1270.59375	-0.01079	126.67383
1274.9375	-0.00785	126.45898
1279.28125	-0.01001	126.30469
1283.625	-0.01139	126.12109
1287.96875	-0.0141	125.94727
1292.3125	-0.00703	125.76758
1296.65625	-0.01153	125.55273
1301	-0.0073	125.38672
1305.34375	-0.0085	125.21094
1309.6875	-0.0135	125.01172
1314.03125	-0.01079	124.85938
1318.375	-0.01282	124.64258
1322.71875	-0.00717	124.48828
1327.0625	-0.00997	124.29688
1331.40625	-0.00928	124.10156
1335.75	-0.01089	123.92188
1340.09375	-0.00868	123.77148
1344.4375	-0.00896	123.57812
1348.78125	-0.00859	123.39258
1353.125	-0.01185	123.2168
1357.46875	-0.01011	123.02344
1361.8125	-0.00859	122.85742
1366.15625	-0.00868	122.66211
1370.5	-0.01112	122.50391
1374.84375	-0.01102	122.30273
1379.1875	-0.00822	122.13281
1383.53125	-0.0096	121.91406
1387.875	-0.00928	121.74609
1392.21875	-0.00864	121.54688
1396.5625	-0.01355	121.36523
1400.90625	-0.01429	121.2207
1405.25	-0.01153	121.0332
1409.59375	-0.01415	120.82812
1413.9375	-0.0135	120.65039
1418.28125	-0.01295	120.47656
1422.625	-0.01355	120.27734
1426.96875	-0.01337	120.09961
1431.3125	-0.01507	119.91016
1435.65625	-0.01599	119.75195
1440	-0.01213	119.58398
1444.34375	-0.01594	119.39844
1448.6875	-0.01741	119.19336
1453.03125	-0.01341	119.01172
1457.375	-0.01272	118.81641
1461.71875	-0.01768	118.69727
1466.0625	-0.01226	118.4707
1470.40625	-0.01452	118.29492
1474.75	-0.01644	118.13281
1479.09375	-0.0141	117.93945
1483.4375	-0.01447	117.75977
1487.78125	-0.01268	117.55469
1492.125	-0.01594	117.38672
1496.46875	-0.01534	117.20898
1500.8125	-0.01631	117.01953
1505.15625	-0.01888	116.85156
1509.5	-0.01516	116.65234
1513.84375	-0.01135	116.47461
1518.1875	-0.01401	116.33008
1522.53125	-0.01727	116.10742
1526.875	-0.01272	115.93359
1531.21875	-0.01406	115.75781
1535.5625	-0.01681	115.55859
1539.90625	-0.01732	115.39844
1544.25	-0.01732	115.19141
1548.59375	-0.01768	115.06641
1552.9375	-0.01704	114.86328
1557.28125	-0.02026	114.66016
1561.625	-0.01819	114.49609
1565.96875	-0.01594	114.32812
1570.3125	-0.01723	114.14844
1574.65625	-0.0164	113.97266
1579	-0.01644	113.76562
1583.34375	-0.01796	113.58594
1587.6875	-0.01663	113.42578
1592.03125	-0.01837	113.21484
1596.375	-0.01824	113.03906
1600.71875	-0.01736	112.87109
1605.0625	-0.0186	112.67578
1609.40625	-0.01548	112.49219
1613.75	-0.01318	112.29297
1618.09375	-0.01796	112.15234
1622.4375	-0.01585	111.9375
1626.78125	-0.01902	111.76953
1631.125	-0.01461	111.59766
1635.46875	-0.0186	111.39844
1639.8125	-0.01782	111.25391
1644.15625	-0.02044	111.03516
1648.5	-0.02049	110.87891
1652.84375	-0.01525	110.69141
1657.1875	-0.01874	110.49219
1661.53125	-0.01768	110.30859
1665.875	-0.01332	110.16406
1670.21875	-0.0169	109.95703
1674.5625	-0.02104	109.80078
1678.90625	-0.02058	109.58984
1683.25	-0.01934	109.42188
1687.59375	-0.02182	109.22656
1691.9375	-0.01778	109.04688
1696.28125	-0.01585	108.87109
1700.625	-0.02131	108.67578
1704.96875	-0.02003	108.52344
1709.3125	-0.01851	108.31641
1713.65625	-0.02072	108.15234
1718	-0.01828	107.96875
1722.34375	-0.01612	107.77344
1726.6875	-0.02072	107.58594
1731.03125	-0.0192	107.42578
1735.375	-0.02278	107.21484
1739.71875	-0.01828	107.04688
1744.0625	-0.0237	106.90234
1748.40625	-0.02072	106.6875
1752.75	-0.02003	106.50781
1757.09375	-0.02095	106.33203
1761.4375	-0.02379	106.16016
1765.78125	-0.02062	105.94922
1770.125	-0.02108	105.78906
1774.46875	-0.01842	105.58594
1778.8125	-0.02076	105.39844
1783.15625	-0.02021	105.22266
1787.5	-0.01741	105.04688
1791.84375	-0.02246	104.88281
1796.1875	-0.01732	104.67188
1800.53125	-0.01842	104.5
1804.875	-0.02058	104.30859
1809.21875	-0.02122	104.13672
1813.5625	-0.0232	103.93359
1817.90625	-0.0215	103.77734
1822.25	-0.02453	103.57031
1826.59375	-0.02467	103.41797
1830.9375	-0.01847	103.24219
1835.28125	-0.02421	103.03906
1839.625	-0.02333	102.86328
1843.96875	-0.02444	102.65625
1848.3125	-0.02338	102.50781
1852.65625	-0.02582	102.30469
1857	-0.02324	102.08594
1861.34375	-0.02145	101.97266
1865.6875	-0.02012	101.75781
1870.03125	-0.02389	101.60547
1874.375	-0.02462	101.44141
1878.71875	-0.02421	101.25781
1883.0625	-0.02545	101.0625
1887.40625	-0.02696	100.87109
1891.75	-0.02352	100.72266
1896.09375	-0.02503	100.51562
1900.4375	-0.02402	100.32812
1904.78125	-0.02848	100.13672
1909.125	-0.03169	99.95312
1913.46875	-0.02834	99.80469
1917.8125	-0.02999	99.60547
1922.15625	-0.02333	99.41016
1926.5	-0.02733	99.23047
1930.84375	-0.0282	99.05078
1935.1875	-0.02467	98.86328
1939.53125	-0.02765	98.69922
1943.875	-0.02536	98.50391
1948.21875	-0.02687	98.33203
1952.5625	-0.02536	98.15625
1956.90625	-0.02563	97.99219
1961.25	-0.02604	97.80859
1965.59375	-0.02476	97.62109
1969.9375	-0.02696	97.44531
1974.28125	-0.0282	97.27344
1978.625	-0.03128	97.08203
1982.96875	-0.02701	96.89453
1987.3125	-0.02379	96.73438
1991.65625	-0.02738	96.53125
1996	-0.02706	96.34375
2000.34375	-0.03022	96.17188
2004.6875	-0.02444	96
2009.03125	-0.026	95.8125
2013.375	-0.02494	95.62109
2017.71875	-0.02687	95.46875
2022.0625	-0.02728	95.29297
2026.40625	-0.02889	95.09766
2030.75	-0.02728	94.89844
2035.09375	-0.02751	94.71094
2039.4375	-0.02793	94.55078
2043.78125	-0.02549	94.39453
2048.125	-0.02669	94.19922
2052.46875	-0.02366	93.98438
2056.8125	-0.02871	93.80469
2061.15625	-0.02673	93.625
2065.5	-0.02664	93.43359
2069.84375	-0.02825	93.28125
2074.1875	-0.02733	93.10938
2078.53125	-0.02871	92.90234
2082.875	-0.02549	92.76562
2087.21875	-0.02586	92.56641
2091.5625	-0.02779	92.39062
2095.90625	-0.02871	92.19141
2100.25	-0.02329	92.02344
2104.59375	-0.02669	91.82422
2108.9375	-0.02944	91.62891
2113.28125	-0.02963	91.45312
2117.625	-0.02788	91.28125
2121.96875	-0.026	91.11719
2126.3125	-0.02549	90.91797
2130.65625	-0.03068	90.72266
2135	-0.02967	90.53125
2139.34375	-0.03252	90.375
2143.6875	-0.02811	90.1875
2148.03125	-0.02471	90
2152.375	-0.02788	89.83984
2156.71875	-0.02908	89.65625
2161.0625	-0.02944	89.48828
2165.40625	-0.0299	89.28125
2169.75	-0.03036	89.11719
2174.09375	-0.03041	88.94141
2178.4375	-0.03105	88.71875
2182.78125	-0.03211	88.5625
2187.125	-0.03344	88.375
2191.46875	-0.03059	88.21094
2195.8125	-0.03073	88.02734
2200.15625	-0.03179	87.82812
2204.5	-0.03266	87.62109
2208.84375	-0.02912	87.48828
2213.1875	-0.02889	87.29688
2217.53125	-0.02439	87.12109
2221.875	-0.03321	86.92188
2226.21875	-0.03068	86.74609
2230.5625	-0.03339	86.57031
2234.90625	-0.03027	86.35156
2239.25	-0.03238	86.24219
2243.59375	-0.03312	86
2247.9375	-0.03045	85.85156
2252.28125	-0.03454	85.64844
2256.625	-0.02981	85.51562
2260.96875	-0.03151	85.30469
2265.3125	-0.02926	85.12891
2269.65625	-0.03666	84.96094
2274	-0.03312	84.77734
2278.34375	-0.03316	84.60938
2282.6875	-0.02811	84.42969
2287.03125	-0.0316	84.23438
2291.375	-0.03128	84.05859
2295.71875	-0.02967	83.89062
2300.0625	-0.03712	83.69531
2304.40625	-0.03193	83.51562
2308.75	-0.03229	83.29297
2313.09375	-0.03229	83.15625
2317.4375	-0.03248	82.96484
2321.78125	-0.03372	82.81641
2326.125	-0.03372	82.60938
2330.46875	-0.03294	82.42188
2334.8125	-0.03275	82.24219
2339.15625	-0.03454	82.05469
2343.5	-0.03289	81.87891
2347.84375	-0.0361	81.70312
2352.1875	-0.03151	81.52344
2356.53125	-0.03698	81.36328
2360.875	-0.035	81.19531
2365.21875	-0.03427	80.96094
2369.5625	-0.03725	80.82812
2373.90625	-0.03372	80.63281
2378.25	-0.03721	80.46094
2382.59375	-0.03349	80.28516
2386.9375	-0.03546	80.09375
2391.28125	-0.03624	79.91016
2395.625	-0.03542	79.71875
2399.96875	-0.03418	79.55859
2404.3125	-0.0367	79.38672
2408.65625	-0.03578	79.1875
2413	-0.03689	79.01953
2417.34375	-0.03546	78.82422
2421.6875	-0.03799	78.65625
2426.03125	-0.04001	78.47656
2430.375	-0.03987	78.29688
2434.71875	-0.03445	78.125
2439.0625	-0.03036	77.92969
2443.40625	-0.03895	77.75781
2447.75	-0.03151	77.56641
2452.09375	-0.03684	77.40234
2456.4375	-0.03849	77.22656
2460.78125	-0.03881	77.04688
2465.125	-0.04005	76.86328
2469.46875	-0.0345	76.67969
2473.8125	-0.03404	76.48438
2478.15625	-0.03578	76.32031
2482.5	-0.03427	76.13281
2486.84375	-0.03418	75.94141
2491.1875	-0.03073	75.75
2495.53125	-0.03546	75.59766
2499.875	-0.03243	75.4375
2504.21875	-0.03542	75.20312
2508.5625	-0.0367	75.05078
2512.90625	-0.03473	74.875
2517.25	-0.03831	74.67188
2521.59375	-0.03367	74.49219
2525.9375	-0.03468	74.33984
2530.28125	-0.03941	74.14453
2534.625	-0.03707	73.99609
2538.96875	-0.03624	73.76562
2543.3125	-0.03532	73.60547
2547.65625	-0.03326	73.45312
2552	-0.0395	73.23438
2556.34375	-0.04139	73.07031
2560.6875	-0.03927	72.90234
2565.03125	-0.03941	72.71484
2569.375	-0.0395	72.5
2573.71875	-0.04171	72.33594
2578.0625	-0.0395	72.16016
2582.40625	-0.04162	71.98047
2586.75	-0.03468	71.82812
2591.09375	-0.03946	71.62109
2595.4375	-0.03877	71.44141
2599.78125	-0.0407	71.25781
2604.125	-0.04005	71.09375
2608.46875	-0.03854	70.88281
2612.8125	-0.03716	70.70703
2617.15625	-0.03835	70.51953
2621.5	-0.03803	70.40625
2625.84375	-0.04378	70.19922
2630.1875	-0.04327	69.98438
2634.53125	-0.0401	69.80469
2638.875	-0.03661	69.64062
2643.21875	-0.04327	69.4375
2647.5625	-0.0401	69.30078
2651.90625	-0.04061	69.11328
2656.25	-0.04281	68.93359
2660.59375	-0.0423	68.76953
2664.9375	-0.04708	68.59766
2669.28125	-0.04327	68.38281
2673.625	-0.04295	68.1875
2677.96875	-0.04208	68.01953
2682.3125	-0.04355	67.85547
2686.65625	-0.03927	67.64844
2691	-0.04203	67.48438
2695.34375	-0.04116	67.33984
2699.6875	-0.04373	67.13281
2704.03125	-0.04051	66.96875
2708.375	-0.04226	66.80859
2712.71875	-0.04276	66.59766
2717.0625	-0.04543	66.42969
2721.40625	-0.04221	66.21094
2725.75	-0.04796	66.05859
2730.09375	-0.04529	65.90234
2734.4375	-0.05039	65.70312
2738.78125	-0.04869	65.54297
2743.125	-0.04502	65.35547
2747.46875	-0.04777	65.1875
2751.8125	-0.04506	65.00781
2756.15625	-0.04332	64.81641
2760.5	-0.0469	64.60938
2764.84375	-0.048	64.47656
2769.1875	-0.04424	64.30859
2773.53125	-0.04552	64.10156
2777.875	-0.04653	63.88672
2782.21875	-0.04649	63.72656
2786.5625	-0.04727	63.57031
2790.90625	-0.05085	63.36328
2795.25	-0.04796	63.21094
2799.59375	-0.04635	63.01172
2803.9375	-0.04782	62.85156
2808.28125	-0.04483	62.66797
2812.625	-0.04782	62.50781
2816.96875	-0.0463	62.30469
2821.3125	-0.04525	62.125
2825.65625	-0.04947	61.96875
2830	-0.05246	61.77344
2834.34375	-0.04828	61.58984
2838.6875	-0.04626	61.42578
2843.03125	-0.04639	61.23438
2847.375	-0.05007	61.05469
2851.71875	-0.05181	60.88672
2856.0625	-0.0509	60.71484
2860.40625	-0.04791	60.50781
2864.75	-0.04809	60.35547
2869.09375	-0.04924	60.17578
2873.4375	-0.0503	59.99609
2877.78125	-0.04956	59.79297
2882.125	-0.04791	59.62891
2886.46875	-0.04943	59.44922
2890.8125	-0.04851	59.25391
2895.15625	-0.04658	59.10156
2899.5	-0.04938	58.91406
2903.84375	-0.0492	58.74219
2908.1875	-0.04874	58.57422
2912.53125	-0.04717	58.375
2916.875	-0.05007	58.17188
2921.21875	-0.04786	58.02734
2925.5625	-0.0497	57.84375
2929.90625	-0.04851	57.65234
2934.25	-0.04722	57.48438
2938.59375	-0.05039	57.30859
2942.9375	-0.05163	57.10547
2947.28125	-0.04988	56.92188
2951.625	-0.04915	56.74609
2955.96875	-0.05301	56.57812
2960.3125	-0.05301	56.41406
2964.65625	-0.05112	56.21094
