! This is a Touchstone .s1p format file
! It should be saved with .s1p extension 
! HEWLETT PACKARD,8720D,0,7.74  
! Date = 21 Mar 2018
! Time = 01:20:43
! S11 measured = FALSE
! S21 measured = FALSE
! S12 measured = FALSE
! S22 measured = TRUE
! Start frequency = 0.050000000 GHz
! Centre frequency  = 3.524999936 GHz
! Stop frequency  = 7.000000000 GHz
! IF bandwidth = 300 Hz
! Smoothing = OFF
! Smoothing aperture = 1.000000 %
! Averaging = OFF
! Averaging factor = 16
! Source power = On
! Source power = Auto mode
! Output power level = 5.000000 dBm
! Retrace power = Off
! Testset switching = Continuous
! Number of sweeps for test set switching (0=hold, 1=continuous,2-999 = number of sweeps) = 1
! Step sweep = On (check)
! List frequency sweep = Off (check)
! IFBW setting for a list-frequency table in swept list mode = Disabled (Check)
! Power setting for a list-frequency table in swept list mode = Disabled (Check)
! Measurement mode = Chop A and B
! Port extensions = OFF
! Port extension 1 = 0.000000 ps
! Port extension 2 = 57.970000 ps
! Points  = 1601
! Calibration kit = 3.5 mm D
! Power = 5.000000 dBm
! Frequency magS22 angS22
! Magnitudes are in log form
! Angles are in degrees
# MHz S DB R 50
50.00000 -40.59375 -174.17969
54.34375 -42.30273 -178.08594
58.68750 -42.11914 -177.33594
63.03125 -42.40820 -177.81250
67.37500 -42.00391 175.70312
71.71875 -41.89648 -175.30469
76.06250 -42.01367 -178.45312
80.40625 -41.70117 -177.64844
84.75000 -41.50586 175.72656
89.09375 -41.57031 178.62500
93.43750 -41.66211 -177.67188
97.78125 -41.78125 -177.46875
102.12500 -41.48633 -177.75781
106.46875 -41.48633 -178.21875
110.81250 -41.95312 -176.38281
115.15625 -41.83594 -179.75781
119.50000 -41.77734 -178.28906
123.84375 -41.96289 178.53125
128.18750 -41.86719 179.87500
132.53125 -41.95508 -179.66406
136.87500 -42.00000 -178.92969
141.21875 -41.83594 -178.91406
145.56250 -41.85742 -179.48438
149.90625 -41.71289 -177.46875
154.25000 -42.06055 -179.17969
158.59375 -42.04688 -177.96875
162.93750 -41.81641 -178.19531
167.28125 -41.80859 -178.19531
171.62500 -41.71289 -178.21875
175.96875 -42.06836 -178.80469
180.31250 -41.53125 -178.21094
184.65625 -41.74609 -176.35156
189.00000 -41.79102 -177.14844
193.34375 -41.67383 -178.68750
197.68750 -41.91992 -178.59375
202.03125 -41.78516 -178.60156
206.37500 -41.73242 -177.19531
210.71875 -41.89648 -177.25781
215.06250 -41.62695 -176.70312
219.40625 -41.75586 -176.97656
223.75000 -41.91992 -177.48438
228.09375 -41.91406 -177.42969
232.43750 -41.90625 -178.28125
236.78125 -41.87695 -179.43750
241.12500 -41.66602 -177.77344
245.46875 -41.80078 -177.00000
249.81250 -41.84180 -177.92188
254.15625 -41.90039 -176.69531
258.50000 -41.65625 -176.25000
262.84375 -41.99219 -177.53906
267.18750 -41.78516 -177.11719
271.53125 -41.99609 -176.93750
275.87500 -41.93359 -177.07812
280.21875 -41.80273 -176.39062
284.56250 -41.78516 -178.31250
288.90625 -41.78711 -176.82812
293.25000 -41.84570 -176.92969
297.59375 -41.76758 -177.16406
301.93750 -41.79688 -177.47656
306.28125 -41.72070 -176.82031
310.62500 -41.83594 -177.64844
314.96875 -41.79883 -177.19531
319.31250 -41.77734 -177.51562
323.65625 -41.79688 -176.21875
328.00000 -41.84766 -176.66406
332.34375 -41.77539 -177.15625
336.68750 -41.69141 -177.25781
341.03125 -41.73633 -176.28125
345.37500 -41.76367 -176.15625
349.71875 -41.78906 -176.96875
354.06250 -41.65430 -176.58594
358.40625 -41.74414 -177.47656
362.75000 -41.64062 -176.49219
367.09375 -41.68945 -176.85938
371.43750 -41.68359 -176.75781
375.78125 -41.71875 -177.02344
380.12500 -41.66992 -177.67969
384.46875 -41.70898 -176.63281
388.81250 -41.67188 -176.93750
393.15625 -41.71875 -177.21094
397.50000 -41.72852 -176.51562
401.84375 -41.70312 -177.11719
406.18750 -41.58789 -177.30469
410.53125 -41.77539 -176.45312
414.87500 -41.65234 -176.75781
419.21875 -41.76367 -176.72656
423.56250 -41.63867 -176.95312
427.90625 -41.66602 -176.46875
432.25000 -41.73047 -176.55469
436.59375 -41.63672 -177.59375
440.93750 -41.67383 -176.15625
445.28125 -41.60938 -176.88281
449.62500 -41.50977 -177.64062
453.96875 -41.65625 -176.53906
458.31250 -41.62500 -176.72656
462.65625 -41.64844 -176.39844
467.00000 -41.66992 -176.82031
471.34375 -41.59766 -176.75781
475.68750 -41.60352 -176.78125
480.03125 -41.58789 -176.47656
484.37500 -41.66602 -176.33594
488.71875 -41.63086 -177.03906
493.06250 -41.59570 -176.88281
497.40625 -41.58984 -176.17188
501.75000 -41.61719 -176.51562
506.09375 -41.63281 -176.58594
510.43750 -41.50391 -176.58594
514.78125 -41.55664 -176.52344
519.12500 -41.59961 -176.25781
523.46875 -41.49609 -176.24219
527.81250 -41.43750 -176.42969
532.15625 -41.50391 -176.58594
536.50000 -41.50195 -176.26562
540.84375 -41.58594 -176.95312
545.18750 -41.54492 -176.79688
549.53125 -41.47656 -176.54688
553.87500 -41.50195 -176.35156
558.21875 -41.55664 -176.35156
562.56250 -41.45312 -176.56250
566.90625 -41.49414 -175.72656
571.25000 -41.52734 -176.33594
575.59375 -41.49219 -176.60938
579.93750 -41.53711 -176.86719
584.28125 -41.51758 -176.70312
588.62500 -41.51758 -176.53906
592.96875 -41.54688 -176.68750
597.31250 -41.43359 -176.30469
601.65625 -41.49609 -176.11719
606.00000 -41.45898 -176.42969
610.34375 -41.46094 -176.27344
614.68750 -41.51953 -176.23438
619.03125 -41.42969 -176.79688
623.37500 -41.46094 -176.02344
627.71875 -41.54688 -176.18750
632.06250 -41.46875 -176.45312
636.40625 -41.43359 -176.72656
640.75000 -41.49414 -176.96875
645.09375 -41.50391 -176.03906
649.43750 -41.39258 -176.64844
653.78125 -41.40625 -176.23438
658.12500 -41.40625 -176.37500
662.46875 -41.39062 -176.78125
666.81250 -41.40625 -176.79688
671.15625 -41.42383 -176.50781
675.50000 -41.45312 -176.65625
679.84375 -41.40039 -176.97656
684.18750 -41.42969 -176.57031
688.53125 -41.42969 -177.03906
692.87500 -41.38477 -176.50000
697.21875 -41.43945 -176.29688
701.56250 -41.42773 -176.57812
705.90625 -41.32031 -176.53125
710.25000 -41.36133 -176.44531
714.59375 -41.32617 -177.31250
718.93750 -41.41797 -176.42188
723.28125 -41.39258 -176.71094
727.62500 -41.34766 -176.67188
731.96875 -41.38867 -176.35156
736.31250 -41.34375 -177.22656
740.65625 -41.36328 -176.81250
745.00000 -41.31445 -176.34375
749.34375 -41.31250 -176.98438
753.68750 -41.40430 -177.10156
758.03125 -41.33203 -176.75000
762.37500 -41.26953 -176.61719
766.71875 -41.41211 -176.45312
771.06250 -41.41406 -177.07031
775.40625 -41.33984 -177.42969
779.75000 -41.31641 -176.64062
784.09375 -41.30273 -177.44531
788.43750 -41.32617 -176.96094
792.78125 -41.27930 -177.21875
797.12500 -41.37109 -177.03906
801.46875 -41.27344 -176.85156
805.81250 -41.28906 -176.66406
810.15625 -41.33398 -176.78906
814.50000 -41.33594 -176.90625
818.84375 -41.27344 -176.70312
823.18750 -41.23242 -177.21875
827.53125 -41.28516 -177.09375
831.87500 -41.25586 -176.94531
836.21875 -41.25781 -176.75781
840.56250 -41.25586 -176.94531
844.90625 -41.24219 -176.63281
849.25000 -41.28320 -176.76562
853.59375 -41.28906 -177.09375
857.93750 -41.29297 -177.31250
862.28125 -41.27539 -177.05469
866.62500 -41.24414 -177.33594
870.96875 -41.24805 -177.35156
875.31250 -41.22461 -177.34375
879.65625 -41.22266 -177.89062
884.00000 -41.27734 -177.48438
888.34375 -41.17578 -177.35938
892.68750 -41.20117 -177.19531
897.03125 -41.25781 -177.37500
901.37500 -41.25195 -177.47656
905.71875 -41.26758 -177.60156
910.06250 -41.21680 -177.78125
914.40625 -41.24414 -177.28906
918.75000 -41.24609 -177.84375
923.09375 -41.20898 -177.91406
927.43750 -41.21875 -177.71094
931.78125 -41.19922 -177.48438
936.12500 -41.28320 -177.47656
940.46875 -41.24609 -177.63281
944.81250 -41.19141 -177.68750
949.15625 -41.20312 -177.85156
953.50000 -41.18164 -177.89062
957.84375 -41.21484 -177.72656
962.18750 -41.17188 -178.00000
966.53125 -41.19336 -177.58594
970.87500 -41.12305 -177.94531
975.21875 -41.18750 -178.08594
979.56250 -41.16602 -177.75000
983.90625 -41.18164 -177.97656
988.25000 -41.15625 -178.07812
992.59375 -41.15234 -177.81250
996.93750 -41.16016 -177.87500
1001.28125 -41.15820 -178.03125
1005.62500 -41.19727 -178.10938
1009.96875 -41.14844 -177.63281
1014.31250 -41.15234 -178.41406
1018.65625 -41.12891 -178.12500
1023.00000 -41.13867 -178.01562
1027.34375 -41.10742 -178.07031
1031.68750 -41.12891 -178.10156
1036.03125 -41.12695 -178.20312
1040.37500 -41.16797 -178.35938
1044.71875 -41.14648 -178.08594
1049.06250 -41.10352 -177.82031
1053.40625 -41.15039 -178.31250
1057.75000 -41.12109 -177.86719
1062.09375 -41.17969 -178.21875
1066.43750 -41.11133 -178.36719
1070.78125 -41.15234 -178.39844
1075.12500 -41.06250 -177.92188
1079.46875 -41.08789 -178.28906
1083.81250 -41.10938 -178.38281
1088.15625 -41.03711 -178.14844
1092.50000 -41.08203 -178.38281
1096.84375 -41.09570 -178.57812
1101.18750 -41.14648 -178.22656
1105.53125 -41.09180 -178.50000
1109.87500 -41.09180 -178.29688
1114.21875 -41.10938 -178.46875
1118.56250 -41.11914 -178.66406
1122.90625 -41.08984 -179.44531
1127.25000 -41.07227 -178.40625
1131.59375 -41.11719 -178.57031
1135.93750 -41.10742 -178.27344
1140.28125 -41.06445 -178.53125
1144.62500 -41.07422 -178.53125
1148.96875 -41.09180 -178.56250
1153.31250 -41.05664 -178.61719
1157.65625 -41.05469 -178.84375
1162.00000 -41.09961 -178.98438
1166.34375 -41.09375 -178.43750
1170.68750 -41.10156 -179.32812
1175.03125 -41.01758 -179.00000
1179.37500 -41.03320 -178.93750
1183.71875 -40.99609 -179.27344
1188.06250 -41.02148 -179.30469
1192.40625 -41.03516 -178.80469
1196.75000 -41.05469 -178.60156
1201.09375 -41.03711 -179.00000
1205.43750 -41.00195 -178.82812
1209.78125 -41.02148 -178.96094
1214.12500 -41.06641 -178.90625
1218.46875 -41.00781 -179.32812
1222.81250 -41.01758 -178.95312
1227.15625 -41.01953 -179.31250
1231.50000 -41.02734 -179.53906
1235.84375 -40.99023 -179.22656
1240.18750 -40.98242 -179.14844
1244.53125 -40.99219 -179.18750
1248.87500 -41.02148 -179.31250
1253.21875 -41.01367 -179.76562
1257.56250 -41.01953 -179.03906
1261.90625 -41.02148 -179.29688
1266.25000 -41.02734 -179.22656
1270.59375 -41.00000 -179.15625
1274.93750 -41.06445 -179.50781
1279.28125 -40.98242 -179.54688
1283.62500 -40.96680 -179.36719
1287.96875 -41.01953 -179.41406
1292.31250 -41.03320 -179.48438
1296.65625 -40.97852 -179.78125
1301.00000 -41.02148 -179.47656
1305.34375 -41.00977 -179.76562
1309.68750 -41.02344 -179.51562
1314.03125 -40.97461 -179.33594
1318.37500 -40.99805 -179.77344
1322.71875 -40.97266 -179.37500
1327.06250 -40.97852 -179.13281
1331.40625 -41.02930 179.94531
1335.75000 -41.01172 -179.57031
1340.09375 -40.93555 179.81250
1344.43750 -41.00000 179.97656
1348.78125 -41.00586 -179.79688
1353.12500 -40.97266 179.83594
1357.46875 -40.99219 -179.44531
1361.81250 -40.96875 -179.82031
1366.15625 -40.96289 -179.79688
1370.50000 -41.05078 -179.94531
1374.84375 -40.96680 -179.96094
1379.18750 -40.99805 -180.00000
1383.53125 -40.94141 179.70312
1387.87500 -41.00781 179.80469
1392.21875 -40.92383 179.88281
1396.56250 -40.91602 -179.95312
1400.90625 -40.96875 179.75781
1405.25000 -40.95898 179.64844
1409.59375 -40.97266 -180.00000
1413.93750 -40.91797 -179.98438
1418.28125 -40.98047 179.56250
1422.62500 -40.94727 179.96094
1426.96875 -41.00391 179.71094
1431.31250 -40.99609 179.53906
1435.65625 -40.98438 179.65625
1440.00000 -40.97656 179.69531
1444.34375 -41.01758 179.42969
1448.68750 -41.02344 179.49219
1453.03125 -40.96094 179.64062
1457.37500 -40.96484 179.59375
1461.71875 -40.99023 179.35156
1466.06250 -41.02344 -179.82031
1470.40625 -41.05273 179.21875
1474.75000 -40.94727 179.72656
1479.09375 -40.95508 179.17969
1483.43750 -40.94141 179.03125
1487.78125 -41.01172 179.60156
1492.12500 -40.99805 179.35156
1496.46875 -40.95117 179.66406
1500.81250 -41.01562 179.22656
1505.15625 -40.96094 179.14844
1509.50000 -40.97461 179.44531
1513.84375 -41.01562 179.63281
1518.18750 -41.05273 179.03125
1522.53125 -40.98242 179.25781
1526.87500 -41.02539 179.12500
1531.21875 -41.01953 178.91406
1535.56250 -40.95703 178.74219
1539.90625 -40.94727 179.16406
1544.25000 -40.93555 178.85938
1548.59375 -41.00781 179.00000
1552.93750 -40.96094 179.15625
1557.28125 -41.01953 179.36719
1561.62500 -40.99414 179.09375
1565.96875 -40.98438 178.95312
1570.31250 -40.97461 178.82812
1574.65625 -40.96094 178.93750
1579.00000 -40.88477 178.50000
1583.34375 -41.02344 179.02344
1587.68750 -40.97656 178.54688
1592.03125 -41.02734 178.50000
1596.37500 -40.95312 178.14844
1600.71875 -40.97852 178.45312
1605.06250 -40.95117 178.75781
1609.40625 -40.99805 178.91406
1613.75000 -40.94922 179.03906
1618.09375 -41.03320 178.14062
1622.43750 -40.95508 178.67188
1626.78125 -41.01953 178.38281
1631.12500 -40.99805 178.56250
1635.46875 -40.94336 178.88281
1639.81250 -40.99805 178.39062
1644.15625 -41.01953 178.29688
1648.50000 -40.97266 178.69531
1652.84375 -41.00586 178.46094
1657.18750 -40.94922 178.31250
1661.53125 -41.02734 177.99219
1665.87500 -40.91602 178.39062
1670.21875 -40.93164 178.07812
1674.56250 -41.01758 177.71094
1678.90625 -40.97852 178.05469
1683.25000 -40.96484 178.09375
1687.59375 -40.94531 177.95312
1691.93750 -40.93750 178.12500
1696.28125 -40.89648 178.07031
1700.62500 -40.96484 177.78906
1704.96875 -40.93164 178.08594
1709.31250 -41.03711 178.37500
1713.65625 -40.94727 177.64062
1718.00000 -41.02148 177.86719
1722.34375 -41.01953 177.89844
1726.68750 -40.95898 177.86719
1731.03125 -40.95898 177.73438
1735.37500 -40.94141 177.84375
1739.71875 -41.00195 177.77344
1744.06250 -40.98242 177.53906
1748.40625 -40.99609 177.73438
1752.75000 -40.98438 177.21875
1757.09375 -40.96680 178.01562
1761.43750 -40.97656 177.28125
1765.78125 -40.94922 177.77344
1770.12500 -40.96094 177.46875
1774.46875 -40.95508 177.17188
1778.81250 -40.93359 177.61719
1783.15625 -41.00977 177.39062
1787.50000 -40.95898 177.28125
1791.84375 -41.01953 177.42969
1796.18750 -40.96680 177.84375
1800.53125 -41.00195 177.50781
1804.87500 -40.97070 177.42969
1809.21875 -40.95703 177.59375
1813.56250 -40.94336 177.35938
1817.90625 -40.95703 177.53125
1822.25000 -41.00977 177.26562
1826.59375 -41.06055 176.73438
1830.93750 -40.99219 177.02344
1835.28125 -40.99414 177.35938
1839.62500 -41.05273 177.10938
1843.96875 -40.95703 176.96875
1848.31250 -40.95117 176.96875
1852.65625 -41.03711 176.53906
1857.00000 -40.94727 176.88281
1861.34375 -41.00781 177.03125
1865.68750 -41.01758 176.69531
1870.03125 -40.97656 177.03125
1874.37500 -41.00781 176.96094
1878.71875 -41.03906 176.60156
1883.06250 -40.97266 177.28906
1887.40625 -40.96875 176.50781
1891.75000 -41.04688 176.86719
1896.09375 -41.03125 177.07031
1900.43750 -41.01953 177.35938
1904.78125 -41.06250 176.38281
1909.12500 -41.02539 176.85938
1913.46875 -41.01367 176.46875
1917.81250 -41.05078 176.52344
1922.15625 -41.06641 176.81250
1926.50000 -40.97852 176.58594
1930.84375 -41.03320 176.39844
1935.18750 -40.99805 176.47656
1939.53125 -41.04102 176.94531
1943.87500 -40.93750 176.28906
1948.21875 -41.06055 176.50781
1952.56250 -41.00977 176.50781
1956.90625 -40.99414 176.43750
1961.25000 -41.01172 176.25000
1965.59375 -41.06445 176.38281
1969.93750 -41.05273 175.78906
1974.28125 -41.15234 176.67969
1978.62500 -41.00195 176.28125
1982.96875 -41.03320 176.13281
1987.31250 -40.97656 176.18750
1991.65625 -41.05859 175.92188
1996.00000 -40.99609 176.05469
2000.34375 -41.02930 176.15625
2004.68750 -41.04102 176.26562
2009.03125 -41.03516 176.23438
2013.37500 -40.98828 175.64844
2017.71875 -40.97461 175.46875
2022.06250 -41.06250 175.81250
2026.40625 -41.06836 175.98438
2030.75000 -41.08789 175.86719
2035.09375 -41.08789 175.67188
2039.43750 -41.03516 175.71094
2043.78125 -41.09766 175.87500
2048.12500 -41.06641 176.08594
2052.46875 -41.01562 175.83594
2056.81250 -41.02734 175.53125
2061.15625 -41.10156 175.20312
2065.50000 -41.10352 175.59375
2069.84375 -41.05469 175.64844
2074.18750 -41.01562 175.82031
2078.53125 -41.04883 175.17969
2082.87500 -41.02344 175.04688
2087.21875 -41.09180 175.30469
2091.56250 -41.03516 175.71094
2095.90625 -41.07227 175.57812
2100.25000 -41.02148 175.59375
2104.59375 -41.09766 175.64844
2108.93750 -41.10352 175.13281
2113.28125 -41.13672 175.28125
2117.62500 -41.02344 175.58594
2121.96875 -41.06250 174.94531
2126.31250 -41.05273 175.15625
2130.65625 -41.08984 174.87500
2135.00000 -41.10547 174.81250
2139.34375 -41.14062 174.96875
2143.68750 -41.06250 175.30469
2148.03125 -41.06641 174.85938
2152.37500 -41.05273 175.21094
2156.71875 -41.10156 175.40625
2161.06250 -41.10742 174.64062
2165.40625 -41.06055 174.83594
2169.75000 -41.08203 174.90625
2174.09375 -41.05664 175.34375
2178.43750 -41.09570 174.52344
2182.78125 -41.07227 174.96094
2187.12500 -41.05664 175.35156
2191.46875 -41.08984 174.69531
2195.81250 -41.08008 174.43750
2200.15625 -41.08594 174.89062
2204.50000 -41.05859 175.25781
2208.84375 -41.09766 174.82031
2213.18750 -41.06641 175.07031
2217.53125 -41.13281 174.84375
2221.87500 -41.09766 173.92969
2226.21875 -41.11914 174.53906
2230.56250 -41.01758 174.85938
2234.90625 -41.16211 174.19531
2239.25000 -41.07812 174.75000
2243.59375 -41.12109 174.68750
2247.93750 -41.08398 174.48438
2252.28125 -41.09766 174.49219
2256.62500 -41.13086 174.44531
2260.96875 -41.09766 174.71875
2265.31250 -41.16211 174.61719
2269.65625 -41.12305 174.00000
2274.00000 -41.08008 174.66406
2278.34375 -41.09570 174.32812
2282.68750 -41.13281 174.45312
2287.03125 -41.10938 173.99219
2291.37500 -41.11719 174.50781
2295.71875 -41.10742 174.50781
2300.06250 -41.05273 174.71094
2304.40625 -41.01758 174.64844
2308.75000 -41.17773 173.97656
2313.09375 -41.11133 174.54688
2317.43750 -41.07422 174.19531
2321.78125 -41.13086 173.81250
2326.12500 -41.10352 174.23438
2330.46875 -41.08008 174.33594
2334.81250 -41.08008 173.94531
2339.15625 -41.12695 173.87500
2343.50000 -41.01758 173.97656
2347.84375 -41.10352 173.64062
2352.18750 -41.10352 174.39844
2356.53125 -41.15625 174.00000
2360.87500 -41.23047 173.86719
2365.21875 -41.12695 173.45312
2369.56250 -41.03516 173.91406
2373.90625 -41.12109 173.71094
2378.25000 -41.17969 173.83594
2382.59375 -41.04883 173.96094
2386.93750 -41.14453 173.93750
2391.28125 -41.12305 173.63281
2395.62500 -41.14648 173.96875
2399.96875 -41.06445 173.52344
2404.31250 -41.11914 173.71875
2408.65625 -41.14062 173.85938
2413.00000 -41.11328 174.56250
2417.34375 -41.13672 173.85938
2421.68750 -41.10938 173.82812
2426.03125 -41.17578 173.75781
2430.37500 -41.13477 173.70312
2434.71875 -41.13867 173.75781
2439.06250 -41.18164 173.96875
2443.40625 -41.14062 173.88281
2447.75000 -41.14648 173.21875
2452.09375 -41.12695 173.29688
2456.43750 -41.21484 173.30469
2460.78125 -41.11523 173.78125
2465.12500 -41.14258 173.68750
2469.46875 -41.18164 173.73438
2473.81250 -41.15430 173.89844
2478.15625 -41.10938 173.60156
2482.50000 -41.16992 173.73438
2486.84375 -41.22070 173.10156
2491.18750 -41.11328 173.50000
2495.53125 -41.14648 173.46094
2499.87500 -41.13867 173.28125
2504.21875 -41.15625 173.43750
2508.56250 -41.15625 172.99219
2512.90625 -41.13672 173.39062
2517.25000 -41.21875 173.54688
2521.59375 -41.18945 173.29688
2525.93750 -41.14648 173.35156
2530.28125 -41.20312 172.91406
2534.62500 -41.22070 173.71094
2538.96875 -41.17969 173.11719
2543.31250 -41.18359 173.14062
2547.65625 -41.13086 173.83594
2552.00000 -41.20703 173.20312
2556.34375 -41.15234 173.05469
2560.68750 -41.28906 173.66406
2565.03125 -41.29492 173.61719
2569.37500 -41.25977 172.75000
2573.71875 -41.16406 173.32031
2578.06250 -41.15039 173.40625
2582.40625 -41.22070 173.35156
2586.75000 -41.18164 173.26562
2591.09375 -41.22070 172.90625
2595.43750 -41.20117 172.91406
2599.78125 -41.28320 173.14062
2604.12500 -41.17578 173.34375
2608.46875 -41.24414 172.85156
2612.81250 -41.17969 173.46094
2617.15625 -41.22266 173.17969
2621.50000 -41.27344 173.46094
2625.84375 -41.20898 173.05469
2630.18750 -41.26562 172.72656
2634.53125 -41.20508 172.79688
2638.87500 -41.18359 172.75000
2643.21875 -41.21680 173.29688
2647.56250 -41.22656 173.46875
2651.90625 -41.21875 173.40625
2656.25000 -41.27734 173.48438
2660.59375 -41.15820 172.88281
2664.93750 -41.27148 173.05469
