! This is a Touchstone .s1p format file
! It should be saved with .s1p extension 
! HEWLETT PACKARD,8720D,0,7.74  
! Date = 21 Mar 2018
! Time = 01:15:33
! S11 measured = FALSE
! S21 measured = FALSE
! S12 measured = FALSE
! S22 measured = TRUE
! Start frequency = 0.050000000 GHz
! Centre frequency  = 3.524999936 GHz
! Stop frequency  = 7.000000000 GHz
! IF bandwidth = 300 Hz
! Smoothing = OFF
! Smoothing aperture = 1.000000 %
! Averaging = OFF
! Averaging factor = 16
! Source power = On
! Source power = Auto mode
! Output power level = 5.000000 dBm
! Retrace power = Off
! Testset switching = Continuous
! Number of sweeps for test set switching (0=hold, 1=continuous,2-999 = number of sweeps) = 1
! Step sweep = On (check)
! List frequency sweep = Off (check)
! IFBW setting for a list-frequency table in swept list mode = Disabled (Check)
! Power setting for a list-frequency table in swept list mode = Disabled (Check)
! Measurement mode = Chop A and B
! Port extensions = OFF
! Port extension 1 = 0.000000 ps
! Port extension 2 = 57.970000 ps
! Points  = 1601
! Calibration kit = 3.5 mm D
! Power = 5.000000 dBm
! Frequency magS22 angS22
! Magnitudes are in log form
! Angles are in degrees
# MHz S DB R 50
50.00000 0.02761 -2.03528
54.34375 -0.00216 -2.27698
58.68750 0.00390 -2.48572
63.03125 0.00919 -2.67932
67.37500 0.00294 -2.86890
71.71875 0.00505 -3.01025
76.06250 -0.00069 -3.17920
80.40625 0.00469 -3.34399
84.75000 0.00317 -3.58154
89.09375 -0.00069 -3.72852
93.43750 0.00129 -3.92627
97.78125 -0.00505 -4.12817
102.12500 -0.00119 -4.28467
106.46875 0.00124 -4.44946
110.81250 0.00216 -4.65820
115.15625 0.00372 -4.82593
119.50000 -0.00638 -4.96729
123.84375 0.00386 -5.32983
128.18750 0.00418 -5.33130
132.53125 0.00335 -5.53174
136.87500 0.00124 -5.78296
141.21875 -0.00404 -5.95459
145.56250 0.00073 -6.15112
149.90625 -0.01291 -6.36255
154.25000 0.00638 -6.49170
158.59375 0.00211 -6.64282
162.93750 -0.00216 -6.85010
167.28125 0.00198 -6.98877
171.62500 0.00386 -7.20166
175.96875 -0.00910 -7.44189
180.31250 -0.00413 -7.55737
184.65625 -0.00032 -7.76880
189.00000 0.00032 -7.95288
193.34375 0.00110 -8.13965
197.68750 0.00735 -8.28125
202.03125 0.00230 -8.50928
206.37500 -0.00340 -8.68066
210.71875 0.00496 -8.87842
215.06250 -0.00280 -9.00342
219.40625 -0.00349 -9.17383
223.75000 0.00441 -9.40430
228.09375 -0.00014 -9.56396
232.43750 0.00193 -9.77002
236.78125 -0.00234 -9.93457
241.12500 0.00358 -10.16553
245.46875 0.00023 -10.30811
249.81250 -0.00005 -10.51123
254.15625 -0.00106 -10.66650
258.50000 0.00675 -10.86279
262.84375 -0.00170 -11.00586
267.18750 -0.00009 -11.23242
271.53125 0.00928 -11.40137
275.87500 0.00005 -11.58252
280.21875 0.00482 -11.76123
284.56250 -0.00423 -11.97656
288.90625 -0.00220 -12.11523
293.25000 -0.01254 -12.39551
297.59375 -0.00386 -12.50830
301.93750 0.00478 -12.68408
306.28125 -0.00386 -12.88330
310.62500 0.00478 -13.07666
314.96875 -0.00202 -13.22900
319.31250 -0.00620 -13.42432
323.65625 -0.00271 -13.60840
328.00000 -0.00225 -13.78516
332.34375 0.00051 -13.98975
336.68750 -0.00799 -14.16992
341.03125 0.00073 -14.32373
345.37500 0.00225 -14.54590
349.71875 0.00271 -14.66699
354.06250 0.00322 -14.87305
358.40625 -0.00041 -15.05273
362.75000 0.00537 -15.20801
367.09375 -0.00496 -15.44824
371.43750 0.00404 -15.58594
375.78125 0.00129 -15.80566
380.12500 0.00170 -15.96729
384.46875 0.00542 -16.11621
388.81250 -0.00266 -16.33301
393.15625 -0.00234 -16.52539
397.50000 -0.00092 -16.67871
401.84375 -0.00060 -16.87988
406.18750 0.00037 -17.05664
410.53125 0.00032 -17.26953
414.87500 -0.00096 -17.43066
419.21875 0.00041 -17.62109
423.56250 0.00060 -17.79590
427.90625 0.00514 -17.99316
432.25000 0.00395 -18.16113
436.59375 0.00138 -18.34375
440.93750 0.00119 -18.51660
445.28125 0.00198 -18.68945
449.62500 -0.00211 -18.91113
453.96875 0.00133 -19.08398
458.31250 0.00441 -19.25391
462.65625 0.00138 -19.44922
467.00000 0.00115 -19.61816
471.34375 0.00253 -19.78418
475.68750 -0.00009 -19.99121
480.03125 0.00055 -20.16016
484.37500 -0.00018 -20.33984
488.71875 -0.00156 -20.55762
493.06250 0.00023 -20.71680
497.40625 -0.00064 -20.92773
501.75000 -0.00299 -21.07227
506.09375 -0.00083 -21.25488
510.43750 -0.00243 -21.44043
514.78125 0.00106 -21.60352
519.12500 0.00491 -21.81934
523.46875 0.00193 -21.98535
527.81250 -0.00510 -22.17773
532.15625 -0.00262 -22.36816
536.50000 -0.00037 -22.51953
540.84375 -0.00142 -22.72559
545.18750 -0.00009 -22.91406
549.53125 -0.00073 -23.11816
553.87500 -0.00165 -23.29004
558.21875 -0.00170 -23.46582
562.56250 0.00377 -23.67188
566.90625 -0.00400 -23.82324
571.25000 -0.00175 -24.01074
575.59375 -0.00041 -24.20312
579.93750 -0.00299 -24.35449
584.28125 -0.00069 -24.53809
588.62500 -0.00188 -24.73047
592.96875 -0.00083 -24.91211
597.31250 0.00303 -25.11816
601.65625 0.00124 -25.29688
606.00000 -0.00358 -25.47363
610.34375 -0.00184 -25.61914
614.68750 -0.00367 -25.80469
619.03125 -0.00179 -26.01758
623.37500 -0.00129 -26.17969
627.71875 -0.00322 -26.35938
632.06250 -0.00257 -26.58008
636.40625 -0.00276 -26.75781
640.75000 -0.00616 -26.94434
645.09375 -0.00625 -27.08984
649.43750 -0.00211 -27.28223
653.78125 -0.00046 -27.48438
658.12500 -0.00354 -27.67188
662.46875 -0.00423 -27.82910
666.81250 -0.00211 -28.01953
671.15625 -0.00294 -28.19434
675.50000 -0.00583 -28.37402
679.84375 -0.00211 -28.56641
684.18750 -0.00317 -28.76172
688.53125 0.00028 -28.93945
692.87500 0.00096 -29.11426
697.21875 -0.00487 -29.31934
701.56250 -0.00345 -29.52344
705.90625 -0.00280 -29.66211
710.25000 0.00032 -29.81738
714.59375 -0.00188 -30.01367
718.93750 -0.00510 -30.17969
723.28125 -0.00482 -30.42480
727.62500 0.00101 -30.55859
731.96875 -0.00418 -30.74121
736.31250 -0.00207 -30.90527
740.65625 -0.00317 -31.13281
745.00000 -0.00129 -31.30762
749.34375 -0.01341 -31.55176
753.68750 0.00625 -31.64258
758.03125 -0.00014 -31.85547
762.37500 -0.00253 -32.00000
766.71875 -0.00345 -32.23633
771.06250 -0.00680 -32.39062
775.40625 -0.00161 -32.55664
779.75000 -0.00239 -32.78906
784.09375 -0.00432 -32.92969
788.43750 -0.00570 -33.12695
792.78125 -0.00547 -33.30273
797.12500 -0.00533 -33.49414
801.46875 -0.00418 -33.68164
805.81250 -0.00138 -33.83008
810.15625 -0.00537 -34.04102
814.50000 -0.00423 -34.23828
818.84375 0.00161 -34.38281
823.18750 -0.00266 -34.58789
827.53125 -0.00354 -34.75781
831.87500 -0.00147 -34.96289
836.21875 -0.00028 -35.12109
840.56250 -0.00570 -35.31055
844.90625 -0.00138 -35.48438
849.25000 -0.00533 -35.66992
853.59375 -0.00175 -35.86523
857.93750 -0.00763 -36.04297
862.28125 -0.00106 -36.23438
866.62500 -0.00299 -36.39844
870.96875 -0.00519 -36.56250
875.31250 -0.00340 -36.78906
879.65625 -0.00372 -36.96094
884.00000 -0.00087 -37.13086
888.34375 -0.00418 -37.32812
892.68750 -0.00588 -37.48633
897.03125 -0.00542 -37.67383
901.37500 -0.00446 -37.85938
905.71875 -0.00436 -38.06641
910.06250 -0.00285 -38.23242
914.40625 -0.00055 -38.41406
918.75000 -0.00565 -38.59961
923.09375 -0.00285 -38.76562
927.43750 -0.00239 -38.98242
931.78125 -0.00579 -39.12695
936.12500 -0.00446 -39.32031
940.46875 -0.00308 -39.50781
944.81250 -0.00142 -39.68359
949.15625 -0.00239 -39.87500
953.50000 -0.00299 -40.03320
957.84375 -0.00400 -40.24023
962.18750 -0.00404 -40.39648
966.53125 -0.00285 -40.58203
970.87500 -0.00597 -40.78516
975.21875 -0.00276 -40.97656
979.56250 -0.00170 -41.16602
983.90625 -0.00400 -41.35352
988.25000 -0.00873 -41.49805
992.59375 -0.00767 -41.71289
996.93750 -0.00597 -41.86523
1001.28125 -0.00326 -42.04297
1005.62500 -0.00730 -42.22852
1009.96875 -0.00804 -42.43945
1014.31250 -0.00873 -42.60156
1018.65625 -0.00657 -42.80273
1023.00000 -0.00684 -42.98633
1027.34375 -0.00395 -43.16016
1031.68750 -0.00395 -43.32227
1036.03125 -0.00409 -43.52539
1040.37500 -0.00845 -43.69922
1044.71875 -0.00689 -43.91211
1049.06250 -0.00579 -44.07031
1053.40625 -0.00505 -44.24609
1057.75000 -0.00726 -44.42578
1062.09375 -0.00638 -44.60156
1066.43750 -0.00537 -44.80273
1070.78125 -0.00657 -44.96875
1075.12500 -0.00882 -45.15430
1079.46875 -0.00606 -45.34766
1083.81250 -0.00547 -45.52930
1088.15625 -0.00629 -45.70898
1092.50000 -0.00740 -45.89258
1096.84375 -0.00772 -46.06641
1101.18750 -0.00602 -46.24609
1105.53125 -0.00905 -46.44922
1109.87500 -0.00629 -46.62500
1114.21875 -0.01056 -46.79883
1118.56250 -0.00864 -47.00000
1122.90625 -0.00776 -47.16016
1127.25000 -0.00629 -47.33789
1131.59375 -0.00969 -47.53711
1135.93750 -0.00937 -47.69727
1140.28125 -0.01011 -47.87500
1144.62500 -0.01001 -48.05664
1148.96875 -0.00533 -48.23047
1153.31250 -0.00859 -48.41992
1157.65625 -0.00841 -48.61914
1162.00000 -0.00928 -48.77930
1166.34375 -0.00671 -48.95703
1170.68750 -0.00900 -49.14648
1175.03125 -0.00887 -49.32617
1179.37500 -0.00551 -49.50195
1183.71875 -0.00671 -49.69531
1188.06250 -0.00395 -49.88086
1192.40625 -0.00740 -50.04883
1196.75000 -0.00574 -50.25391
1201.09375 -0.01364 -50.44336
1205.43750 -0.01520 -50.64453
1209.78125 -0.01259 -50.81641
1214.12500 0.00808 -50.95898
1218.46875 -0.00335 -51.15820
1222.81250 -0.00629 -51.34375
1227.15625 -0.00652 -51.50781
1231.50000 -0.00822 -51.66992
1235.84375 -0.00882 -51.88867
1240.18750 -0.00703 -52.06641
1244.53125 -0.00914 -52.23438
1248.87500 -0.01043 -52.43945
1253.21875 -0.00923 -52.61328
1257.56250 -0.00836 -52.80273
1261.90625 -0.01125 -52.99023
1266.25000 -0.01406 -53.14258
1270.59375 -0.01079 -53.32617
1274.93750 -0.00785 -53.54102
1279.28125 -0.01001 -53.69531
1283.62500 -0.01139 -53.87891
1287.96875 -0.01410 -54.05273
1292.31250 -0.00703 -54.23242
1296.65625 -0.01153 -54.44727
1301.00000 -0.00730 -54.61328
1305.34375 -0.00850 -54.78906
1309.68750 -0.01350 -54.98828
1314.03125 -0.01079 -55.14062
1318.37500 -0.01282 -55.35742
1322.71875 -0.00717 -55.51172
1327.06250 -0.00997 -55.70312
1331.40625 -0.00928 -55.89844
1335.75000 -0.01089 -56.07812
1340.09375 -0.00868 -56.22852
1344.43750 -0.00896 -56.42188
1348.78125 -0.00859 -56.60742
1353.12500 -0.01185 -56.78320
1357.46875 -0.01011 -56.97656
1361.81250 -0.00859 -57.14258
1366.15625 -0.00868 -57.33789
1370.50000 -0.01112 -57.49609
1374.84375 -0.01102 -57.69727
1379.18750 -0.00822 -57.86719
1383.53125 -0.00960 -58.08594
1387.87500 -0.00928 -58.25391
1392.21875 -0.00864 -58.45312
1396.56250 -0.01355 -58.63477
1400.90625 -0.01429 -58.77930
1405.25000 -0.01153 -58.96680
1409.59375 -0.01415 -59.17188
1413.93750 -0.01350 -59.34961
1418.28125 -0.01295 -59.52344
1422.62500 -0.01355 -59.72266
1426.96875 -0.01337 -59.90039
1431.31250 -0.01507 -60.08984
1435.65625 -0.01599 -60.24805
1440.00000 -0.01213 -60.41602
1444.34375 -0.01594 -60.60156
1448.68750 -0.01741 -60.80664
1453.03125 -0.01341 -60.98828
1457.37500 -0.01272 -61.18359
1461.71875 -0.01768 -61.30273
1466.06250 -0.01226 -61.52930
1470.40625 -0.01452 -61.70508
1474.75000 -0.01644 -61.86719
1479.09375 -0.01410 -62.06055
1483.43750 -0.01447 -62.24023
1487.78125 -0.01268 -62.44531
1492.12500 -0.01594 -62.61328
1496.46875 -0.01534 -62.79102
1500.81250 -0.01631 -62.98047
1505.15625 -0.01888 -63.14844
1509.50000 -0.01516 -63.34766
1513.84375 -0.01135 -63.52539
1518.18750 -0.01401 -63.66992
1522.53125 -0.01727 -63.89258
1526.87500 -0.01272 -64.06641
1531.21875 -0.01406 -64.24219
1535.56250 -0.01681 -64.44141
1539.90625 -0.01732 -64.60156
1544.25000 -0.01732 -64.80859
1548.59375 -0.01768 -64.93359
1552.93750 -0.01704 -65.13672
1557.28125 -0.02026 -65.33984
1561.62500 -0.01819 -65.50391
1565.96875 -0.01594 -65.67188
1570.31250 -0.01723 -65.85156
1574.65625 -0.01640 -66.02734
1579.00000 -0.01644 -66.23438
1583.34375 -0.01796 -66.41406
1587.68750 -0.01663 -66.57422
1592.03125 -0.01837 -66.78516
1596.37500 -0.01824 -66.96094
1600.71875 -0.01736 -67.12891
1605.06250 -0.01860 -67.32422
1609.40625 -0.01548 -67.50781
1613.75000 -0.01318 -67.70703
1618.09375 -0.01796 -67.84766
1622.43750 -0.01585 -68.06250
1626.78125 -0.01902 -68.23047
1631.12500 -0.01461 -68.40234
1635.46875 -0.01860 -68.60156
1639.81250 -0.01782 -68.74609
1644.15625 -0.02044 -68.96484
1648.50000 -0.02049 -69.12109
1652.84375 -0.01525 -69.30859
1657.18750 -0.01874 -69.50781
1661.53125 -0.01768 -69.69141
1665.87500 -0.01332 -69.83594
1670.21875 -0.01690 -70.04297
1674.56250 -0.02104 -70.19922
1678.90625 -0.02058 -70.41016
1683.25000 -0.01934 -70.57812
1687.59375 -0.02182 -70.77344
1691.93750 -0.01778 -70.95312
1696.28125 -0.01585 -71.12891
1700.62500 -0.02131 -71.32422
1704.96875 -0.02003 -71.47656
1709.31250 -0.01851 -71.68359
1713.65625 -0.02072 -71.84766
1718.00000 -0.01828 -72.03125
1722.34375 -0.01612 -72.22656
1726.68750 -0.02072 -72.41406
1731.03125 -0.01920 -72.57422
1735.37500 -0.02278 -72.78516
1739.71875 -0.01828 -72.95312
1744.06250 -0.02370 -73.09766
1748.40625 -0.02072 -73.31250
1752.75000 -0.02003 -73.49219
1757.09375 -0.02095 -73.66797
1761.43750 -0.02379 -73.83984
1765.78125 -0.02062 -74.05078
1770.12500 -0.02108 -74.21094
1774.46875 -0.01842 -74.41406
1778.81250 -0.02076 -74.60156
1783.15625 -0.02021 -74.77734
1787.50000 -0.01741 -74.95312
1791.84375 -0.02246 -75.11719
1796.18750 -0.01732 -75.32812
1800.53125 -0.01842 -75.50000
1804.87500 -0.02058 -75.69141
1809.21875 -0.02122 -75.86328
1813.56250 -0.02320 -76.06641
1817.90625 -0.02150 -76.22266
1822.25000 -0.02453 -76.42969
1826.59375 -0.02467 -76.58203
1830.93750 -0.01847 -76.75781
1835.28125 -0.02421 -76.96094
1839.62500 -0.02333 -77.13672
1843.96875 -0.02444 -77.34375
1848.31250 -0.02338 -77.49219
1852.65625 -0.02582 -77.69531
1857.00000 -0.02324 -77.91406
1861.34375 -0.02145 -78.02734
1865.68750 -0.02012 -78.24219
1870.03125 -0.02389 -78.39453
1874.37500 -0.02462 -78.55859
1878.71875 -0.02421 -78.74219
1883.06250 -0.02545 -78.93750
1887.40625 -0.02696 -79.12891
1891.75000 -0.02352 -79.27734
1896.09375 -0.02503 -79.48438
1900.43750 -0.02402 -79.67188
1904.78125 -0.02848 -79.86328
1909.12500 -0.03169 -80.04688
1913.46875 -0.02834 -80.19531
1917.81250 -0.02999 -80.39453
1922.15625 -0.02333 -80.58984
1926.50000 -0.02733 -80.76953
1930.84375 -0.02820 -80.94922
1935.18750 -0.02467 -81.13672
1939.53125 -0.02765 -81.30078
1943.87500 -0.02536 -81.49609
1948.21875 -0.02687 -81.66797
1952.56250 -0.02536 -81.84375
1956.90625 -0.02563 -82.00781
1961.25000 -0.02604 -82.19141
1965.59375 -0.02476 -82.37891
1969.93750 -0.02696 -82.55469
1974.28125 -0.02820 -82.72656
1978.62500 -0.03128 -82.91797
1982.96875 -0.02701 -83.10547
1987.31250 -0.02379 -83.26562
1991.65625 -0.02738 -83.46875
1996.00000 -0.02706 -83.65625
2000.34375 -0.03022 -83.82812
2004.68750 -0.02444 -84.00000
2009.03125 -0.02600 -84.18750
2013.37500 -0.02494 -84.37891
2017.71875 -0.02687 -84.53125
2022.06250 -0.02728 -84.70703
2026.40625 -0.02889 -84.90234
2030.75000 -0.02728 -85.10156
2035.09375 -0.02751 -85.28906
2039.43750 -0.02793 -85.44922
2043.78125 -0.02549 -85.60547
2048.12500 -0.02669 -85.80078
2052.46875 -0.02366 -86.01562
2056.81250 -0.02871 -86.19531
2061.15625 -0.02673 -86.37500
2065.50000 -0.02664 -86.56641
2069.84375 -0.02825 -86.71875
2074.18750 -0.02733 -86.89062
2078.53125 -0.02871 -87.09766
2082.87500 -0.02549 -87.23438
2087.21875 -0.02586 -87.43359
2091.56250 -0.02779 -87.60938
2095.90625 -0.02871 -87.80859
2100.25000 -0.02329 -87.97656
2104.59375 -0.02669 -88.17578
2108.93750 -0.02944 -88.37109
2113.28125 -0.02963 -88.54688
2117.62500 -0.02788 -88.71875
2121.96875 -0.02600 -88.88281
2126.31250 -0.02549 -89.08203
2130.65625 -0.03068 -89.27734
2135.00000 -0.02967 -89.46875
2139.34375 -0.03252 -89.62500
2143.68750 -0.02811 -89.81250
2148.03125 -0.02471 -90.00000
2152.37500 -0.02788 -90.16016
2156.71875 -0.02908 -90.34375
2161.06250 -0.02944 -90.51172
2165.40625 -0.02990 -90.71875
2169.75000 -0.03036 -90.88281
2174.09375 -0.03041 -91.05859
2178.43750 -0.03105 -91.28125
2182.78125 -0.03211 -91.43750
2187.12500 -0.03344 -91.62500
2191.46875 -0.03059 -91.78906
2195.81250 -0.03073 -91.97266
2200.15625 -0.03179 -92.17188
2204.50000 -0.03266 -92.37891
2208.84375 -0.02912 -92.51172
2213.18750 -0.02889 -92.70312
2217.53125 -0.02439 -92.87891
2221.87500 -0.03321 -93.07812
2226.21875 -0.03068 -93.25391
2230.56250 -0.03339 -93.42969
2234.90625 -0.03027 -93.64844
2239.25000 -0.03238 -93.75781
2243.59375 -0.03312 -94.00000
2247.93750 -0.03045 -94.14844
2252.28125 -0.03454 -94.35156
2256.62500 -0.02981 -94.48438
2260.96875 -0.03151 -94.69531
2265.31250 -0.02926 -94.87109
2269.65625 -0.03666 -95.03906
2274.00000 -0.03312 -95.22266
2278.34375 -0.03316 -95.39062
2282.68750 -0.02811 -95.57031
2287.03125 -0.03160 -95.76562
2291.37500 -0.03128 -95.94141
2295.71875 -0.02967 -96.10938
2300.06250 -0.03712 -96.30469
2304.40625 -0.03193 -96.48438
2308.75000 -0.03229 -96.70703
2313.09375 -0.03229 -96.84375
2317.43750 -0.03248 -97.03516
2321.78125 -0.03372 -97.18359
2326.12500 -0.03372 -97.39062
2330.46875 -0.03294 -97.57812
2334.81250 -0.03275 -97.75781
2339.15625 -0.03454 -97.94531
2343.50000 -0.03289 -98.12109
2347.84375 -0.03610 -98.29688
2352.18750 -0.03151 -98.47656
2356.53125 -0.03698 -98.63672
2360.87500 -0.03500 -98.80469
2365.21875 -0.03427 -99.03906
2369.56250 -0.03725 -99.17188
2373.90625 -0.03372 -99.36719
2378.25000 -0.03721 -99.53906
2382.59375 -0.03349 -99.71484
2386.93750 -0.03546 -99.90625
2391.28125 -0.03624 -100.08984
2395.62500 -0.03542 -100.28125
2399.96875 -0.03418 -100.44141
2404.31250 -0.03670 -100.61328
2408.65625 -0.03578 -100.81250
2413.00000 -0.03689 -100.98047
2417.34375 -0.03546 -101.17578
2421.68750 -0.03799 -101.34375
2426.03125 -0.04001 -101.52344
2430.37500 -0.03987 -101.70312
2434.71875 -0.03445 -101.87500
2439.06250 -0.03036 -102.07031
2443.40625 -0.03895 -102.24219
2447.75000 -0.03151 -102.43359
2452.09375 -0.03684 -102.59766
2456.43750 -0.03849 -102.77344
2460.78125 -0.03881 -102.95312
2465.12500 -0.04005 -103.13672
2469.46875 -0.03450 -103.32031
2473.81250 -0.03404 -103.51562
2478.15625 -0.03578 -103.67969
2482.50000 -0.03427 -103.86719
2486.84375 -0.03418 -104.05859
2491.18750 -0.03073 -104.25000
2495.53125 -0.03546 -104.40234
2499.87500 -0.03243 -104.56250
2504.21875 -0.03542 -104.79688
2508.56250 -0.03670 -104.94922
2512.90625 -0.03473 -105.12500
2517.25000 -0.03831 -105.32812
2521.59375 -0.03367 -105.50781
2525.93750 -0.03468 -105.66016
2530.28125 -0.03941 -105.85547
2534.62500 -0.03707 -106.00391
2538.96875 -0.03624 -106.23438
2543.31250 -0.03532 -106.39453
2547.65625 -0.03326 -106.54688
2552.00000 -0.03950 -106.76562
2556.34375 -0.04139 -106.92969
2560.68750 -0.03927 -107.09766
2565.03125 -0.03941 -107.28516
2569.37500 -0.03950 -107.50000
2573.71875 -0.04171 -107.66406
2578.06250 -0.03950 -107.83984
2582.40625 -0.04162 -108.01953
2586.75000 -0.03468 -108.17188
2591.09375 -0.03946 -108.37891
2595.43750 -0.03877 -108.55859
2599.78125 -0.04070 -108.74219
2604.12500 -0.04005 -108.90625
2608.46875 -0.03854 -109.11719
2612.81250 -0.03716 -109.29297
2617.15625 -0.03835 -109.48047
2621.50000 -0.03803 -109.59375
2625.84375 -0.04378 -109.80078
2630.18750 -0.04327 -110.01562
2634.53125 -0.04010 -110.19531
2638.87500 -0.03661 -110.35938
2643.21875 -0.04327 -110.56250
2647.56250 -0.04010 -110.69922
2651.90625 -0.04061 -110.88672
2656.25000 -0.04281 -111.06641
2660.59375 -0.04230 -111.23047
2664.93750 -0.04708 -111.40234
2669.28125 -0.04327 -111.61719
2673.62500 -0.04295 -111.81250
2677.96875 -0.04208 -111.98047
2682.31250 -0.04355 -112.14453
2686.65625 -0.03927 -112.35156
2691.00000 -0.04203 -112.51562
2695.34375 -0.04116 -112.66016
2699.68750 -0.04373 -112.86719
2704.03125 -0.04051 -113.03125
2708.37500 -0.04226 -113.19141
2712.71875 -0.04276 -113.40234
2717.06250 -0.04543 -113.57031
2721.40625 -0.04221 -113.78906
2725.75000 -0.04796 -113.94141
2730.09375 -0.04529 -114.09766
2734.43750 -0.05039 -114.29688
2738.78125 -0.04869 -114.45703
2743.12500 -0.04502 -114.64453
2747.46875 -0.04777 -114.81250
2751.81250 -0.04506 -114.99219
2756.15625 -0.04332 -115.18359
2760.50000 -0.04690 -115.39062
2764.84375 -0.04800 -115.52344
2769.18750 -0.04424 -115.69141
2773.53125 -0.04552 -115.89844
2777.87500 -0.04653 -116.11328
2782.21875 -0.04649 -116.27344
2786.56250 -0.04727 -116.42969
2790.90625 -0.05085 -116.63672
2795.25000 -0.04796 -116.78906
2799.59375 -0.04635 -116.98828
