! This is a Touchstone .s1p format file
! It should be saved with .s1p extension 
! HEWLETT PACKARD,8720D,0,7.74  
! Date = 21 Mar 2018
! Time = 01:14:02
! S11 measured = FALSE
! S21 measured = FALSE
! S12 measured = FALSE
! S22 measured = TRUE
! Start frequency = 0.050000000 GHz
! Centre frequency  = 3.524999936 GHz
! Stop frequency  = 7.000000000 GHz
! IF bandwidth = 300 Hz
! Smoothing = OFF
! Smoothing aperture = 1.000000 %
! Averaging = OFF
! Averaging factor = 16
! Source power = On
! Source power = Auto mode
! Output power level = 5.000000 dBm
! Retrace power = Off
! Testset switching = Continuous
! Number of sweeps for test set switching (0=hold, 1=continuous,2-999 = number of sweeps) = 1
! Step sweep = On (check)
! List frequency sweep = Off (check)
! IFBW setting for a list-frequency table in swept list mode = Disabled (Check)
! Power setting for a list-frequency table in swept list mode = Disabled (Check)
! Measurement mode = Chop A and B
! Port extensions = OFF
! Port extension 1 = 0.000000 ps
! Port extension 2 = 57.970000 ps
! Points  = 1601
! Calibration kit = 3.5 mm D
! Power = 5.000000 dBm
! Frequency magS22 angS22
! Magnitudes are in log form
! Angles are in degrees
# MHz S DB R 50
50.00000 -0.01911 177.99219
54.34375 -0.01576 177.59375
58.68750 -0.01906 177.45312
63.03125 -0.02329 177.18750
67.37500 -0.02807 177.07812
71.71875 -0.02958 176.86719
76.06250 -0.02223 176.66406
80.40625 -0.02742 176.50000
84.75000 -0.01805 176.29688
89.09375 -0.02366 176.14062
93.43750 -0.02848 175.96875
97.78125 -0.01093 175.77344
102.12500 -0.02696 175.67969
106.46875 -0.04378 175.42969
110.81250 -0.03275 175.23438
115.15625 -0.03799 175.09375
119.50000 -0.04093 174.87500
123.84375 -0.03477 174.70312
128.18750 -0.02954 174.48438
132.53125 -0.03225 174.41406
136.87500 -0.03294 174.07812
141.21875 -0.04543 174.02344
145.56250 -0.04212 173.81250
149.90625 -0.03574 173.59375
154.25000 -0.04212 173.43750
158.59375 -0.04566 173.21094
162.93750 -0.04309 173.10156
167.28125 -0.04235 172.94531
171.62500 -0.04534 172.78906
175.96875 -0.04400 172.53125
180.31250 -0.03955 172.38281
184.65625 -0.04534 172.19531
189.00000 -0.04713 172.00000
193.34375 -0.03886 171.78906
197.68750 -0.04557 171.63281
202.03125 -0.04300 171.53906
206.37500 -0.04497 171.29688
210.71875 -0.04988 171.09375
215.06250 -0.04773 170.96875
219.40625 -0.04988 170.72656
223.75000 -0.04855 170.59375
228.09375 -0.04846 170.39062
232.43750 -0.05103 170.25000
236.78125 -0.04841 170.07031
241.12500 -0.04897 169.86719
245.46875 -0.04933 169.71094
249.81250 -0.04860 169.51562
254.15625 -0.05351 169.28906
258.50000 -0.05287 169.17188
262.84375 -0.05209 169.00000
267.18750 -0.04929 168.77344
271.53125 -0.04961 168.57812
275.87500 -0.05016 168.42188
280.21875 -0.04947 168.25000
284.56250 -0.05076 168.08594
288.90625 -0.05402 167.85938
293.25000 -0.03537 167.75000
297.59375 -0.05838 167.57812
301.93750 -0.06013 167.39844
306.28125 -0.05099 167.17969
310.62500 -0.06164 167.01562
314.96875 -0.05319 166.82812
319.31250 -0.05305 166.64062
323.65625 -0.05406 166.50000
328.00000 -0.05549 166.27344
332.34375 -0.05507 166.15625
336.68750 -0.06105 165.90625
341.03125 -0.05324 165.75000
345.37500 -0.05861 165.54688
349.71875 -0.06233 165.39844
354.06250 -0.05443 165.24219
358.40625 -0.05416 165.04688
362.75000 -0.05834 164.87500
367.09375 -0.05402 164.69531
371.43750 -0.05420 164.52344
375.78125 -0.06054 164.33594
380.12500 -0.05930 164.12500
384.46875 -0.05760 163.94531
388.81250 -0.06293 163.78906
393.15625 -0.05962 163.59375
397.50000 -0.05994 163.40625
401.84375 -0.05834 163.25000
406.18750 -0.05916 163.04688
410.53125 -0.06454 162.91406
414.87500 -0.06201 162.75781
419.21875 -0.06238 162.54688
423.56250 -0.05962 162.36719
427.90625 -0.05912 162.17969
432.25000 -0.05985 162.01562
436.59375 -0.06628 161.82812
440.93750 -0.06164 161.62500
445.28125 -0.06348 161.45312
449.62500 -0.06210 161.26562
453.96875 -0.06252 161.09375
458.31250 -0.06431 160.96094
462.65625 -0.06256 160.76562
467.00000 -0.06477 160.54688
471.34375 -0.06210 160.40625
475.68750 -0.06775 160.21094
480.03125 -0.06325 160.00781
484.37500 -0.05921 159.89062
488.71875 -0.06426 159.67969
493.06250 -0.05691 159.49219
497.40625 -0.06247 159.34375
501.75000 -0.06592 159.16406
506.09375 -0.06495 158.99219
510.43750 -0.06440 158.79688
514.78125 -0.06435 158.60938
519.12500 -0.06376 158.42188
523.46875 -0.06348 158.28125
527.81250 -0.06495 158.06250
532.15625 -0.06624 157.89844
536.50000 -0.06564 157.70312
540.84375 -0.06550 157.53125
545.18750 -0.06500 157.32812
549.53125 -0.06863 157.17188
553.87500 -0.06362 156.97656
558.21875 -0.06541 156.85938
562.56250 -0.06403 156.65625
566.90625 -0.06578 156.48438
571.25000 -0.06707 156.28125
575.59375 -0.07023 156.10938
579.93750 -0.06725 155.95312
584.28125 -0.06982 155.77344
588.62500 -0.06908 155.57812
592.96875 -0.06849 155.38281
597.31250 -0.06578 155.20312
601.65625 -0.07079 155.05469
606.00000 -0.06977 154.87500
610.34375 -0.06908 154.67188
614.68750 -0.06647 154.52344
619.03125 -0.06982 154.32812
623.37500 -0.07161 154.15625
627.71875 -0.06932 153.97656
632.06250 -0.07120 153.78906
636.40625 -0.07014 153.62500
640.75000 -0.06872 153.41406
645.09375 -0.06867 153.25000
649.43750 -0.06904 153.09375
653.78125 -0.06936 152.92969
658.12500 -0.06923 152.71094
662.46875 -0.06789 152.52344
666.81250 -0.07294 152.35938
671.15625 -0.06817 152.17188
675.50000 -0.07368 152.00781
679.84375 -0.07368 151.82031
684.18750 -0.07115 151.64062
688.53125 -0.07253 151.45312
692.87500 -0.07180 151.29688
697.21875 -0.07088 151.08594
701.56250 -0.07138 150.91406
705.90625 -0.07083 150.77344
710.25000 -0.07184 150.56250
714.59375 -0.07450 150.39844
718.93750 -0.07225 150.22656
723.28125 -0.07391 150.07031
727.62500 -0.07129 149.89062
731.96875 -0.07464 149.67969
736.31250 -0.07065 149.50781
740.65625 -0.07170 149.32812
745.00000 -0.07106 149.14062
749.34375 -0.06619 149.03125
753.68750 -0.08383 148.75000
758.03125 -0.07492 148.60156
762.37500 -0.07428 148.43750
766.71875 -0.07455 148.24219
771.06250 -0.07891 148.09375
775.40625 -0.07405 147.87500
779.75000 -0.07611 147.73438
784.09375 -0.07740 147.53906
788.43750 -0.07570 147.35938
792.78125 -0.07717 147.18750
797.12500 -0.07382 147.01562
801.46875 -0.07574 146.84375
805.81250 -0.07510 146.63281
810.15625 -0.07846 146.47656
814.50000 -0.07584 146.29688
818.84375 -0.08098 146.13281
823.18750 -0.07731 145.93750
827.53125 -0.07377 145.75000
831.87500 -0.07630 145.57031
836.21875 -0.07795 145.42969
840.56250 -0.07864 145.23438
844.90625 -0.07432 145.03906
849.25000 -0.07758 144.87500
853.59375 -0.07717 144.70312
857.93750 -0.07432 144.53125
862.28125 -0.07855 144.32812
866.62500 -0.07662 144.17188
870.96875 -0.07703 143.96875
875.31250 -0.07910 143.79688
879.65625 -0.08011 143.62500
884.00000 -0.07795 143.45312
888.34375 -0.07827 143.26562
892.68750 -0.07814 143.09375
897.03125 -0.07878 142.92188
901.37500 -0.07703 142.71094
905.71875 -0.07878 142.53906
910.06250 -0.07589 142.36719
914.40625 -0.07754 142.17969
918.75000 -0.07767 142.00781
923.09375 -0.07846 141.84375
927.43750 -0.08043 141.64844
931.78125 -0.08043 141.49219
936.12500 -0.08154 141.29688
940.46875 -0.07993 141.12500
944.81250 -0.07919 140.96094
949.15625 -0.07767 140.76562
953.50000 -0.08355 140.58594
957.84375 -0.07938 140.39062
962.18750 -0.07914 140.23438
966.53125 -0.08259 140.05469
970.87500 -0.08071 139.85156
975.21875 -0.07735 139.69531
979.56250 -0.08480 139.52344
983.90625 -0.08245 139.32812
988.25000 -0.08130 139.16406
992.59375 -0.08346 139.00000
996.93750 -0.07735 138.78125
1001.28125 -0.08048 138.61719
1005.62500 -0.08121 138.46094
1009.96875 -0.07993 138.26562
1014.31250 -0.07979 138.10156
1018.65625 -0.08365 137.89844
1023.00000 -0.07510 137.72656
1027.34375 -0.08204 137.54688
1031.68750 -0.08388 137.38281
1036.03125 -0.08278 137.18750
1040.37500 -0.07767 137.01562
1044.71875 -0.08167 136.82812
1049.06250 -0.08236 136.67188
1053.40625 -0.08121 136.50781
1057.75000 -0.08264 136.32031
1062.09375 -0.08287 136.13281
1066.43750 -0.08645 135.92969
1070.78125 -0.08420 135.75000
1075.12500 -0.08337 135.59375
1079.46875 -0.08172 135.40625
1083.81250 -0.08075 135.20312
1088.15625 -0.08080 135.05469
1092.50000 -0.08231 134.88281
1096.84375 -0.08369 134.67969
1101.18750 -0.08066 134.50781
1105.53125 -0.08287 134.32031
1109.87500 -0.07965 134.14062
1114.21875 -0.08250 133.98438
1118.56250 -0.07832 133.78906
1122.90625 -0.07749 133.60938
1127.25000 -0.08020 133.42969
1131.59375 -0.08337 133.25000
1135.93750 -0.08208 133.05469
1140.28125 -0.08204 132.90625
1144.62500 -0.08158 132.72656
1148.96875 -0.08567 132.56250
1153.31250 -0.08204 132.35938
1157.65625 -0.08475 132.18750
1162.00000 -0.08130 132.00781
1166.34375 -0.08296 131.83594
1170.68750 -0.08337 131.64844
1175.03125 -0.08466 131.43750
1179.37500 -0.08255 131.27344
1183.71875 -0.08604 131.09375
1188.06250 -0.08337 130.91406
1192.40625 -0.08287 130.73438
1196.75000 -0.07974 130.59375
1201.09375 -0.07579 130.42188
1205.43750 -0.07193 130.25781
1209.78125 -0.08360 130.04688
1214.12500 -0.09830 129.83594
1218.46875 -0.08649 129.67188
1222.81250 -0.08241 129.51562
1227.15625 -0.08521 129.32031
1231.50000 -0.08668 129.12500
1235.84375 -0.08332 128.96094
1240.18750 -0.08176 128.76562
1244.53125 -0.08493 128.59375
1248.87500 -0.08672 128.42969
1253.21875 -0.08374 128.26562
1257.56250 -0.08567 128.07812
1261.90625 -0.08360 127.92578
1266.25000 -0.08337 127.71094
1270.59375 -0.08604 127.55469
1274.93750 -0.08741 127.34375
1279.28125 -0.08397 127.15625
1283.62500 -0.08558 127.01562
1287.96875 -0.08411 126.83984
1292.31250 -0.08291 126.61328
1296.65625 -0.08709 126.47266
1301.00000 -0.08709 126.28906
1305.34375 -0.08498 126.08594
1309.68750 -0.08397 125.92578
1314.03125 -0.08677 125.76562
1318.37500 -0.08627 125.55859
1322.71875 -0.08760 125.40625
1327.06250 -0.08342 125.22266
1331.40625 -0.08539 125.03125
1335.75000 -0.08737 124.84375
1340.09375 -0.08346 124.67188
1344.43750 -0.08558 124.49609
1348.78125 -0.08562 124.32031
1353.12500 -0.08084 124.14453
1357.46875 -0.08434 123.96484
1361.81250 -0.08553 123.81641
1366.15625 -0.08126 123.62500
1370.50000 -0.08948 123.40625
1374.84375 -0.08783 123.25000
1379.18750 -0.08094 123.08594
1383.53125 -0.08847 122.91406
1387.87500 -0.08346 122.73047
1392.21875 -0.08250 122.51953
1396.56250 -0.08447 122.35547
1400.90625 -0.08268 122.15625
1405.25000 -0.08420 121.98828
1409.59375 -0.07983 121.82031
1413.93750 -0.08480 121.63281
1418.28125 -0.08204 121.46094
1422.62500 -0.08222 121.29688
1426.96875 -0.08043 121.08984
1431.31250 -0.08760 120.90625
1435.65625 -0.08755 120.74219
1440.00000 -0.08241 120.55078
1444.34375 -0.08351 120.39844
1448.68750 -0.08245 120.21484
1453.03125 -0.08438 120.01172
1457.37500 -0.08659 119.87109
1461.71875 -0.08728 119.67969
1466.06250 -0.08649 119.47266
1470.40625 -0.08305 119.32812
1474.75000 -0.08314 119.14453
1479.09375 -0.08475 118.93750
1483.43750 -0.08622 118.77344
1487.78125 -0.08355 118.60547
1492.12500 -0.08663 118.42969
1496.46875 -0.08484 118.25000
1500.81250 -0.08360 118.05859
1505.15625 -0.08456 117.89453
1509.50000 -0.08245 117.70703
1513.84375 -0.08585 117.52344
1518.18750 -0.08314 117.34766
1522.53125 -0.08117 117.17969
1526.87500 -0.08741 116.97266
1531.21875 -0.08328 116.78516
1535.56250 -0.08443 116.59375
1539.90625 -0.08107 116.44922
1544.25000 -0.08429 116.23828
1548.59375 -0.07887 116.09766
1552.93750 -0.08135 115.92578
1557.28125 -0.08558 115.73828
1561.62500 -0.08282 115.54297
1565.96875 -0.08057 115.35547
1570.31250 -0.08392 115.18359
1574.65625 -0.08337 115.01172
1579.00000 -0.08429 114.83594
1583.34375 -0.08452 114.63281
1587.68750 -0.08512 114.47656
1592.03125 -0.08117 114.28516
1596.37500 -0.08218 114.10547
1600.71875 -0.08006 113.94531
1605.06250 -0.08199 113.78516
1609.40625 -0.08135 113.57812
1613.75000 -0.08558 113.39062
1618.09375 -0.08264 113.21094
1622.43750 -0.08130 113.04297
1626.78125 -0.08916 112.85938
1631.12500 -0.08360 112.66016
1635.46875 -0.08608 112.51172
1639.81250 -0.08617 112.34375
1644.15625 -0.08282 112.13672
1648.50000 -0.08493 111.95312
1652.84375 -0.07997 111.78516
1657.18750 -0.08649 111.62109
1661.53125 -0.08539 111.42969
1665.87500 -0.08259 111.26172
1670.21875 -0.08842 111.06250
1674.56250 -0.08397 110.89453
1678.90625 -0.08103 110.68750
1683.25000 -0.08590 110.52344
1687.59375 -0.08144 110.33594
1691.93750 -0.08599 110.13281
1696.28125 -0.08204 110.00781
1700.62500 -0.08443 109.83203
1704.96875 -0.08613 109.65625
1709.31250 -0.08117 109.44922
1713.65625 -0.08319 109.27344
1718.00000 -0.08034 109.08984
1722.34375 -0.08287 108.93750
1726.68750 -0.08208 108.72656
1731.03125 -0.08599 108.56250
1735.37500 -0.08039 108.40625
1739.71875 -0.08094 108.21484
1744.06250 -0.07933 108.02734
1748.40625 -0.08020 107.83984
1752.75000 -0.08314 107.69531
1757.09375 -0.08121 107.46094
1761.43750 -0.08268 107.30469
1765.78125 -0.08075 107.14844
1770.12500 -0.08255 106.96094
1774.46875 -0.08342 106.78125
1778.81250 -0.07956 106.60547
1783.15625 -0.07993 106.42969
1787.50000 -0.08126 106.23047
1791.84375 -0.08208 106.07031
1796.18750 -0.08282 105.87500
1800.53125 -0.08020 105.71484
1804.87500 -0.08245 105.55078
1809.21875 -0.08278 105.35547
1813.56250 -0.08195 105.17578
1817.90625 -0.08071 104.97656
1822.25000 -0.08075 104.83594
1826.59375 -0.07823 104.62500
1830.93750 -0.07910 104.42969
1835.28125 -0.07938 104.28125
1839.62500 -0.08011 104.10547
1843.96875 -0.07713 103.92188
1848.31250 -0.08144 103.74609
1852.65625 -0.07790 103.57422
1857.00000 -0.08071 103.37500
1861.34375 -0.08222 103.21094
1865.68750 -0.07708 103.02734
1870.03125 -0.07859 102.82812
1874.37500 -0.08218 102.66016
1878.71875 -0.07616 102.51562
1883.06250 -0.07726 102.31641
1887.40625 -0.07956 102.14062
1891.75000 -0.08176 101.91797
1896.09375 -0.07694 101.73438
1900.43750 -0.07882 101.58984
1904.78125 -0.07869 101.39453
1909.12500 -0.07924 101.22656
1913.46875 -0.08649 101.02734
1917.81250 -0.08002 100.86719
1922.15625 -0.07818 100.69922
1926.50000 -0.08048 100.51953
1930.84375 -0.07593 100.33203
1935.18750 -0.07896 100.14062
1939.53125 -0.07832 99.95312
1943.87500 -0.07662 99.76953
1948.21875 -0.07726 99.60938
1952.56250 -0.07869 99.43359
1956.90625 -0.08034 99.25000
1961.25000 -0.07938 99.07031
1965.59375 -0.07823 98.89062
1969.93750 -0.07574 98.73047
1974.28125 -0.07993 98.53906
1978.62500 -0.07951 98.35156
1982.96875 -0.08048 98.16016
1987.31250 -0.08163 97.99609
1991.65625 -0.07951 97.79688
1996.00000 -0.07634 97.63672
2000.34375 -0.07970 97.45703
2004.68750 -0.07795 97.26953
2009.03125 -0.07611 97.11328
2013.37500 -0.07708 96.91797
2017.71875 -0.07814 96.72266
2022.06250 -0.07983 96.53906
2026.40625 -0.07846 96.38281
2030.75000 -0.07676 96.16016
2035.09375 -0.07878 96.00391
2039.43750 -0.07648 95.84375
2043.78125 -0.07970 95.63281
2048.12500 -0.08291 95.48438
2052.46875 -0.07855 95.26172
2056.81250 -0.07653 95.09766
2061.15625 -0.07547 94.93359
2065.50000 -0.08002 94.75000
2069.84375 -0.07616 94.56250
2074.18750 -0.07818 94.39453
2078.53125 -0.08259 94.21875
2082.87500 -0.07676 94.06250
2087.21875 -0.07653 93.88281
2091.56250 -0.08181 93.67969
2095.90625 -0.08094 93.48828
2100.25000 -0.07997 93.32422
2104.59375 -0.08043 93.14453
2108.93750 -0.08057 92.96484
2113.28125 -0.07993 92.76953
2117.62500 -0.07974 92.60547
2121.96875 -0.07993 92.41406
2126.31250 -0.07745 92.25391
2130.65625 -0.07772 92.06641
2135.00000 -0.07653 91.88281
2139.34375 -0.07928 91.70312
2143.68750 -0.08167 91.51953
2148.03125 -0.08392 91.34766
2152.37500 -0.07942 91.17969
2156.71875 -0.08075 90.99219
2161.06250 -0.07846 90.83203
2165.40625 -0.07694 90.65234
2169.75000 -0.08043 90.45312
2174.09375 -0.08062 90.25781
2178.43750 -0.07855 90.12109
2182.78125 -0.07749 89.94141
2187.12500 -0.07662 89.75391
2191.46875 -0.08126 89.56641
2195.81250 -0.08043 89.35547
2200.15625 -0.07800 89.20703
2204.50000 -0.07593 89.00781
2208.84375 -0.08030 88.85156
2213.18750 -0.07832 88.65234
2217.53125 -0.07933 88.49219
2221.87500 -0.07993 88.31641
2226.21875 -0.07689 88.13281
2230.56250 -0.07974 87.95703
2234.90625 -0.07749 87.74609
2239.25000 -0.07763 87.59766
2243.59375 -0.07837 87.38672
2247.93750 -0.07703 87.19531
2252.28125 -0.08015 87.04688
2256.62500 -0.07648 86.85547
2260.96875 -0.08264 86.69922
2265.31250 -0.07349 86.51562
2269.65625 -0.07685 86.35938
2274.00000 -0.07786 86.14062
2278.34375 -0.07492 85.93359
2282.68750 -0.07478 85.77734
2287.03125 -0.07731 85.59766
2291.37500 -0.07905 85.42578
2295.71875 -0.08025 85.21875
2300.06250 -0.07974 85.03906
2304.40625 -0.08062 84.85938
2308.75000 -0.07814 84.71875
2313.09375 -0.07763 84.51562
2317.43750 -0.07804 84.32422
2321.78125 -0.07487 84.13672
2326.12500 -0.07790 83.98828
2330.46875 -0.07524 83.78906
2334.81250 -0.07644 83.62109
2339.15625 -0.07896 83.44141
2343.50000 -0.07713 83.25781
2347.84375 -0.07790 83.05078
2352.18750 -0.07520 82.90625
2356.53125 -0.07625 82.70703
2360.87500 -0.07914 82.49609
2365.21875 -0.07524 82.37109
2369.56250 -0.07584 82.16406
2373.90625 -0.07763 81.96484
2378.25000 -0.07565 81.80078
2382.59375 -0.07699 81.61719
2386.93750 -0.07432 81.42578
2391.28125 -0.07837 81.26172
2395.62500 -0.07914 81.07422
2399.96875 -0.07864 80.91797
2404.31250 -0.07644 80.71094
2408.65625 -0.07510 80.53906
2413.00000 -0.07520 80.37109
2417.34375 -0.07800 80.22656
2421.68750 -0.08006 80.01562
2426.03125 -0.07864 79.80469
2430.37500 -0.07529 79.64062
2434.71875 -0.07800 79.46484
2439.06250 -0.07662 79.30469
2443.40625 -0.07818 79.09375
2447.75000 -0.07708 78.90625
2452.09375 -0.07735 78.73438
2456.43750 -0.07901 78.57422
2460.78125 -0.07804 78.36719
2465.12500 -0.08080 78.21094
2469.46875 -0.07630 78.00000
2473.81250 -0.07864 77.85156
2478.15625 -0.07795 77.66406
2482.50000 -0.07869 77.46094
2486.84375 -0.07584 77.30469
2491.18750 -0.07657 77.11719
2495.53125 -0.07814 76.94141
2499.87500 -0.07685 76.74219
2504.21875 -0.07850 76.54297
2508.56250 -0.07703 76.36719
2512.90625 -0.08314 76.19141
2517.25000 -0.07841 76.03516
2521.59375 -0.07735 75.83203
2525.93750 -0.07878 75.66406
2530.28125 -0.07593 75.48047
2534.62500 -0.07869 75.30859
2538.96875 -0.07584 75.11328
2543.31250 -0.07772 74.94531
2547.65625 -0.07790 74.78906
2552.00000 -0.07703 74.58984
2556.34375 -0.07570 74.41016
2560.68750 -0.08103 74.21484
2565.03125 -0.07414 74.03125
2569.37500 -0.07616 73.86719
2573.71875 -0.07542 73.64844
2578.06250 -0.07639 73.50000
2582.40625 -0.07386 73.31641
2586.75000 -0.07409 73.15234
2591.09375 -0.07272 72.99219
2595.43750 -0.07561 72.78906
2599.78125 -0.07409 72.61719
2604.12500 -0.07832 72.43359
2608.46875 -0.07717 72.23438
2612.81250 -0.07428 72.03906
2617.15625 -0.07542 71.89062
2621.50000 -0.07726 71.67969
2625.84375 -0.07556 71.55859
2630.18750 -0.07552 71.31250
2634.53125 -0.07437 71.15625
2638.87500 -0.07313 71.00391
2643.21875 -0.07717 70.80078
2647.56250 -0.07405 70.61328
2651.90625 -0.07694 70.43359
2656.25000 -0.07501 70.25000
2660.59375 -0.07745 70.08984
2664.93750 -0.07497 69.89844
2669.28125 -0.07239 69.71094
2673.62500 -0.07547 69.52344
2677.96875 -0.07584 69.34766
2682.31250 -0.07170 69.16797
2686.65625 -0.07593 68.96484
2691.00000 -0.07272 68.82031
2695.34375 -0.07460 68.61719
2699.68750 -0.06886 68.43750
2704.03125 -0.07731 68.26953
2708.37500 -0.07216 68.05859
2712.71875 -0.07184 67.88281
2717.06250 -0.07497 67.71875
2721.40625 -0.07028 67.51172
2725.75000 -0.07510 67.35156
2730.09375 -0.06987 67.14453
2734.43750 -0.06936 66.98828
2738.78125 -0.07290 66.79688
2743.12500 -0.07111 66.63281
2747.46875 -0.07464 66.44922
2751.81250 -0.07170 66.26172
2756.15625 -0.07129 66.06641
2760.50000 -0.06638 65.87500
2764.84375 -0.07304 65.72266
2769.18750 -0.07074 65.54297
2773.53125 -0.06863 65.35156
2777.87500 -0.07267 65.16406
2782.21875 -0.06904 64.97656
2786.56250 -0.07354 64.81250
2790.90625 -0.07143 64.62500
2795.25000 -0.06734 64.45312
2799.59375 -0.07166 64.25781
2803.93750 -0.07037 64.06250
2808.28125 -0.07276 63.90430
2812.62500 -0.07005 63.71484
2816.96875 -0.07400 63.54492
2821.31250 -0.07133 63.32227
2825.65625 -0.07175 63.15625
