!
! C:\data\cal kit\Siglent Cal Kit\Kirkby Male Load.S2P
!
! Touchstone 1.1 file saved by VNA.EXE V1.60 (www.ke5fx.com/gpib/readme.htm)
! 26/07/2019 10:53:17 a.m.
!
!    Source: HEWLETT PACKARD,8753C,0,4.12
!  Min freq: 3.000000E+006 Hz
!  Max freq: 6.000000E+009 Hz
!    Points: 201
!    Params: S11 S21 S12 S22
!
!!!!!
# GHZ S DB R 50
0.0030000000000000 -37.421263 -163.603925 -83.902030 170.636115 -37.373575 -164.267609 -89.133210 8.182794 
0.0329850000000000 -38.665293 152.018207 -80.801476 -159.337933 -38.630400 152.148106 -78.857101 81.321560 
0.0629700000000000 -40.565264 140.513439 -83.375244 -8.696858 -40.503550 139.825780 -81.606124 -142.808586 
0.0929550000000000 -42.025794 132.606340 -96.478212 -94.563639 -42.007434 133.633089 -87.976052 61.410448 
0.1229400000000000 -42.933190 127.635835 -80.332504 -92.160578 -42.936450 127.739572 -86.836534 -122.442066 
0.1529250000000000 -43.667949 123.136385 -95.331175 -101.260414 -43.687598 123.892804 -87.975843 121.379130 
0.1829100000000000 -43.665138 121.321731 -77.253373 142.112880 -43.588154 121.492800 -76.663250 129.030745 
0.2128950000000000 -44.006466 115.572796 -85.478553 98.544152 -44.017663 116.131368 -86.823869 148.045241 
0.2428800000000000 -44.366755 110.867424 -88.488668 -164.038242 -44.429520 111.199032 -85.545017 -56.741482 
0.2728650000000000 -44.988137 106.093008 -86.679898 122.601705 -44.739625 106.021820 -89.107618 84.736361 
0.3028500000000000 -45.201634 101.443049 -83.292183 170.145011 -45.186790 101.438434 -83.388017 79.884082 
0.3328350000000000 -45.343676 96.074222 -78.290167 -12.532230 -45.223757 96.537278 -79.582457 103.769825 
0.3628200000000000 -45.363367 92.848238 -78.027011 -97.353684 -45.488824 93.237134 -94.186853 -15.808024 
0.3928050000000000 -45.379333 86.836493 -75.150222 168.457277 -45.594158 87.827488 -88.317912 -37.891556 
0.4227900000000000 -45.460031 81.330177 -81.988515 114.137688 -45.500505 82.596659 -106.507318 -53.773771 
0.4527750000000000 -45.593728 76.530265 -80.185209 -51.750190 -45.632151 77.215308 -97.891028 133.746431 
0.4827600000000000 -45.544980 71.769530 -89.971300 6.763293 -45.446569 71.176058 -88.349056 -138.941793 
0.5127450000000000 -45.575113 64.780365 -85.510230 21.676203 -45.549341 64.948872 -83.405142 37.261294 
0.5427300000000001 -45.424023 59.841607 -83.187141 36.272554 -45.301190 60.261671 -84.873066 174.143317 
0.5727150000000000 -45.270885 53.277962 -83.570771 49.983149 -45.273887 53.802497 -81.646935 -90.799844 
0.6027000000000000 -45.126805 48.180793 -87.643896 100.940046 -45.276891 48.172359 -95.223744 -24.388921 
0.6326850000000001 -45.164904 41.394840 -84.729809 152.331601 -44.923559 42.244050 -77.563799 -44.447026 
0.6626700000000000 -44.921890 36.654669 -82.080522 18.705107 -44.965735 36.418387 -85.522391 98.899699 
0.6926550000000000 -44.731867 30.092825 -81.546567 34.424325 -44.737114 30.681225 -91.043590 88.991445 
0.7226400000000000 -44.743615 25.823523 -78.023474 154.257603 -44.603893 23.997370 -82.748604 2.768942 
0.7526250000000000 -44.300537 17.847392 -83.712274 -150.744663 -44.348703 19.585299 -78.409990 145.583293 
0.7826100000000000 -44.082558 12.912868 -92.326081 92.036198 -44.144842 13.161102 -79.823348 -178.525356 
0.8125950000000000 -44.013733 7.270797 -87.916035 -78.747862 -43.974230 7.413916 -81.056446 -7.369885 
0.8425800000000000 -43.778981 2.216717 -97.689472 -6.111440 -43.796637 2.470997 -85.921498 146.964282 
0.8725650000000000 -43.404908 -3.536106 -82.169184 115.723207 -43.433903 -3.143600 -75.105647 151.957950 
0.9025500000000000 -43.157511 -8.479953 -85.727881 -5.184900 -43.151005 -9.079501 -77.358414 157.014803 
0.9325350000000000 -42.930086 -14.190375 -79.114258 173.067205 -42.913376 -13.794372 -79.598831 8.806594 
0.9625200000000000 -42.544084 -18.514266 -76.379577 -9.209748 -42.503460 -18.422846 -93.685578 11.235055 
0.9925050000000000 -42.302583 -22.945602 -78.413303 -169.766242 -42.243939 -23.839830 -91.916657 155.559184 
1.0224899999999999 -42.062001 -29.078659 -80.808929 94.956447 -41.939305 -29.012804 -79.658718 -144.107818 
1.0524750000000000 -41.606545 -33.457131 -91.270779 -28.057206 -41.630907 -33.694178 -85.124933 -77.020536 
1.0824600000000000 -41.402891 -37.641518 -83.900538 -123.689134 -41.364627 -38.493803 -81.420196 136.982157 
1.1124449999999999 -40.978981 -43.892809 -91.150186 26.092948 -41.099194 -42.917773 -83.575448 -52.567626 
1.1424300000000001 -40.739025 -47.952427 -83.356673 -105.789626 -40.841284 -47.486688 -89.110210 -9.440288 
1.1724150000000000 -40.493854 -52.052219 -87.720036 89.003195 -40.500674 -52.538521 -79.855742 -111.448224 
1.2023999999999999 -40.175057 -56.636987 -78.535237 113.181780 -40.217137 -56.738799 -94.064721 -101.031463 
1.2323850000000001 -39.859797 -61.063419 -85.339365 -49.377515 -39.913737 -60.915446 -80.908271 -170.839994 
1.2623700000000000 -39.683164 -65.696226 -81.134866 -155.407486 -39.501672 -64.969547 -80.139791 -5.182450 
1.2923549999999999 -39.290830 -69.481670 -85.784164 4.372417 -39.311704 -68.746481 -97.630989 -59.586973 
1.3223400000000001 -39.014292 -73.283702 -80.840764 -61.657520 -39.056970 -72.940165 -82.521658 -85.655785 
1.3523250000000000 -38.810912 -77.663465 -81.476594 -12.687416 -38.839437 -76.840374 -82.331363 -85.674518 
1.3823099999999999 -38.405533 -81.310024 -81.985290 -91.437996 -38.461987 -81.225128 -81.677872 154.084579 
1.4122950000000001 -38.240617 -85.222090 -89.327969 163.915594 -38.277830 -85.597171 -76.687421 70.160849 
1.4422800000000000 -37.956012 -88.931135 -91.116847 23.444009 -38.022479 -89.236275 -85.870574 78.951332 
1.4722649999999999 -37.746160 -92.759995 -88.686286 -150.136379 -37.750863 -92.546162 -84.139090 -179.831564 
1.5022500000000001 -37.530451 -96.589485 -82.822735 -38.386691 -37.497810 -96.539919 -101.753243 64.889326 
1.5322350000000000 -37.251482 -100.714074 -84.857803 30.394454 -37.228805 -100.376778 -84.033170 -80.192672 
1.5622199999999999 -37.029150 -104.245228 -81.792170 -33.869797 -36.993404 -104.594533 -82.854631 -110.302026 
1.5922050000000001 -36.730970 -107.523504 -81.914595 -142.976842 -36.858036 -107.604550 -77.147171 -64.740971 
1.6221900000000000 -36.480896 -110.865890 -73.010421 -96.950972 -36.591191 -111.216489 -77.786901 -102.533833 
1.6521749999999999 -36.423609 -114.985620 -74.258290 -122.831777 -36.411275 -114.653065 -73.796956 -123.403719 
1.6821600000000001 -36.135065 -118.086589 -73.050790 -167.630757 -36.195570 -117.799102 -72.447272 -138.627253 
1.7121450000000000 -36.017714 -121.747023 -74.974152 150.914472 -35.981144 -121.454919 -72.091306 151.881746 
1.7421300000000000 -35.794855 -124.848174 -70.966156 112.296763 -35.744769 -124.835004 -72.846912 143.767108 
1.7721150000000001 -35.614233 -128.179273 -79.282071 96.127084 -35.555740 -128.037434 -75.290280 139.520654 
1.8021000000000000 -35.462059 -131.773068 -82.537658 -157.815318 -35.355366 -131.464483 -81.117487 134.447282 
1.8320850000000000 -35.285359 -135.071856 -75.145835 80.479470 -35.274989 -134.942810 -79.431450 90.885679 
1.8620699999999999 -35.107879 -138.025147 -79.620281 80.407689 -35.047628 -138.148630 -78.941983 130.604985 
1.8920550000000000 -34.988112 -141.259209 -89.706979 -173.765383 -34.939296 -141.188193 -73.474360 53.058009 
1.9220400000000000 -34.786988 -143.969636 -73.526955 60.616758 -34.812000 -144.881615 -78.186918 73.206512 
1.9520249999999999 -34.724646 -147.625264 -88.985656 97.480346 -34.666869 -147.454527 -75.932206 21.309608 
1.9820100000000000 -34.534686 -150.604809 -95.435262 -171.239447 -34.528463 -150.514312 -81.976748 91.072026 
2.0119950000000002 -34.447266 -153.740546 -75.005764 71.872693 -34.454039 -153.409139 -88.235489 -9.767524 
2.0419800000000001 -34.264192 -155.962118 -78.802889 72.684806 -34.283402 -156.381958 -76.598003 91.976923 
2.0719650000000001 -34.163938 -159.392673 -72.271579 10.393462 -34.180593 -159.783974 -74.945821 102.866232 
2.1019500000000000 -34.065745 -162.325969 -73.623068 0.399499 -34.124017 -162.255541 -74.197578 60.309971 
2.1319349999999999 -34.090903 -165.350950 -73.288883 -0.394267 -34.018595 -165.259507 -88.664729 -72.079375 
2.1619199999999998 -33.842744 -167.915761 -87.826614 50.870703 -33.889738 -167.959822 -78.599454 -24.936781 
2.1919050000000002 -33.801220 -170.719848 -75.946989 24.994084 -33.795188 -170.609791 -76.698785 -15.411293 
2.2218900000000001 -33.685290 -173.515436 -85.747199 7.640154 -33.737962 -173.665676 -78.568984 24.887420 
2.2518750000000001 -33.655750 -176.246505 -75.050061 -38.541417 -33.631205 -176.109801 -78.689089 -36.517493 
2.2818600000000000 -33.604565 -178.997760 -87.552329 -8.121102 -33.583518 -178.843537 -79.186214 -59.626885 
2.3118449999999999 -33.489818 178.507248 -74.437686 -71.506719 -33.458445 178.481728 -90.775877 -118.907469 
2.3418299999999999 -33.419893 176.059654 -83.533137 -129.121924 -33.444428 175.734274 -74.845611 -17.169310 
2.3718149999999998 -33.399935 173.273137 -83.615844 58.368223 -33.420962 173.269660 -78.305853 -75.850887 
2.4018000000000002 -33.332314 171.442407 -75.820394 -106.996427 -33.331449 170.734847 -76.300767 -93.579813 
2.4317850000000001 -33.226808 169.006990 -83.444377 -85.778960 -33.286321 168.518903 -83.265593 15.617460 
2.4617700000000000 -33.209236 166.216028 -81.751837 -154.131011 -33.258677 166.304068 -84.264832 42.426999 
2.4917549999999999 -33.215623 163.765221 -78.575585 -64.469599 -33.178737 163.903328 -80.101738 43.524702 
2.5217399999999999 -33.202567 161.726229 -78.456068 -9.836570 -33.136920 162.124128 -83.032996 45.857110 
2.5517249999999998 -33.107329 159.605621 -77.801525 -15.817018 -33.142020 159.249990 -75.683825 -156.402739 
2.5817100000000002 -33.077271 157.163240 -88.700589 -77.831776 -33.090033 157.712705 -76.348404 -133.992826 
2.6116950000000001 -33.057974 155.053760 -85.338682 -106.550122 -33.061765 155.567038 -101.256819 30.394490 
2.6416800000000000 -33.004304 153.407649 -79.802902 -86.486144 -33.028604 153.198403 -82.631979 -3.513421 
2.6716650000000000 -33.015214 151.220176 -76.799306 84.451313 -32.993222 151.143898 -85.186785 80.896622 
2.7016499999999999 -32.973745 149.272024 -79.899363 -80.273373 -32.981986 149.253864 -82.986142 -44.556198 
2.7316349999999998 -32.967595 147.214363 -85.033146 -124.724673 -33.002929 147.081248 -80.893608 19.634248 
2.7616200000000002 -32.931894 145.661093 -82.164731 21.238455 -32.908401 145.151035 -90.993407 13.124941 
2.7916050000000001 -32.971296 143.537826 -76.283160 -102.649839 -32.936775 143.654459 -79.021022 81.021723 
2.8215900000000000 -32.933607 142.022626 -80.231465 96.215765 -32.932450 141.800864 -84.610776 121.501223 
2.8515750000000000 -32.896722 140.582304 -79.948533 -171.637939 -32.895753 140.612528 -78.591758 -7.363641 
2.8815599999999999 -32.882209 139.156336 -83.393145 -26.910692 -32.879699 139.196096 -79.660776 161.765627 
2.9115449999999998 -32.860483 137.487194 -78.692943 151.532712 -32.909793 137.894639 -74.057786 -147.060819 
2.9415300000000002 -32.827031 136.318055 -73.934902 -159.182485 -32.822497 135.715286 -86.172489 -81.049389 
2.9715150000000001 -32.813915 134.836133 -81.044835 -7.170701 -32.742268 134.886072 -77.931101 -53.455074 
3.0015000000000001 -32.781414 133.399270 -77.908798 -104.929041 -32.772828 133.140128 -80.736312 147.471794 
3.0314850000000000 -32.658746 131.870529 -74.167917 95.794590 -32.691925 131.823484 -82.851685 -165.261415 
3.0614699999999999 -33.333054 133.688972 -89.439704 114.147539 -33.311211 133.089187 -82.463547 -7.830271 
3.0914549999999998 -33.349512 132.397438 -93.459145 28.333093 -33.270038 132.037930 -85.739213 76.304052 
3.1214400000000002 -33.168698 130.561075 -82.451307 56.207099 -33.228430 130.807596 -74.304445 98.802598 
3.1514250000000001 -33.126320 129.737391 -80.840633 20.265152 -33.209957 129.665025 -73.883725 155.200681 
3.1814100000000001 -33.086668 128.238244 -82.658422 64.719728 -33.109405 128.362966 -79.579456 -101.516122 
3.2113950000000000 -32.943822 126.799574 -81.059390 62.949674 -32.931545 126.959974 -77.786116 -74.870823 
3.2413799999999999 -32.919163 125.901146 -82.160997 -97.199033 -32.942898 126.101718 -85.768976 -41.611154 
3.2713649999999999 -32.882360 124.580329 -92.889026 -55.057346 -32.892155 124.947796 -79.192528 82.084168 
3.3013499999999998 -32.755727 123.377446 -79.686252 121.122638 -32.755907 123.885554 -81.473298 90.862419 
3.3313350000000002 -32.676540 122.576694 -71.871480 119.644347 -32.635363 122.146292 -81.082202 40.837042 
3.3613200000000001 -32.569807 121.325073 -78.687129 -169.262998 -32.551778 120.553109 -82.607970 62.018380 
3.3913050000000000 -32.442344 119.463241 -84.195088 -50.820137 -32.478181 120.084690 -79.920700 168.458615 
3.4212899999999999 -32.310512 118.383216 -75.994788 -8.390871 -32.347068 117.966483 -83.546938 109.989688 
3.4512749999999999 -32.249796 116.940501 -70.967387 16.427516 -32.226035 117.392814 -76.538381 -25.705077 
3.4812599999999998 -32.150525 115.611802 -86.466639 140.856990 -32.148513 116.346339 -81.178418 -109.430677 
3.5112450000000002 -31.973368 114.599747 -76.101887 -65.519492 -31.999949 115.063808 -75.670748 81.619766 
3.5412300000000001 -31.904660 113.245497 -89.749531 -61.866459 -31.922633 113.362222 -174.429016 -164.756615 
3.5712150000000000 -31.773955 111.386583 -81.285680 -16.921133 -31.774995 111.932090 -72.973903 91.684629 
3.6012000000000000 -31.688639 109.925725 -77.396723 118.289830 -31.662646 109.783601 -76.605010 93.033580 
3.6311849999999999 -31.663961 108.691723 -77.857239 19.387481 -31.653631 108.814371 -90.858214 22.923201 
3.6611699999999998 -31.621933 107.975243 -79.012680 -37.340462 -31.580860 107.948570 -73.781302 11.176129 
3.6911550000000002 -31.436279 107.407291 -78.172286 154.141100 -31.369482 106.893016 -73.642440 -20.913387 
3.7211400000000001 -31.196705 106.786622 -79.508041 -21.005508 -31.213513 106.301853 -90.906344 174.262764 
3.7511250000000000 -30.903362 104.725409 -73.964943 1.730549 -30.913060 104.464540 -75.893578 -61.340280 
3.7811100000000000 -30.730098 102.715129 -75.500385 114.990926 -30.776403 102.799743 -76.713227 -167.763922 
3.8110949999999999 -30.594774 100.679218 -88.251451 8.430201 -30.663904 100.545411 -79.711731 62.113466 
3.8410799999999998 -30.528394 98.488998 -80.164214 43.192461 -30.518372 98.920753 -96.536453 -93.786440 
3.8710650000000002 -30.355388 97.680529 -77.614768 98.261303 -30.299869 96.924464 -75.060610 21.443639 
3.9010500000000001 -30.162444 96.003845 -79.616504 -160.135716 -30.149446 95.736831 -80.125473 -30.395164 
3.9310350000000001 -29.981609 93.588811 -80.252042 -82.709550 -30.004509 93.438947 -75.020054 -97.516575 
3.9610200000000000 -29.923526 90.644015 -76.982009 -94.779671 -29.945204 90.965028 -71.681969 -139.340430 
3.9910049999999999 -29.925319 88.389459 -71.564595 -95.497646 -29.868096 89.332851 -74.021506 -99.569514 
4.0209900000000003 -29.809802 87.889783 -72.843405 58.799199 -29.901774 87.272234 -75.520703 90.741742 
4.0509750000000002 -29.871235 86.248439 -70.481808 151.700200 -29.805037 86.436094 -71.165941 67.439983 
4.0809600000000001 -29.707678 85.806053 -84.468284 81.346810 -29.668933 85.437747 -78.786911 61.154001 
4.1109450000000001 -29.457221 84.129833 -78.939875 -19.264182 -29.450208 84.796177 -79.362967 38.540235 
4.1409300000000000 -29.187552 82.278499 -75.965287 174.672472 -29.262244 82.265858 -82.232801 -4.345783 
4.1709149999999999 -29.020741 79.562598 -72.773768 -0.564783 -29.022413 80.078247 -70.618546 -44.856497 
4.2008999999999999 -28.903285 78.034160 -79.116735 -159.015644 -28.930482 78.205284 -75.177413 -43.081784 
4.2308849999999998 -28.782790 76.038066 -70.868045 -51.417545 -28.667561 76.485016 -78.984262 -116.429189 
4.2608699999999997 -28.505315 74.517007 -75.173688 -174.670539 -28.499417 74.937671 -74.943060 46.241276 
4.2908549999999996 -28.359291 71.766801 -86.135063 -82.970746 -28.291853 71.556975 -83.963172 110.233344 
4.3208399999999996 -28.194058 69.122316 -72.776633 -158.332831 -28.102238 68.351269 -70.368021 145.740413 
4.3508250000000004 -28.141044 66.292181 -87.698561 14.039382 -28.123197 66.012065 -70.145637 -67.512338 
4.3808100000000003 -28.108131 63.679817 -72.354390 -83.089935 -28.130267 63.317808 -71.940129 101.962024 
4.4107950000000002 -27.941962 61.816511 -70.169522 -46.287875 -27.966935 62.202108 -81.134638 176.860784 
4.4407800000000002 -27.814698 59.851486 -90.413299 52.076745 -27.891883 59.949448 -76.844676 148.919145 
4.4707650000000001 -27.753338 57.606574 -79.279502 10.498134 -27.684495 57.699150 -70.566475 -47.540892 
4.5007500000000000 -27.505967 54.859056 -77.885421 86.879588 -27.515574 55.216836 -69.619961 -99.895251 
4.5307350000000000 -27.419347 51.930449 -79.273495 84.948112 -27.399508 52.305210 -71.950093 -84.462586 
4.5607199999999999 -27.244551 50.011743 -77.204505 -171.027535 -27.294265 50.231046 -70.113284 -53.311185 
4.5907049999999998 -27.132319 46.479158 -80.048890 51.603342 -27.058758 47.202064 -70.941482 16.779079 
4.6206899999999997 -27.029215 43.140637 -79.151854 157.278273 -27.001303 43.418369 -73.449183 -146.556652 
4.6506749999999997 -26.977260 40.701341 -66.453410 -48.248118 -26.932648 40.423819 -72.620395 173.862599 
4.6806599999999996 -26.930162 37.641685 -77.713130 -156.599802 -26.989296 38.024781 -69.486358 122.078484 
4.7106450000000004 -26.953410 35.489024 -78.005363 -7.130070 -26.924587 34.932606 -74.195236 -121.252707 
4.7406300000000003 -26.919642 33.099782 -86.150626 -83.224347 -26.810635 32.871436 -66.826796 -166.913545 
4.7706150000000003 -26.640391 29.234484 -97.931167 96.739561 -26.662315 29.442491 -68.246638 152.455101 
4.8006000000000002 -26.579122 25.823905 -67.702890 122.809441 -26.530120 25.444514 -90.720433 -148.030361 
4.8305850000000001 -26.594687 21.730732 -69.586631 101.229153 -26.568382 21.139132 -77.540860 -118.607243 
4.8605700000000001 -26.672705 18.638347 -73.884742 -151.833375 -26.710564 18.473115 -67.640188 73.443837 
4.8905550000000000 -26.752080 16.557129 -72.594509 -96.390030 -26.768864 16.751725 -69.475374 -104.959086 
4.9205399999999999 -26.611004 14.089006 -82.252242 -38.125608 -26.602515 13.810072 -84.290991 -57.899323 
4.9505249999999998 -26.295551 10.061303 -70.022897 -164.439086 -26.294652 10.298592 -72.564393 103.288912 
4.9805099999999998 -26.096507 5.538371 -71.902880 151.593268 -26.167056 5.273318 -71.554619 175.659237 
5.0104949999999997 -26.232606 -0.920542 -65.158979 -76.741592 -26.318811 -0.830184 -74.442638 -159.688747 
5.0404799999999996 -26.728057 -5.416615 -70.034313 137.181675 -26.727391 -4.828223 -76.998120 160.698413 
5.0704650000000004 -27.103671 -7.673505 -71.218656 -153.223785 -27.088701 -7.343602 -68.478420 162.012911 
5.1004500000000004 -27.113648 -8.360764 -64.881688 169.825098 -27.122315 -8.243793 -65.279934 160.911521 
5.1304350000000003 -26.825058 -11.094092 -74.892036 -28.012523 -26.779846 -11.111117 -66.272264 45.750741 
5.1604200000000002 -26.617804 -15.893942 -68.414997 159.345754 -26.612419 -16.568593 -69.043642 -151.223751 
5.1904050000000002 -26.737289 -22.368250 -70.380314 -137.098726 -26.755160 -22.648594 -66.693664 60.889306 
5.2203900000000001 -27.235948 -27.534209 -69.109728 -125.686960 -27.112783 -27.995070 -71.924594 25.185343 
5.2503750000000000 -27.610171 -29.660572 -69.487387 102.144529 -27.696528 -31.144693 -68.772687 3.964707 
5.2803599999999999 -27.804384 -31.862278 -68.205084 178.328741 -27.820840 -31.512546 -71.587782 -44.185157 
5.3103449999999999 -27.405704 -34.216212 -67.372914 121.637174 -27.489376 -34.440270 -64.096877 -17.423248 
5.3403299999999998 -27.318128 -39.622965 -66.814244 68.666575 -27.093040 -39.860979 -66.393870 0.010694 
5.3703149999999997 -27.219211 -48.319576 -67.473050 71.445698 -27.391716 -48.224906 -71.451154 148.958269 
5.4002999999999997 -27.947667 -55.100520 -64.653936 39.749906 -27.992538 -55.137624 -71.450320 -169.900902 
5.4302849999999996 -28.644478 -58.207723 -68.261201 96.905443 -28.781200 -59.074869 -67.377969 -67.482714 
5.4602700000000004 -29.229468 -59.929547 -67.558932 128.955230 -29.309347 -59.370685 -72.172957 11.584989 
