!
! C:\data\cal kit\Siglent Cal Kit\Kirkby Male Short.S2P
!
! Touchstone 1.1 file saved by VNA.EXE V1.60 (www.ke5fx.com/gpib/readme.htm)
! 26/07/2019 10:52:33 a.m.
!
!    Source: HEWLETT PACKARD,8753C,0,4.12
!  Min freq: 3.000000E+006 Hz
!  Max freq: 6.000000E+009 Hz
!    Points: 201
!    Params: S11 S21 S12 S22
!
!!!!!
# GHZ S DB R 50
0.0030000000000000 -2.662484 177.904140 -91.341998 -157.561162 -2.664043 177.925167 -83.999349 130.977180 
0.0329850000000000 -3.201739 170.220168 -84.343757 -144.401767 -3.203965 170.245861 -80.321628 -36.577969 
0.0629700000000000 -3.235691 164.895793 -81.278393 -12.776646 -3.232972 164.858583 -86.237824 -165.260449 
0.0929550000000000 -3.291750 159.144405 -82.386637 -142.704189 -3.289029 159.140320 -76.982619 -24.017608 
0.1229400000000000 -3.333529 153.577276 -84.543628 58.156092 -3.336307 153.591099 -96.845674 22.665965 
0.1529250000000000 -3.363091 148.099438 -88.308320 135.202306 -3.369058 148.074926 -89.972779 166.834419 
0.1829100000000000 -2.994795 144.978249 -82.146075 20.602739 -2.989401 145.039307 -84.496592 178.995232 
0.2128950000000000 -3.030564 139.672383 -87.806212 22.333511 -3.024412 139.609325 -85.984153 60.765790 
0.2428800000000000 -3.053009 134.323481 -85.067847 -137.314722 -3.046881 134.322203 -93.973624 -62.894786 
0.2728650000000000 -3.070931 128.986480 -81.635603 173.119161 -3.071695 129.051457 -82.400646 100.209454 
0.3028500000000000 -3.085516 123.657554 -90.655106 -78.027372 -3.085516 123.657554 -85.629199 -31.984185 
0.3328350000000000 -3.107543 118.457586 -79.854734 -60.133530 -3.101924 118.357960 -80.480189 126.639355 
0.3628200000000000 -3.113038 113.119733 -89.775831 13.327895 -3.118119 113.117714 -77.297861 -178.345290 
0.3928050000000000 -3.111073 107.888301 -88.159895 -141.571318 -3.119100 107.968562 -80.110853 -130.062438 
0.4227900000000000 -3.107251 102.570851 -81.923961 101.436348 -3.100913 102.620417 -110.361029 -10.744599 
0.4527750000000000 -3.083000 97.341211 -77.402113 -28.353929 -3.082424 97.428721 -83.727011 7.254322 
0.4827600000000000 -3.068427 92.064156 -82.910989 -39.020542 -3.070784 92.047275 -91.992811 76.313304 
0.5127450000000000 -3.046938 86.670574 -81.036951 159.090958 -3.041390 86.682649 -80.689670 -59.738908 
0.5427300000000001 -3.000583 81.194308 -78.641602 141.215608 -2.982011 81.322988 -92.920589 7.039470 
0.5727150000000000 -2.971748 75.825829 -80.939507 -161.668841 -2.976175 75.800669 -85.681188 -71.992818 
0.6027000000000000 -2.930101 70.331505 -90.468490 -16.022696 -2.958379 70.379574 -80.746571 -121.667840 
0.6326850000000001 -2.932550 64.789748 -81.279947 -120.226530 -2.912185 64.820476 -85.676448 89.234758 
0.6626700000000000 -2.879842 59.301519 -84.519149 -150.423051 -2.862706 59.159238 -116.090276 4.002752 
0.6926550000000000 -2.863523 53.642637 -81.025742 -163.221152 -2.850072 53.620480 -83.873193 -144.594475 
0.7226400000000000 -2.829256 47.910718 -82.913710 -103.768363 -2.820453 47.940317 -96.777589 5.566972 
0.7526250000000000 -2.841184 42.330788 -87.177135 79.346193 -2.826726 42.345507 -86.826447 22.172367 
0.7826100000000000 -2.809286 36.665482 -91.782364 134.201572 -2.800541 36.613556 -78.669866 -89.111748 
0.8125950000000000 -2.808408 30.906162 -83.040449 10.999244 -2.793777 30.865310 -81.683099 -97.553382 
0.8425800000000000 -2.811467 25.226849 -77.060906 -89.683469 -2.805776 25.193154 -84.801449 160.214036 
0.8725650000000000 -2.815268 19.430515 -79.962210 -38.675739 -2.811852 19.407192 -84.063538 147.275422 
0.9025500000000000 -2.829232 13.694396 -86.387300 -15.731003 -2.820945 13.683571 -79.410403 -48.287626 
0.9325350000000000 -2.850600 8.030539 -84.836369 -73.442928 -2.860320 7.975772 -84.914579 -164.111135 
0.9625200000000000 -2.885800 2.362703 -79.773194 -139.263601 -2.873119 2.381182 -80.458766 15.968578 
0.9925050000000000 -2.913275 -3.295669 -78.642359 -32.607991 -2.913814 -3.276278 -94.249572 60.610167 
1.0224899999999999 -2.958240 -8.901833 -77.414521 -157.414509 -2.953351 -8.869432 -93.582740 -54.928423 
1.0524750000000000 -2.994692 -14.418792 -86.335316 66.234133 -2.999032 -14.436357 -86.985872 177.033722 
1.0824600000000000 -3.045030 -19.907169 -84.352560 154.527635 -3.040886 -19.931590 -86.333020 -11.302122 
1.1124449999999999 -3.081310 -25.384242 -85.519595 -74.841716 -3.081958 -25.375230 -77.662501 -152.119855 
1.1424300000000001 -3.122312 -30.665198 -90.666974 -133.920240 -3.122414 -30.718030 -82.325596 -138.090654 
1.1724150000000000 -3.152719 -36.100192 -85.353054 34.877540 -3.149530 -36.069310 -93.112941 49.464437 
1.2023999999999999 -3.190715 -41.369992 -82.148716 135.417503 -3.184340 -41.440577 -89.705997 -143.782292 
1.2323850000000001 -3.195755 -46.797276 -84.344566 74.072977 -3.197662 -46.736896 -78.300019 -42.021518 
1.2623700000000000 -3.225065 -52.108569 -83.927712 74.493306 -3.222671 -52.162577 -85.835939 173.035149 
1.2923549999999999 -3.251144 -57.361311 -84.260624 -84.310393 -3.247443 -57.346771 -80.624539 -77.767481 
1.3223400000000001 -3.249510 -62.681267 -83.207824 -86.557927 -3.262197 -62.732532 -78.997792 -26.437480 
1.3523250000000000 -3.263679 -68.036425 -87.772315 14.468824 -3.272083 -68.071762 -76.127717 -123.764364 
1.3823099999999999 -3.274740 -73.267065 -93.078911 174.449516 -3.276111 -73.314921 -91.550335 -136.547765 
1.4122950000000001 -3.291903 -78.487189 -84.465050 -175.630994 -3.282470 -78.669047 -77.466127 104.675069 
1.4422800000000000 -3.287915 -84.081597 -82.209293 -7.664131 -3.301570 -83.984835 -84.187749 9.502957 
1.4722649999999999 -3.306372 -89.237537 -79.068051 -8.598645 -3.295859 -89.215455 -84.773569 93.378186 
1.5022500000000001 -3.320231 -94.671706 -77.566797 -69.644819 -3.310366 -94.586781 -80.273127 -75.766095 
1.5322350000000000 -3.323104 -100.048968 -85.182452 -62.072304 -3.336128 -100.019881 -79.796127 -45.429014 
1.5622199999999999 -3.340038 -105.413708 -77.922896 -60.753292 -3.341370 -105.410805 -82.620007 -38.576872 
1.5922050000000001 -3.355840 -110.796980 -72.040038 -114.002543 -3.354003 -110.734599 -71.959413 -79.218862 
1.6221900000000000 -3.327696 -116.094763 -74.790615 -101.240536 -3.366900 -115.863332 -71.194364 -129.051934 
1.6521749999999999 -3.370493 -121.458400 -76.360755 -162.498247 -3.370900 -121.399631 -73.272735 175.757778 
1.6821600000000001 -3.403168 -126.816605 -83.555398 -167.632949 -3.402435 -126.719335 -77.634268 -157.948954 
1.7121450000000000 -3.438654 -132.145160 -74.594002 157.668076 -3.421796 -132.144276 -77.630578 176.380689 
1.7421300000000000 -3.478840 -137.507834 -71.988326 131.812113 -3.462249 -137.413624 -72.934656 148.640590 
1.7721150000000001 -3.499309 -142.572882 -78.470410 103.545717 -3.498157 -142.545754 -74.463625 127.624603 
1.8021000000000000 -3.530547 -147.766416 -78.828471 -162.254557 -3.543346 -147.713123 -77.063945 64.560995 
1.8320850000000000 -3.552593 -152.806355 -81.462809 97.967207 -3.568794 -152.887740 -76.619761 134.311700 
1.8620699999999999 -3.578077 -158.064276 -88.438101 129.916570 -3.589198 -157.991949 -78.207913 99.903966 
1.8920550000000000 -3.605537 -163.187375 -76.429786 116.296738 -3.604340 -163.170400 -76.789430 122.557723 
1.9220400000000000 -3.652422 -168.389302 -82.300135 162.977847 -3.635885 -168.295015 -72.677196 125.368299 
1.9520249999999999 -3.677611 -173.311847 -76.325655 102.902185 -3.672659 -173.377473 -81.975836 150.905575 
1.9820100000000000 -3.691178 -178.290785 -75.206175 115.398554 -3.692548 -178.325303 -75.127723 118.424009 
2.0119950000000002 -3.704474 176.733106 -79.551328 103.932520 -3.702470 176.736541 -73.134926 76.277522 
2.0419800000000001 -3.708401 171.790690 -71.904342 104.307749 -3.707522 171.731962 -75.073826 71.109532 
2.0719650000000001 -3.709577 166.807511 -78.178215 12.674095 -3.705320 166.816852 -79.852939 70.525742 
2.1019500000000000 -3.701439 161.691211 -72.234886 52.343999 -3.694356 161.754560 -72.136972 50.406425 
2.1319349999999999 -3.695045 156.729740 -71.728998 10.150741 -3.692112 156.711850 -72.942375 55.560752 
2.1619199999999998 -3.685476 151.782874 -77.513759 81.617770 -3.688585 151.668640 -80.218346 -18.626674 
2.1919050000000002 -3.669956 146.779064 -81.604985 -11.988234 -3.665486 146.661224 -77.416778 -40.650805 
2.2218900000000001 -3.639558 141.730485 -78.338886 -4.043917 -3.651213 141.574683 -83.023017 -45.258646 
2.2518750000000001 -3.603742 136.602782 -83.793035 33.258108 -3.629433 136.544606 -90.039699 -29.358223 
2.2818600000000000 -3.584023 131.459902 -84.211484 47.757206 -3.588675 131.487025 -80.054322 -144.650083 
2.3118449999999999 -3.544120 126.236169 -72.765928 15.943107 -3.558515 126.426874 -99.968045 125.143366 
2.3418299999999999 -3.515614 121.063542 -81.769033 71.996155 -3.510778 121.212631 -78.569297 -52.471143 
2.3718149999999998 -3.478157 115.847291 -78.658298 29.895046 -3.488701 115.901341 -82.143157 14.823374 
2.4018000000000002 -3.450399 110.720761 -89.788153 -27.945308 -3.455016 110.721151 -73.757530 -63.758743 
2.4317850000000001 -3.412065 105.456594 -84.538280 -69.891749 -3.405922 105.281678 -81.844768 177.597357 
2.4617700000000000 -3.383076 100.072123 -76.206250 86.773974 -3.378549 100.003943 -92.917028 -64.722097 
2.4917549999999999 -3.348678 94.921854 -85.140635 40.595857 -3.347690 94.877430 -83.290675 47.378192 
2.5217399999999999 -3.282165 89.624938 -78.239391 31.738802 -3.297615 89.591045 -79.243003 12.551935 
2.5517249999999998 -3.237121 84.208086 -76.081755 -43.906004 -3.260589 84.223059 -95.703978 -20.384277 
2.5817100000000002 -3.196646 78.712365 -79.998707 -38.869114 -3.216865 78.943841 -78.937437 -49.753107 
2.6116950000000001 -3.175968 73.169670 -80.384023 -153.096728 -3.209360 73.464820 -80.090301 -13.682633 
2.6416800000000000 -3.160081 67.759444 -75.990984 134.981946 -3.153205 67.894698 -89.333718 134.544696 
2.6716650000000000 -3.160125 62.315395 -75.765241 118.159771 -3.153669 62.266752 -78.884935 -118.024332 
2.7016499999999999 -3.149676 56.755969 -91.993635 -131.952963 -3.129875 56.721575 -85.704625 -128.102437 
2.7316349999999998 -3.132514 51.186662 -96.590690 54.193989 -3.106778 51.175403 -77.858576 -49.644043 
2.7616200000000002 -3.124908 45.708717 -74.045742 58.201856 -3.113983 45.663587 -76.718940 -102.675747 
2.7916050000000001 -3.116744 40.234745 -70.727343 -49.684168 -3.117300 40.214899 -88.062112 -20.965586 
2.8215900000000000 -3.094218 34.819584 -80.924424 16.209872 -3.112571 34.833775 -79.207102 -85.266288 
2.8515750000000000 -3.088666 29.344706 -88.104335 0.561629 -3.106196 29.312265 -76.343634 -113.423036 
2.8815599999999999 -3.087129 23.783656 -81.043875 -42.720412 -3.093378 23.850952 -83.883382 -48.268198 
2.9115449999999998 -3.085157 18.179401 -72.581486 -122.094763 -3.081098 18.188978 -73.309638 -145.053136 
2.9415300000000002 -3.095044 12.598958 -78.314314 -116.671180 -3.085980 12.557488 -79.650320 -90.248076 
2.9715150000000001 -3.102071 7.143303 -87.778070 155.912017 -3.099718 7.065829 -85.188861 139.880040 
3.0015000000000001 -3.104339 1.690051 -80.659180 -57.094869 -3.101495 1.731997 -76.411721 167.172828 
3.0314850000000000 -3.102230 -3.728795 -81.912982 143.420080 -3.097194 -3.739145 -75.362471 63.855811 
3.0614699999999999 -3.787583 -6.662125 -83.686966 99.093241 -3.793760 -6.639641 -78.051748 157.477091 
3.0914549999999998 -3.800715 -12.010015 -71.725000 99.310741 -3.808783 -12.046284 -77.912880 118.749236 
3.1214400000000002 -3.800961 -17.431095 -89.234862 -89.218137 -3.801261 -17.397653 -81.981157 129.266586 
3.1514250000000001 -3.799460 -22.729227 -83.011476 7.152350 -3.802063 -22.660077 -83.199841 63.873706 
3.1814100000000001 -3.771537 -28.112816 -75.991218 114.638136 -3.778564 -28.002880 -75.923271 91.081327 
3.2113950000000000 -3.728673 -33.411452 -75.030774 69.178348 -3.735028 -33.313585 -71.836809 73.960221 
3.2413799999999999 -3.708049 -38.786188 -75.405069 177.713102 -3.688845 -38.794263 -85.429419 -46.288820 
3.2713649999999999 -3.655886 -44.376564 -77.871893 -117.183673 -3.640250 -44.249838 -83.027072 34.687887 
3.3013499999999998 -3.592854 -49.638482 -69.812736 -75.847114 -3.587967 -49.665867 -72.597406 -32.490313 
3.3313350000000002 -3.516004 -55.042761 -75.801892 12.315784 -3.512871 -55.095550 -80.713121 70.925372 
3.3613200000000001 -3.419355 -60.675006 -70.894551 74.696314 -3.397801 -60.707316 -75.654857 86.020795 
3.3913050000000000 -3.307057 -66.764451 -75.222214 -27.829550 -3.293152 -66.901032 -78.782883 37.733414 
3.4212899999999999 -3.248237 -73.006208 -78.174340 93.576120 -3.257597 -72.982002 -84.094552 116.137579 
3.4512749999999999 -3.212174 -79.063331 -77.408373 18.231588 -3.201191 -79.249757 -82.679718 114.127712 
3.4812599999999998 -3.198302 -85.327639 -72.970268 52.907382 -3.207143 -85.485285 -78.277020 123.196830 
3.5112450000000002 -3.162280 -91.572973 -77.774663 -176.978703 -3.171985 -91.534409 -71.425782 4.098084 
3.5412300000000001 -3.153645 -97.898655 -74.440535 49.769063 -3.153917 -97.903981 -83.395097 -172.347810 
3.5712150000000000 -3.174540 -104.482411 -79.796197 -121.280918 -3.196093 -104.456561 -74.466724 -41.624911 
3.6012000000000000 -3.312653 -110.924644 -75.837296 -155.854460 -3.295818 -110.871286 -74.033970 7.519848 
3.6311849999999999 -3.482377 -116.553370 -86.420720 28.642564 -3.455510 -116.616273 -75.101918 135.209541 
3.6611699999999998 -3.619254 -121.659284 -88.562479 -110.947373 -3.631777 -121.641608 -84.066389 -133.310071 
3.6911550000000002 -3.689569 -126.345261 -82.630958 -33.728535 -3.692766 -126.370751 -84.316665 -21.632995 
3.7211400000000001 -3.662270 -131.297511 -89.194399 -152.469247 -3.664826 -131.266189 -79.567515 57.993113 
3.7511250000000000 -3.590426 -136.598457 -75.846973 87.183064 -3.576858 -136.657578 -77.511102 -89.634579 
3.7811100000000000 -3.529936 -142.255342 -75.320967 96.297279 -3.552412 -142.326775 -77.390335 -88.337064 
3.8110949999999999 -3.601694 -147.938500 -83.903478 118.667600 -3.593535 -147.972190 -78.568536 123.738262 
3.8410799999999998 -3.690127 -152.877651 -80.633333 -132.412991 -3.683635 -152.899578 -92.507808 -97.532877 
3.8710650000000002 -3.665141 -157.387522 -84.639171 96.528173 -3.671012 -157.550496 -85.412317 95.769009 
3.9010500000000001 -3.567717 -162.321323 -74.067146 -4.439549 -3.578474 -162.318085 -92.566022 12.422566 
3.9310350000000001 -3.437887 -167.771536 -72.266718 124.293257 -3.449071 -167.731579 -82.351596 44.117530 
3.9610200000000000 -3.402030 -173.469550 -76.475195 132.053598 -3.402885 -173.450676 -72.435035 -137.732568 
3.9910049999999999 -3.420555 -178.719253 -75.610321 29.634672 -3.435145 -178.852160 -74.110759 -104.795184 
4.0209900000000003 -3.437049 176.481019 -68.846003 173.815665 -3.434836 176.497526 -76.664867 -7.805240 
4.0509750000000002 -3.347396 172.176369 -78.397635 -137.056157 -3.350662 172.277227 -82.686897 8.920615 
4.0809600000000001 -3.113703 167.786050 -76.777079 174.406352 -3.123948 167.743212 -77.884320 110.372185 
4.1109450000000001 -2.846789 162.219646 -82.697211 -125.668161 -2.853029 162.244688 -73.122919 -42.445942 
4.1409300000000000 -2.624397 156.076175 -77.060307 -158.612245 -2.637470 156.224400 -72.091461 -12.650267 
4.1709149999999999 -2.502784 149.690678 -94.094041 -162.998049 -2.501728 149.632600 -73.406704 -168.415356 
4.2008999999999999 -2.419059 143.586580 -69.966292 110.477358 -2.428961 143.503840 -71.054960 -87.386501 
4.2308849999999998 -2.310337 137.578683 -74.794157 -178.529937 -2.336704 137.558994 -75.814444 83.391361 
4.2608699999999997 -2.223218 131.269846 -69.080913 69.755226 -2.217940 131.251324 -73.723048 -38.693456 
4.2908549999999996 -2.161112 124.743092 -84.824099 -153.444933 -2.168578 124.668043 -78.786311 -12.699125 
4.3208399999999996 -2.187499 117.774257 -88.243327 -176.366744 -2.201996 117.867991 -74.635484 -177.556941 
4.3508250000000004 -2.342408 111.495689 -76.822065 83.692520 -2.340382 111.202853 -64.271858 -65.082294 
4.3808100000000003 -2.551180 105.689585 -82.231784 154.297694 -2.541341 105.651905 -77.726647 -5.324132 
4.4107950000000002 -2.640197 100.810345 -75.591181 162.860417 -2.654202 100.654068 -79.936923 0.538229 
4.4407800000000002 -2.716342 95.713210 -62.582855 -134.998375 -2.728538 95.726076 -69.630489 64.357227 
4.4707650000000001 -2.770180 90.733658 -65.397685 -125.079650 -2.787859 90.648376 -74.668404 -146.970039 
4.5007500000000000 -2.793147 85.567628 -71.412333 -49.368549 -2.819987 85.507781 -73.128761 59.060802 
4.5307350000000000 -2.894749 80.548106 -72.761529 29.534087 -2.919957 80.475721 -73.518327 -162.731340 
4.5607199999999999 -2.916461 75.915105 -78.425808 33.468327 -2.920600 76.004122 -71.381593 177.381331 
4.5907049999999998 -2.852294 71.343903 -66.110952 -11.018926 -2.853747 71.647993 -71.038389 41.928305 
4.6206899999999997 -2.784213 66.397109 -65.832357 145.754728 -2.798586 66.603046 -76.827771 6.070246 
4.6506749999999997 -2.791426 61.418024 -67.264281 -8.320706 -2.773897 61.568532 -75.237148 -22.428571 
4.6806599999999996 -2.801107 56.558994 -91.944990 43.434014 -2.791633 56.438337 -74.279488 178.258661 
4.7106450000000004 -2.806457 51.944522 -72.908856 -56.330857 -2.789198 52.045727 -66.846200 132.371331 
4.7406300000000003 -2.647864 47.711155 -72.593472 -140.122670 -2.668090 47.836967 -66.872177 165.843624 
4.7706150000000003 -2.455973 43.090195 -68.599432 48.795051 -2.436504 42.888110 -72.094061 124.739815 
4.8006000000000002 -2.224464 37.048799 -73.937513 -129.071497 -2.234822 37.145811 -74.869242 -161.532891 
4.8305850000000001 -2.149280 31.020216 -78.904827 133.393896 -2.149109 30.982957 -69.867441 143.919847 
4.8605700000000001 -2.181853 25.506445 -81.753341 -31.690321 -2.185985 25.223266 -68.207782 -22.485035 
4.8905550000000000 -2.146425 20.827762 -65.251100 -137.277007 -2.140629 20.669685 -84.672938 7.369398 
4.9205399999999999 -1.899757 16.279263 -72.138996 -166.603741 -1.900337 16.289452 -80.238915 -3.956658 
4.9505249999999998 -1.508314 10.213312 -69.275962 130.743820 -1.493360 10.453060 -79.835492 -120.744295 
4.9805099999999998 -1.231461 1.954801 -70.915667 17.141762 -1.239710 1.896116 -68.086385 74.621405 
5.0104949999999997 -1.328671 -6.735312 -70.484621 1.287613 -1.306625 -6.922842 -69.716180 -105.598666 
5.0404799999999996 -1.705445 -13.916510 -83.088528 -72.967586 -1.708123 -14.056891 -70.421408 -134.378755 
5.0704650000000004 -2.074322 -19.141259 -74.474317 -93.801151 -2.081472 -19.072977 -67.147602 -107.572986 
5.1004500000000004 -2.192877 -22.670767 -65.984570 99.498106 -2.191672 -22.584553 -66.005372 -86.482996 
5.1304350000000003 -1.952083 -27.600915 -71.771194 -87.181568 -1.944922 -27.502221 -70.450450 101.380759 
5.1604200000000002 -1.722695 -34.847393 -68.180652 120.447782 -1.753750 -34.664570 -68.709657 74.745089 
5.1904050000000002 -1.904459 -43.215431 -76.783410 25.745082 -1.856186 -43.151793 -66.879241 139.466995 
5.2203900000000001 -2.351974 -50.299790 -73.815571 122.669920 -2.366326 -50.155332 -88.059284 158.479768 
5.2503750000000000 -2.907145 -54.090483 -74.643882 74.636973 -2.873157 -53.951865 -73.534958 -94.695940 
5.2803599999999999 -3.045935 -56.157741 -71.817790 156.776274 -2.999105 -56.230477 -69.294637 157.729405 
5.3103449999999999 -2.709949 -59.704013 -68.116854 50.892440 -2.706614 -59.761096 -72.562064 26.042071 
5.3403299999999998 -2.346205 -66.350812 -71.399080 170.485528 -2.373971 -66.541291 -68.779979 -48.485888 
5.3703149999999997 -2.370729 -75.114606 -72.955901 29.431438 -2.402311 -75.245167 -73.625588 116.796918 
5.4002999999999997 -2.855854 -82.719513 -83.878298 165.539813 -2.880066 -82.588549 -67.785838 169.851421 
5.4302849999999996 -3.548526 -86.514580 -62.259927 77.233825 -3.545543 -86.581652 -64.249725 48.216810 
5.4602700000000004 -3.816943 -88.187125 -64.902241 92.850560 -3.831617 -88.072553 -66.649959 106.743552 
5.4902550000000003 -3.555753 -90.226444 -65.117648 128.383167 -3.601431 -90.105878 -64.927918 166.634985 
5.5202400000000003 -3.152244 -94.917482 -68.377037 -14.363259 -3.151271 -94.631943 -72.190902 100.621364 
5.5502250000000002 -2.892232 -101.814656 -67.879831 47.238003 -2.927042 -101.610142 -75.040793 148.379379 
