!
! C:\data\cal kit\Siglent Cal Kit\Kirkby Male Open.S2P
!
! Touchstone 1.1 file saved by VNA.EXE V1.60 (www.ke5fx.com/gpib/readme.htm)
! 26/07/2019 10:51:52 a.m.
!
!    Source: HEWLETT PACKARD,8753C,0,4.12
!  Min freq: 3.000000E+006 Hz
!  Max freq: 6.000000E+009 Hz
!    Points: 201
!    Params: S11 S21 S12 S22
!
!!!!!
# GHZ S DB R 50
0.0030000000000000 -2.858516 -1.822775 -95.969629 127.244651 -2.862614 -1.813906 -87.115019 48.468793 
0.0329850000000000 -3.309774 -9.026382 -84.351341 131.012786 -3.307597 -9.018922 -89.631746 81.261459 
0.0629700000000000 -3.286051 -14.080818 -92.386036 -131.352644 -3.285111 -14.095051 -88.889996 -53.736592 
0.0929550000000000 -3.287385 -19.650050 -90.114628 -144.983891 -3.274092 -19.675599 -88.063080 115.440702 
0.1229400000000000 -3.266798 -25.159371 -93.012918 -77.808055 -3.266210 -25.095666 -93.631908 102.036393 
0.1529250000000000 -3.243109 -30.591752 -80.886544 -154.727921 -3.244947 -30.581216 -88.845139 62.343427 
0.1829100000000000 -2.809101 -33.771822 -86.531672 171.028198 -2.823750 -33.722958 -84.329839 68.926791 
0.2128950000000000 -2.809036 -39.328850 -84.802797 174.488955 -2.801582 -39.198198 -88.697962 -6.805047 
0.2428800000000000 -2.789137 -44.889205 -82.207393 47.299782 -2.792749 -44.868691 -77.341240 117.977926 
0.2728650000000000 -2.793086 -50.448256 -87.256484 132.409918 -2.791260 -50.448819 -88.011939 -71.424992 
0.3028500000000000 -2.787884 -56.188269 -79.133050 114.122149 -2.792520 -56.121316 -82.254203 104.389227 
0.3328350000000000 -2.794056 -61.718523 -94.426608 67.386406 -2.794696 -61.751851 -90.013529 69.255646 
0.3628200000000000 -2.806336 -67.334242 -89.746804 -169.721247 -2.807491 -67.333676 -84.845601 -171.738329 
0.3928050000000000 -2.813379 -72.941171 -98.982574 24.799834 -2.836429 -73.016129 -82.980228 20.248329 
0.4227900000000000 -2.836217 -78.524649 -79.113185 -170.841217 -2.832986 -78.553697 -80.689178 -115.400361 
0.4527750000000000 -2.869567 -84.263017 -86.761821 106.276196 -2.854342 -84.212073 -78.209036 147.041160 
0.4827600000000000 -2.909758 -89.740897 -95.847709 61.702159 -2.899773 -89.763172 -82.782998 -42.569602 
0.5127450000000000 -2.943395 -95.268408 -81.083758 178.981933 -2.935304 -95.312729 -96.813596 -11.283468 
0.5427300000000001 -2.966305 -100.860714 -84.167908 85.342329 -2.977659 -100.809882 -86.235957 65.042850 
0.5727150000000000 -3.013643 -106.269905 -88.500661 -66.416966 -3.024554 -106.226419 -87.669094 61.697841 
0.6027000000000000 -3.068552 -111.595695 -87.968295 146.258811 -3.059244 -111.608852 -76.089863 -141.995172 
0.6326850000000001 -3.127201 -116.945024 -79.844659 -86.172955 -3.123883 -116.855244 -81.408687 -70.883154 
0.6626700000000000 -3.146959 -122.136924 -81.680716 -14.749888 -3.137575 -122.192898 -87.122263 71.870020 
0.6926550000000000 -3.195289 -127.553959 -77.003937 132.174630 -3.173597 -127.330006 -91.498109 -35.485474 
0.7226400000000000 -3.219806 -132.642090 -78.770794 -78.247131 -3.203530 -132.825441 -84.990772 73.837166 
0.7526250000000000 -3.261899 -137.816205 -78.984498 13.885640 -3.233945 -137.760450 -77.181836 -149.266736 
0.7826100000000000 -3.262214 -142.941731 -84.147837 9.223603 -3.260793 -143.098541 -82.296810 -158.694784 
0.8125950000000000 -3.279849 -148.211189 -82.004709 74.692773 -3.280349 -148.197137 -82.938754 83.260432 
0.8425800000000000 -3.285817 -153.313948 -78.529513 71.216305 -3.279243 -153.312903 -83.033534 98.634333 
0.8725650000000000 -3.292946 -158.514053 -80.892377 175.531995 -3.283556 -158.565838 -76.987640 -113.103884 
0.9025500000000000 -3.281157 -163.624282 -78.127121 83.247162 -3.280481 -163.591027 -85.122997 -158.359794 
0.9325350000000000 -3.278953 -168.840126 -82.120550 -131.403536 -3.269110 -168.813973 -90.720445 -17.685304 
0.9625200000000000 -3.252384 -173.995918 -90.146314 148.455577 -3.255974 -174.026677 -83.180421 -21.474442 
0.9925050000000000 -3.230692 -179.246686 -89.655320 -95.675736 -3.227263 -179.262196 -79.399257 5.253757 
1.0224899999999999 -3.216110 175.462826 -83.728628 -179.213065 -3.211597 175.439806 -79.485106 179.334151 
1.0524750000000000 -3.189118 170.124356 -81.326512 -97.140128 -3.193905 170.129106 -75.295684 100.411701 
1.0824600000000000 -3.170819 164.872579 -88.939457 -7.500688 -3.182599 164.812354 -84.770181 89.554564 
1.1124449999999999 -3.140953 159.484795 -90.210977 121.679541 -3.140414 159.518283 -96.154426 41.903780 
1.1424300000000001 -3.118368 154.068720 -78.849082 61.842822 -3.109240 154.145238 -95.314968 -85.564793 
1.1724150000000000 -3.085554 148.626007 -83.827592 -58.361970 -3.093326 148.676593 -80.435824 -23.597895 
1.2023999999999999 -3.060102 143.095281 -86.747975 -38.942895 -3.071193 143.093246 -78.828225 -116.436601 
1.2323850000000001 -3.041317 137.698104 -90.581032 102.532135 -3.059779 137.651032 -80.427717 -47.872456 
1.2623700000000000 -3.033473 132.070884 -83.946183 -102.828557 -3.031218 132.194489 -81.643355 -87.737633 
1.2923549999999999 -3.024871 126.610313 -94.322148 108.865006 -3.029844 126.532839 -83.325421 -69.835586 
1.3223400000000001 -3.000786 120.974767 -79.908076 157.906024 -2.999160 121.083619 -84.907361 -125.038473 
1.3523250000000000 -2.996760 115.407827 -79.834456 159.557439 -2.987932 115.421142 -90.187472 -88.130605 
1.3823099999999999 -3.006056 109.969383 -80.112127 -32.805509 -3.043327 109.916303 -85.176046 -88.386546 
1.4122950000000001 -3.014129 104.426247 -84.153098 -119.634488 -3.017751 104.442619 -79.358283 -29.495549 
1.4422800000000000 -3.017034 98.880122 -81.647412 95.703918 -3.027124 98.822824 -80.776209 -121.887619 
1.4722649999999999 -3.030172 93.434719 -81.467837 -178.948541 -3.027442 93.361660 -96.743606 12.373849 
1.5022500000000001 -3.022750 87.916938 -79.179588 122.601966 -3.026932 87.925854 -83.166880 93.148802 
1.5322350000000000 -3.026761 82.429093 -93.820876 -107.405132 -3.020927 82.346784 -87.138167 20.775393 
1.5622199999999999 -3.020321 76.840423 -80.073494 -70.703250 -3.017233 76.796886 -85.355316 79.597014 
1.5922050000000001 -3.008875 71.354740 -77.446263 -104.571755 -3.017398 71.327919 -82.153512 -97.904604 
1.6221900000000000 -2.988153 65.684649 -95.186376 -138.627042 -2.974234 65.955503 -75.480618 -115.623260 
1.6521749999999999 -3.020633 60.346624 -86.507140 -124.365638 -2.991357 60.337139 -74.902855 -81.827610 
1.6821600000000001 -3.024908 54.908343 -74.050112 -145.667129 -3.002840 54.877632 -74.807770 -177.813465 
1.7121450000000000 -2.983312 49.402178 -78.411116 172.114503 -2.972541 49.232601 -75.812594 -163.885511 
1.7421300000000000 -2.985988 43.829935 -73.034237 151.238442 -3.000967 43.640977 -73.256175 154.916781 
1.7721150000000001 -2.967060 38.305510 -74.512795 152.765015 -2.971027 38.200778 -76.130190 144.432772 
1.8021000000000000 -2.936825 32.644770 -72.605510 139.662945 -2.952839 32.689172 -76.050464 121.356360 
1.8320850000000000 -2.920286 26.995180 -71.413422 114.437649 -2.931714 27.019857 -78.003649 113.308386 
1.8620699999999999 -2.889199 21.258457 -74.738391 108.406958 -2.904849 21.296041 -73.490253 81.090923 
1.8920550000000000 -2.884477 15.468663 -77.011317 73.075254 -2.879909 15.467913 -87.423319 47.675858 
1.9220400000000000 -2.885666 9.602577 -74.738052 69.409322 -2.872923 9.588366 -78.450231 40.086097 
1.9520249999999999 -2.898420 3.735159 -77.927345 69.162754 -2.888509 3.762658 -85.432130 159.143505 
1.9820100000000000 -2.906137 -2.050379 -75.175466 41.667300 -2.905538 -2.091799 -83.191893 126.182832 
2.0119950000000002 -2.926792 -7.797595 -71.421430 102.947186 -2.922963 -7.801550 -77.653546 68.181947 
2.0419800000000001 -2.939265 -13.597233 -76.990124 59.544635 -2.933024 -13.579720 -75.690560 92.813472 
2.0719650000000001 -2.968493 -19.424881 -77.005208 30.679051 -2.956130 -19.323212 -79.958662 81.907149 
2.1019500000000000 -2.982240 -25.125298 -73.984271 30.103012 -2.967442 -25.188289 -78.161647 93.640120 
2.1319349999999999 -3.013895 -30.945940 -92.391301 46.183317 -2.999116 -30.959522 -76.403030 100.162264 
2.1619199999999998 -3.054137 -36.778932 -82.155908 -11.401141 -3.053458 -36.772482 -73.509189 26.252180 
2.1919050000000002 -3.075532 -42.386477 -79.767175 46.470987 -3.094645 -42.522102 -76.422259 103.461533 
2.2218900000000001 -3.113980 -47.993633 -72.367755 -30.960410 -3.129542 -48.130374 -76.424129 -22.663804 
2.2518750000000001 -3.156253 -53.761299 -72.836988 -20.891600 -3.168796 -53.831730 -82.351596 -46.900747 
2.2818600000000000 -3.188667 -59.616745 -81.383802 28.169370 -3.204013 -59.489843 -76.919768 61.419177 
2.3118449999999999 -3.254326 -65.255052 -79.684410 -100.552642 -3.242211 -65.154797 -87.386739 -6.830670 
2.3418299999999999 -3.310947 -70.837289 -88.388599 -33.474700 -3.289006 -70.617047 -75.435486 -69.529316 
2.3718149999999998 -3.356340 -76.245231 -77.061249 74.041227 -3.350960 -76.230092 -81.366314 -73.101684 
2.4018000000000002 -3.400796 -81.560811 -83.405591 -64.197166 -3.412928 -81.606526 -79.648367 -32.792377 
2.4317850000000001 -3.440059 -86.867585 -88.182493 -177.916191 -3.445952 -87.060728 -76.736823 118.511242 
2.4617700000000000 -3.461520 -92.287487 -80.525681 89.820858 -3.476702 -92.390723 -75.873289 119.534165 
2.4917549999999999 -3.484355 -97.561337 -77.910527 160.342342 -3.501667 -97.732286 -82.205823 178.291044 
2.5217399999999999 -3.509706 -103.013463 -90.548689 -22.324106 -3.518902 -102.925243 -83.147337 172.635357 
2.5517249999999998 -3.530877 -108.366038 -83.086355 -116.797919 -3.549387 -108.315136 -79.908726 -34.630901 
2.5817100000000002 -3.562335 -113.686107 -83.587614 37.950669 -3.578650 -113.419404 -98.623518 -28.170126 
2.6116950000000001 -3.586063 -118.970424 -81.421710 -165.019835 -3.597714 -118.671692 -79.033933 -33.665176 
2.6416800000000000 -3.600379 -124.134897 -82.853064 -76.886953 -3.596715 -124.128112 -84.741841 -102.067221 
2.6716650000000000 -3.648357 -129.460736 -95.688598 -50.004369 -3.631775 -129.443032 -90.554116 84.738979 
2.7016499999999999 -3.674730 -134.565866 -83.816641 -75.599848 -3.667539 -134.665237 -75.873692 -108.207452 
2.7316349999999998 -3.703019 -139.663626 -78.405145 -172.193473 -3.690203 -139.779107 -85.013167 115.145381 
2.7616200000000002 -3.727156 -144.754533 -91.854142 -163.161896 -3.722154 -144.889467 -76.388565 -96.639738 
2.7916050000000001 -3.722697 -149.801335 -80.928461 164.924455 -3.735980 -149.722275 -87.519888 -123.008347 
2.8215900000000000 -3.736970 -154.751652 -85.281746 -15.775751 -3.739417 -154.729167 -89.455697 62.731089 
2.8515750000000000 -3.733599 -159.769829 -91.395140 -7.723224 -3.740764 -159.812601 -73.789439 -91.474475 
2.8815599999999999 -3.747894 -164.784545 -83.422792 22.942976 -3.730123 -164.702235 -76.220314 -133.861031 
2.9115449999999998 -3.730368 -169.649014 -94.222739 -113.744069 -3.720211 -169.745796 -73.627822 75.223988 
2.9415300000000002 -3.718077 -174.642840 -79.928087 -171.240318 -3.715432 -174.657943 -82.936279 159.928419 
2.9715150000000001 -3.699638 -179.544899 -92.535517 33.064030 -3.679410 -179.580679 -76.112008 81.052618 
3.0015000000000001 -3.673976 175.505895 -79.686193 -76.739208 -3.666655 175.504342 -81.931191 -81.534352 
3.0314850000000000 -3.632601 170.488769 -78.028168 -92.099440 -3.629492 170.511050 -81.176013 -75.070476 
3.0614699999999999 -4.286895 168.119897 -84.617188 150.850680 -4.288207 168.036093 -84.195195 -44.647717 
3.0914549999999998 -4.280352 163.011534 -80.956881 -89.671142 -4.287812 163.035430 -79.665470 27.202494 
3.1214400000000002 -4.277340 158.020608 -71.005879 -155.013135 -4.278730 157.921204 -89.413100 -12.243463 
3.1514250000000001 -4.273569 153.097300 -87.782014 -143.903443 -4.276008 153.015314 -78.676784 -141.376542 
3.1814100000000001 -4.257976 148.143199 -75.550922 135.793104 -4.259463 148.083294 -79.338117 90.678411 
3.2113950000000000 -4.246711 143.211069 -87.204031 108.078372 -4.257698 143.203183 -99.692152 -75.542167 
3.2413799999999999 -4.223484 138.164324 -79.915547 -86.560928 -4.256662 138.255293 -73.553748 12.929581 
3.2713649999999999 -4.261587 133.218542 -79.528264 -121.574658 -4.266647 133.187177 -88.068150 102.431221 
3.3013499999999998 -4.266779 128.229130 -85.458483 92.587754 -4.256429 128.288036 -87.073970 -23.988669 
3.3313350000000002 -4.277352 123.421851 -73.212581 -8.901413 -4.285963 123.538352 -78.482765 94.054076 
3.3613200000000001 -4.275062 118.800392 -84.289359 -151.757990 -4.248049 118.845772 -78.703468 -37.442041 
3.3913050000000000 -4.280878 113.800323 -74.638144 125.399303 -4.231605 114.068254 -77.591242 -11.830180 
3.4212899999999999 -4.267916 109.279118 -80.783124 47.111315 -4.256938 109.347568 -73.565485 88.951875 
3.4512749999999999 -4.294619 104.671772 -79.237136 149.529104 -4.271906 104.656238 -76.556280 -149.735096 
3.4812599999999998 -4.285632 100.331489 -82.078282 -38.758477 -4.260804 100.208807 -75.635739 -15.464660 
3.5112450000000002 -4.210392 96.104413 -78.274944 -124.064265 -4.195220 95.917028 -86.153196 -125.040842 
3.5412300000000001 -4.080659 91.398681 -74.368055 -169.020136 -4.107265 91.324392 -74.572757 -32.984595 
3.5712150000000000 -3.969023 86.667916 -79.166467 95.297480 -4.013343 86.456217 -69.893985 28.083620 
3.6012000000000000 -3.935144 82.130529 -74.362880 59.799124 -3.934053 81.842668 -80.947509 75.361000 
3.6311849999999999 -3.876927 77.014806 -78.079769 77.980653 -3.913472 77.184304 -82.092749 -134.200104 
3.6611699999999998 -3.814933 72.727541 -72.911360 -77.018544 -3.817061 72.754434 -82.387329 47.637288 
3.6911550000000002 -3.657101 68.593352 -78.498873 61.334499 -3.660305 68.676642 -75.239156 -4.589664 
3.7211400000000001 -3.390933 63.855516 -75.374122 72.256946 -3.408007 63.944333 -82.558558 16.216991 
3.7511250000000000 -3.125496 58.597046 -82.988273 -140.091886 -3.137544 58.713060 -72.179323 -9.071570 
3.7811100000000000 -2.884946 52.577789 -78.249408 96.141344 -2.885465 52.578239 -72.573694 61.269864 
3.8110949999999999 -2.741268 46.232507 -71.152024 -138.876577 -2.738795 46.354209 -77.988791 155.779274 
3.8410799999999998 -2.666446 40.126935 -67.475442 -73.851882 -2.657974 40.163716 -77.741018 -5.263562 
3.8710650000000002 -2.587492 34.207446 -72.928170 -30.383849 -2.570013 34.100786 -82.325970 129.899694 
3.9010500000000001 -2.451997 27.674733 -76.176168 -24.052912 -2.459767 27.806535 -76.563749 29.428669 
3.9310350000000001 -2.396858 20.977297 -90.675496 116.119686 -2.383881 21.033215 -70.454210 -115.968356 
3.9610200000000000 -2.437738 14.039609 -68.895699 161.859778 -2.428550 14.053073 -82.874359 14.351204 
3.9910049999999999 -2.614478 7.451476 -84.812192 -43.836376 -2.617845 7.463918 -78.212927 79.933239 
4.0209900000000003 -2.837208 1.735853 -76.107595 104.180433 -2.828464 1.719570 -73.970872 -83.553137 
4.0509750000000002 -2.998465 -3.239142 -80.724761 74.161050 -3.010249 -3.221254 -89.634613 109.875834 
4.0809600000000001 -3.096851 -7.882150 -81.605329 40.589035 -3.076570 -7.866166 -71.495017 -82.205518 
4.1109450000000001 -3.084398 -12.751975 -78.856549 -18.245596 -3.086714 -12.786128 -73.088157 132.641549 
4.1409300000000000 -3.062194 -17.912604 -76.696491 -115.037877 -3.068296 -17.925620 -89.685356 140.875591 
4.1709149999999999 -3.062043 -23.176703 -67.187303 119.219448 -3.081573 -23.166834 -79.117418 -167.714011 
4.2008999999999999 -3.085675 -28.283184 -76.606863 -33.960037 -3.087761 -28.194297 -79.737557 40.548283 
4.2308849999999998 -3.058055 -33.108719 -72.671974 -53.245794 -3.035980 -33.150092 -79.070903 -88.586357 
4.2608699999999997 -2.956368 -38.124789 -67.310784 -161.832540 -2.965725 -38.113841 -68.721274 -0.654820 
4.2908549999999996 -2.854522 -43.529705 -76.161901 -56.634920 -2.836827 -43.529265 -83.288601 50.678904 
4.3208399999999996 -2.740295 -49.377382 -72.553712 -136.587110 -2.720042 -49.280682 -79.915876 45.922284 
4.3508250000000004 -2.688374 -55.025741 -70.751946 -146.676958 -2.687900 -55.004664 -70.149959 167.186353 
4.3808100000000003 -2.629829 -60.569530 -69.673085 -2.088376 -2.628878 -60.635542 -79.154068 -94.380440 
4.4107950000000002 -2.518443 -65.865267 -65.753751 -100.241457 -2.550225 -66.053704 -71.707745 -126.163295 
4.4407800000000002 -2.393857 -71.783568 -79.085608 -178.997104 -2.377975 -71.774446 -79.426410 -68.090991 
4.4707650000000001 -2.218624 -77.605367 -82.579001 -61.097726 -2.219687 -77.807166 -73.221597 -127.270900 
4.5007500000000000 -2.058705 -83.945176 -70.606870 -25.132865 -2.051803 -84.214934 -68.147577 6.472675 
4.5307350000000000 -1.897947 -90.735358 -77.826482 51.124768 -1.911511 -90.875974 -71.609182 12.116092 
4.5607199999999999 -1.759246 -97.839420 -70.757411 81.868648 -1.768608 -97.986423 -71.620959 31.033219 
4.5907049999999998 -1.671037 -105.340997 -64.408258 -33.195221 -1.686139 -105.394777 -65.396558 153.999958 
4.6206899999999997 -1.688956 -113.048558 -81.524999 18.381851 -1.709571 -112.967693 -77.463123 156.020356 
4.6506749999999997 -1.820784 -120.540323 -67.278082 -177.313022 -1.825853 -120.560057 -64.683124 -118.893656 
4.6806599999999996 -1.989143 -127.397549 -69.397191 -127.210455 -1.985871 -127.447459 -69.179510 -26.727644 
4.7106450000000004 -2.167624 -133.843100 -69.739870 -88.194376 -2.152303 -133.864152 -73.750758 151.869066 
4.7406300000000003 -2.269004 -140.226695 -78.747923 154.748223 -2.245465 -139.945679 -70.649750 -29.293411 
4.7706150000000003 -2.342765 -146.687181 -69.283066 159.070643 -2.320944 -146.767961 -68.646625 144.775744 
4.8006000000000002 -2.497924 -153.777940 -86.041073 48.411943 -2.521018 -153.791397 -70.646713 132.519910 
4.8305850000000001 -2.820063 -160.275875 -63.765683 84.467383 -2.784191 -160.503704 -67.480170 140.431596 
4.8605700000000001 -3.138609 -165.646031 -73.380101 -69.023552 -3.127832 -165.661624 -74.171536 159.304518 
4.8905550000000000 -3.357111 -169.717708 -74.605253 133.752555 -3.358680 -169.862295 -71.455999 145.753402 
4.9205399999999999 -3.335867 -173.955787 -77.695322 61.240345 -3.344914 -173.933960 -78.298592 60.315624 
4.9505249999999998 -3.153042 -179.517351 -77.415298 39.599780 -3.156037 -179.476949 -75.528772 -148.506817 
4.9805099999999998 -3.110263 173.366446 -78.271150 8.888322 -3.124938 173.203795 -72.163831 9.555425 
5.0104949999999997 -3.344135 166.360142 -76.518744 73.154795 -3.382575 166.096467 -74.458524 1.680579 
5.0404799999999996 -3.764356 160.881021 -75.582327 -10.086496 -3.758530 160.951370 -80.276933 -113.569820 
5.0704650000000004 -4.065116 157.560331 -66.822739 -143.009871 -4.055476 157.574503 -79.556153 -40.969764 
5.1004500000000004 -4.002316 155.196788 -70.742769 -162.522994 -4.015969 155.292731 -64.795497 -102.398842 
5.1304350000000003 -3.621529 151.069603 -82.896911 82.205714 -3.616115 151.010552 -68.857652 -153.513295 
5.1604200000000002 -3.287298 144.213626 -72.128561 59.707439 -3.270619 144.148348 -74.300651 67.975259 
5.1904050000000002 -3.251386 136.636167 -71.209746 -68.568573 -3.255417 136.519971 -73.002422 35.465180 
5.2203900000000001 -3.586882 130.407829 -74.929612 -26.220026 -3.600906 130.368472 -78.644230 47.566388 
5.2503750000000000 -3.813765 126.477670 -78.806177 145.893031 -3.791312 126.641019 -74.992350 22.601791 
5.2803599999999999 -3.629957 123.678282 -69.331143 93.985345 -3.606079 123.579888 -62.394455 33.719389 
5.3103449999999999 -3.094688 118.676025 -68.741029 -25.673003 -3.076007 118.532116 -67.644875 6.724632 
5.3403299999999998 -2.589201 110.400536 -68.833293 -54.558373 -2.578871 110.515836 -82.773617 91.242619 
5.3703149999999997 -2.520671 100.748876 -73.749581 -17.155000 -2.545180 100.522037 -71.118135 -26.794402 
5.4002999999999997 -2.930348 92.293939 -67.755104 60.636573 -2.937967 91.854252 -71.314944 7.766730 
5.4302849999999996 -3.497982 86.435253 -63.555729 53.743120 -3.506443 86.282238 -71.346554 94.168275 
5.4602700000000004 -3.729525 83.084898 -67.009126 100.033252 -3.744143 82.877988 -68.754873 102.789648 
5.4902550000000003 -3.575720 79.162613 -72.118933 142.891311 -3.586819 79.067862 -69.540445 11.221050 
5.5202400000000003 -3.338021 72.501371 -69.595297 -49.995473 -3.378129 72.839421 -68.071407 -56.032263 
5.5502250000000002 -3.421118 64.813641 -71.903776 34.283018 -3.437027 64.744136 -66.117520 176.914607 
