!
! C:\data\cal kit\Siglent Cal Kit\Kirkby Male Attenuator.S2P
!
! Touchstone 1.1 file saved by VNA.EXE V1.60 (www.ke5fx.com/gpib/readme.htm)
! 26/07/2019 10:55:21 a.m.
!
!    Source: HEWLETT PACKARD,8753C,0,4.12
!  Min freq: 3.000000E+006 Hz
!  Max freq: 6.000000E+009 Hz
!    Points: 201
!    Params: S11 S21 S12 S22
!
!!!!!
# GHZ S DB R 50
0.0030000000000000 -14.184527 -3.343070 -81.489210 154.717699 -14.216058 -3.508243 -86.762545 -105.958165 
0.0329850000000000 -14.632488 -11.096897 -82.317263 -131.878766 -14.644101 -11.208129 -77.949824 -35.190055 
0.0629700000000000 -14.528617 -19.003370 -86.157175 92.578933 -14.525789 -18.950181 -80.054092 31.568945 
0.0929550000000000 -14.515336 -27.313630 -89.757212 61.666124 -14.481253 -27.364558 -81.686018 123.326352 
0.1229400000000000 -14.468226 -35.625838 -84.520621 -109.481671 -14.467929 -35.317808 -93.886195 68.455926 
0.1529250000000000 -14.461690 -43.748461 -85.836784 91.264394 -14.462566 -43.789184 -91.747088 -36.543469 
0.1829100000000000 -14.053589 -49.697109 -86.280918 36.659634 -14.038817 -49.871822 -82.087088 74.357337 
0.2128950000000000 -14.050571 -57.943233 -84.717528 145.798874 -14.066865 -57.907095 -82.529829 69.693330 
0.2428800000000000 -14.060817 -66.089040 -97.544109 -134.105562 -14.069920 -66.279680 -81.325592 120.330531 
0.2728650000000000 -14.063120 -74.248600 -89.688628 -29.731547 -14.083395 -74.275207 -92.889416 135.698928 
0.3028500000000000 -14.085937 -82.528900 -79.992789 -108.935364 -14.080851 -82.477548 -98.376322 0.480255 
0.3328350000000000 -14.104111 -90.829287 -81.062261 36.993399 -14.096879 -90.241482 -93.736349 -115.068141 
0.3628200000000000 -14.122840 -98.836546 -82.099566 -87.348932 -14.169652 -98.660894 -83.248524 154.336843 
0.3928050000000000 -14.157540 -106.946911 -84.848945 -99.268845 -14.179393 -107.002587 -76.407739 30.810764 
0.4227900000000000 -14.195741 -115.078764 -79.431657 150.079302 -14.430354 -115.348043 -81.690632 64.121481 
0.4527750000000000 -14.214090 -123.247264 -93.884541 -35.162170 -14.230327 -123.161565 -87.316847 120.140143 
0.4827600000000000 -14.243951 -131.283436 -80.445319 3.403534 -14.250704 -131.280520 -84.531247 139.833433 
0.5127450000000000 -14.290524 -139.398229 -88.552819 24.115061 -14.291975 -139.357159 -96.456483 124.334729 
0.5427300000000001 -14.312349 -147.595000 -75.357215 74.547652 -14.333576 -147.446549 -81.088238 41.864392 
0.5727150000000000 -14.354610 -155.778913 -93.482988 -54.821148 -14.333857 -155.575635 -78.979664 -178.160650 
0.6027000000000000 -14.385416 -163.548425 -79.853529 94.731745 -14.402051 -163.645168 -88.370226 -162.449714 
0.6326850000000001 -14.437335 -171.657781 -85.957418 -119.961447 -14.450877 -171.758940 -94.972538 -152.653692 
0.6626700000000000 -14.453661 -179.660675 -104.093127 108.042986 -14.473815 -179.509494 -79.361504 -136.001295 
0.6926550000000000 -14.497197 172.323639 -78.297934 -106.731843 -14.488748 172.466762 -89.093322 137.991772 
0.7226400000000000 -14.526709 164.409863 -84.182302 -52.397703 -14.508538 164.421554 -90.813899 -149.924588 
0.7526250000000000 -14.543525 156.491498 -86.635306 -72.424297 -14.549469 156.278272 -83.044954 -69.366989 
0.7826100000000000 -14.563451 148.215148 -88.830753 -92.770929 -14.569594 148.245070 -86.618487 -4.061994 
0.8125950000000000 -14.581459 140.121830 -76.902798 -53.203906 -14.582727 140.102633 -89.354433 147.536141 
0.8425800000000000 -14.615384 132.030382 -97.231330 -142.188484 -14.601591 132.040088 -83.277214 -119.917658 
0.8725650000000000 -14.639005 123.883666 -83.661694 113.045221 -14.638611 123.879054 -88.372127 27.742636 
0.9025500000000000 -14.679854 115.733271 -76.801433 -116.107988 -14.638786 115.582165 -81.357656 -50.586803 
0.9325350000000000 -14.657624 107.438752 -87.637723 126.481640 -14.643347 107.478440 -89.466576 119.974985 
0.9625200000000000 -14.661991 99.191788 -94.232865 140.362201 -14.669653 99.190380 -78.657960 111.810918 
0.9925050000000000 -14.717349 90.937553 -76.911365 -109.152960 -14.683837 90.948166 -81.532195 57.697726 
1.0224899999999999 -14.728111 82.747636 -85.370201 -150.600492 -14.734741 82.528080 -85.320328 56.315389 
1.0524750000000000 -14.733311 74.297243 -94.971058 59.212686 -14.734582 74.388973 -81.679334 -60.546463 
1.0824600000000000 -14.775404 65.988618 -84.823601 58.661498 -14.755948 66.124156 -84.322538 23.333663 
1.1124449999999999 -14.769662 57.834520 -90.980859 -12.733507 -14.778367 57.772882 -84.494622 14.740649 
1.1424300000000001 -14.791467 49.339875 -81.941905 152.631570 -14.805463 49.554881 -80.174246 -179.407659 
1.1724150000000000 -14.815655 41.228035 -82.647869 -170.489129 -14.845248 41.367425 -81.449093 114.213951 
1.2023999999999999 -14.841383 33.076177 -83.080635 -12.455866 -14.867591 32.952121 -80.750025 -155.982226 
1.2323850000000001 -14.849324 24.845835 -83.279339 -102.602089 -14.884259 24.837838 -87.515914 -58.060467 
1.2623700000000000 -14.859458 16.550753 -80.731690 35.752007 -14.882672 16.477417 -81.465020 -104.346317 
1.2923549999999999 -14.904901 8.300655 -80.735792 -89.423857 -14.898807 8.456867 -84.669393 -33.540090 
1.3223400000000001 -14.893750 0.189409 -84.960473 -72.309450 -14.906985 0.240765 -87.757787 -133.507574 
1.3523250000000000 -14.930140 -8.031818 -81.534838 -55.733499 -14.911254 -7.938093 -90.282602 162.468053 
1.3823099999999999 -14.920082 -16.030374 -86.999532 172.368263 -14.926535 -15.943720 -75.405151 -138.979939 
1.4122950000000001 -14.949666 -24.250591 -87.692214 -87.059431 -14.938716 -24.041552 -82.251700 -83.944807 
1.4422800000000000 -14.944674 -32.238147 -80.759342 8.722428 -14.905200 -32.235284 -78.813265 -6.986223 
1.4722649999999999 -14.917760 -40.143845 -75.922201 -54.299407 -14.916002 -40.150015 -80.254784 -38.137348 
1.5022500000000001 -14.914716 -48.415181 -81.303587 -88.859100 -14.930055 -48.217414 -77.681649 -61.161131 
1.5322350000000000 -14.935826 -56.145484 -76.307170 -82.159548 -14.945369 -56.138510 -81.053448 -93.662763 
1.5622199999999999 -14.921579 -63.998203 -80.693199 -137.544368 -14.955504 -64.101034 -73.798062 -108.647140 
1.5922050000000001 -14.936304 -71.814300 -73.385967 -92.063694 -14.944170 -72.036184 -75.483091 -117.232419 
1.6221900000000000 -14.874427 -79.924652 -71.226025 -136.082844 -14.927683 -79.653934 -78.468239 179.685074 
1.6521749999999999 -14.944212 -87.666819 -71.633814 171.331626 -14.948523 -87.528710 -74.540894 -132.348905 
1.6821600000000001 -14.952256 -95.622048 -71.717352 143.987863 -14.928648 -95.405891 -72.217956 -154.651580 
1.7121450000000000 -14.996743 -103.231656 -73.469030 140.812142 -14.970457 -103.304207 -74.115550 167.654617 
1.7421300000000000 -15.010961 -111.093884 -72.768604 110.236598 -14.981384 -111.073962 -73.584072 120.472676 
1.7721150000000001 -15.054542 -118.719434 -74.908672 118.038672 -15.020359 -118.632686 -85.784965 98.019644 
1.8021000000000000 -15.060388 -126.084682 -75.917119 126.784523 -15.068209 -126.165250 -74.808513 115.504332 
1.8320850000000000 -15.055800 -133.600349 -76.932601 111.953439 -15.096523 -133.685185 -77.671172 77.350427 
1.8620699999999999 -15.106137 -141.035910 -70.397801 100.565487 -15.121416 -141.347968 -77.118739 116.289650 
1.8920550000000000 -15.134353 -148.910795 -77.683093 5.438622 -15.173007 -148.970442 -75.431078 46.405803 
1.9220400000000000 -15.218563 -156.437307 -76.283470 92.399498 -15.207337 -156.205707 -77.834474 78.230079 
1.9520249999999999 -15.278937 -163.769034 -87.735889 96.996966 -15.266359 -163.975219 -82.065238 170.101486 
1.9820100000000000 -15.347653 -171.230887 -74.340909 67.627141 -15.314481 -171.202679 -75.121728 85.230288 
2.0119950000000002 -15.430446 -178.744531 -72.902980 89.843490 -15.431110 -178.708260 -78.111561 115.226261 
2.0419800000000001 -15.478245 173.981340 -71.496035 75.171062 -15.508711 173.902465 -74.390962 113.850695 
2.0719650000000001 -15.544477 166.576942 -72.701372 29.092896 -15.540172 166.336176 -80.415814 66.019324 
2.1019500000000000 -15.630648 159.243174 -70.086496 9.812902 -15.639010 159.120330 -73.926211 37.263204 
2.1319349999999999 -15.740581 151.688001 -77.734660 46.288478 -15.689854 151.680322 -75.962361 16.430569 
2.1619199999999998 -15.849043 144.111940 -84.079555 41.895225 -15.791405 144.272963 -82.725617 17.987835 
2.1919050000000002 -15.959882 136.612456 -78.949585 87.082343 -15.914199 136.435944 -77.647583 35.155002 
2.2218900000000001 -16.044929 129.113368 -86.617501 87.024225 -16.061151 128.948271 -79.088141 -36.022004 
2.2518750000000001 -16.160371 121.458610 -86.686495 -50.483584 -16.172610 121.369550 -89.966190 131.227189 
2.2818600000000000 -16.288762 113.675588 -81.858607 -162.968024 -16.309424 113.691729 -76.866553 17.961570 
2.3118449999999999 -16.408994 105.823873 -80.401244 -60.131184 -16.425877 105.855471 -75.821023 7.360647 
2.3418299999999999 -16.546308 97.964779 -81.297835 7.836384 -16.552070 98.198685 -83.343989 -55.533882 
2.3718149999999998 -16.680555 89.970169 -82.399269 -145.819103 -16.704997 90.098714 -83.046982 -90.300102 
2.4018000000000002 -16.851246 81.936133 -83.100860 108.952923 -16.852214 81.981342 -80.728643 -127.177690 
2.4317850000000001 -17.022247 73.813396 -88.601190 129.424127 -16.976401 73.881645 -83.260266 -17.126252 
2.4617700000000000 -17.168241 65.536485 -77.268939 -23.750745 -17.146094 65.481807 -83.130960 -16.494906 
2.4917549999999999 -17.336041 57.262358 -85.793521 -35.423351 -17.333460 57.152806 -81.814821 30.401659 
2.5217399999999999 -17.492841 48.734886 -79.775521 -168.813665 -17.494197 48.668171 -78.928710 59.343323 
2.5517249999999998 -17.654779 40.132203 -80.044448 -34.505872 -17.663127 40.110932 -79.912758 -132.820948 
2.5817100000000002 -17.812159 31.405493 -83.754849 -158.592495 -17.841088 31.278613 -77.090024 170.353949 
2.6116950000000001 -17.965591 22.358868 -79.275752 -22.220028 -17.998997 22.397130 -77.670418 6.224845 
2.6416800000000000 -18.135557 13.318976 -78.011547 -49.088612 -18.132836 13.318351 -81.918445 -178.367985 
2.6716650000000000 -18.289933 4.146621 -79.086616 -73.438601 -18.285362 4.090473 -74.137901 -45.428864 
2.7016499999999999 -18.425352 -5.188815 -76.050700 -95.497356 -18.414370 -5.260867 -76.746333 -56.237876 
2.7316349999999998 -18.538830 -14.675583 -90.277174 51.725462 -18.559110 -14.777675 -91.896008 177.646307 
2.7616200000000002 -18.643481 -24.064232 -81.114329 126.037543 -18.654209 -24.112260 -82.520329 177.154410 
2.7916050000000001 -18.726628 -33.644517 -77.315712 -95.656646 -18.741397 -33.607209 -75.065429 146.449472 
2.8215900000000000 -18.777253 -43.125465 -76.296367 -29.546468 -18.775736 -42.913581 -77.265001 -113.168727 
2.8515750000000000 -18.796087 -52.734322 -75.881802 -68.282960 -18.803930 -52.479132 -79.089765 -57.126651 
2.8815599999999999 -18.784718 -62.109948 -90.702247 17.766144 -18.786357 -61.895420 -80.721137 -124.050927 
2.9115449999999998 -18.762006 -71.542268 -82.602733 -91.301953 -18.743294 -71.471757 -82.905598 108.749008 
2.9415300000000002 -18.715314 -80.846358 -81.125795 15.579257 -18.687229 -80.975109 -93.620272 106.941992 
2.9715150000000001 -18.617564 -89.919846 -81.546354 -91.185999 -18.594695 -90.113409 -78.520166 -170.553659 
3.0015000000000001 -18.484230 -99.084186 -84.105734 127.612642 -18.489653 -99.058286 -84.577860 -155.333570 
3.0314850000000000 -18.338439 -108.048502 -77.222823 -177.884871 -18.343274 -108.038004 -76.595159 -67.294926 
3.0614699999999999 -18.846526 -114.351126 -76.402624 128.378032 -18.852806 -114.449809 -72.750823 136.875240 
3.0914549999999998 -18.720781 -123.009399 -80.345962 -176.915533 -18.718637 -123.155504 -78.899601 48.191557 
3.1214400000000002 -18.541282 -131.535485 -81.966906 139.711850 -18.542264 -131.556040 -85.709764 41.590441 
3.1514250000000001 -18.384154 -139.785274 -78.899508 144.446148 -18.394609 -139.929008 -82.601516 -54.378303 
3.1814100000000001 -18.190288 -147.900380 -78.648194 -151.480379 -18.195037 -148.138219 -83.947600 -86.564827 
3.2113950000000000 -17.993370 -156.051951 -75.418815 149.574560 -17.993582 -156.020951 -81.734646 137.983148 
3.2413799999999999 -17.819593 -163.967254 -76.026438 -53.921192 -17.808073 -164.035004 -74.298914 148.938255 
3.2713649999999999 -17.638711 -171.754489 -76.097361 -44.347044 -17.648301 -171.819437 -80.876131 80.642085 
3.3013499999999998 -17.488098 -179.489321 -73.689775 70.844318 -17.474696 -179.480302 -78.473628 22.573453 
3.3313350000000002 -17.301511 173.120566 -84.445601 10.868915 -17.295640 173.067196 -82.432947 179.045299 
3.3613200000000001 -17.141149 165.616660 -82.077816 155.778185 -17.129562 165.584349 -76.497682 83.028885 
3.3913050000000000 -16.988108 157.977054 -79.482519 119.066909 -16.968429 158.076073 -77.916605 137.952006 
3.4212899999999999 -16.864377 150.669288 -80.303339 -100.106956 -16.854358 150.545779 -81.840652 38.640443 
3.4512749999999999 -16.780538 143.432757 -76.583063 53.092658 -16.769479 143.276554 -87.233097 144.098579 
3.4812599999999998 -16.677468 136.422342 -72.726358 118.190643 -16.659102 136.422454 -78.535651 69.759907 
3.5112450000000002 -16.541824 129.642811 -77.439994 -22.776132 -16.564251 129.315295 -82.965809 15.498228 
3.5412300000000001 -16.424593 122.609591 -77.170262 32.403950 -16.438932 122.401761 -76.177446 173.429098 
3.5712150000000000 -16.316757 115.382916 -77.394768 0.929872 -16.372694 115.233602 -80.739800 135.041081 
3.6012000000000000 -16.294802 108.050564 -79.371963 -156.119362 -16.335088 108.028829 -91.877347 -62.005389 
3.6311849999999999 -16.299580 101.007587 -72.212444 108.681674 -16.312418 101.169752 -74.004296 -136.307868 
3.6611699999999998 -16.307761 94.519686 -76.725782 157.344325 -16.304717 94.626997 -84.118660 53.486762 
3.6911550000000002 -16.235854 88.287970 -174.280069 -144.139961 -16.264026 88.430343 -78.194169 177.217926 
3.7211400000000001 -16.101891 81.580991 -73.254587 39.671826 -16.083115 81.813196 -79.088462 110.873873 
3.7511250000000000 -15.950561 74.395150 -75.739540 -128.669627 -15.945437 74.580932 -72.933540 44.308217 
3.7811100000000000 -15.828622 66.404063 -78.977956 -100.643433 -15.814468 66.800717 -78.126725 167.715637 
3.8110949999999999 -15.832213 58.521689 -87.865321 91.127132 -15.856043 58.539838 -76.351463 -64.542587 
3.8410799999999998 -15.906422 50.672010 -79.170146 84.505410 -15.905126 50.834008 -81.022671 -59.066716 
3.8710650000000002 -15.969756 43.256399 -70.960168 171.437472 -15.949372 43.118885 -69.259387 -155.820524 
3.9010500000000001 -15.968664 35.187194 -84.432444 170.839298 -15.934960 35.382686 -73.125742 -102.666465 
3.9310350000000001 -15.999221 26.713050 -73.255541 -74.711986 -15.993026 26.769662 -78.342367 -165.577075 
3.9610200000000000 -16.158117 17.830065 -84.152998 -102.751005 -16.168568 17.881803 -82.548695 -165.198021 
3.9910049999999999 -16.420037 9.365725 -74.570056 -94.056318 -16.402506 9.320309 -79.294632 147.842755 
4.0209900000000003 -16.715397 1.323867 -70.005973 -20.791935 -16.699636 1.148039 -81.607306 42.407585 
4.0509750000000002 -16.930775 -6.182877 -73.503307 108.618334 -16.949006 -6.041211 -80.826470 10.440695 
4.0809600000000001 -17.064773 -13.647563 -76.879848 -51.232893 -17.082512 -13.721027 -71.167920 -6.673750 
4.1109450000000001 -17.121497 -21.931368 -77.685505 29.120188 -17.126290 -21.801994 -70.540205 -76.988160 
4.1409300000000000 -17.175264 -30.697858 -76.340918 77.249999 -17.194316 -30.820478 -72.906910 66.117972 
4.1709149999999999 -17.311938 -39.907849 -78.552018 51.817609 -17.306207 -40.047731 -69.399423 -124.153358 
4.2008999999999999 -17.437177 -49.014309 -71.806150 69.223558 -17.414876 -49.201897 -73.043469 -92.835514 
4.2308849999999998 -17.467412 -58.618432 -71.513056 79.111075 -17.481719 -58.303570 -72.335808 57.245248 
4.2608699999999997 -17.469919 -67.789729 -69.832074 90.540235 -17.492127 -67.655489 -71.529229 156.740532 
4.2908549999999996 -17.452792 -78.142764 -69.613353 57.587042 -17.427122 -78.065320 -85.063441 52.779103 
4.3208399999999996 -17.438653 -88.837898 -70.232274 -5.487918 -17.382358 -88.932741 -81.306363 -140.539711 
4.3508250000000004 -17.479673 -99.408556 -71.090301 -112.026512 -17.431928 -99.765498 -69.976083 68.045603 
4.3808100000000003 -17.504085 -109.922307 -75.313011 -131.289630 -17.493351 -110.011657 -73.962422 -17.656864 
4.4107950000000002 -17.482164 -120.157527 -74.160282 -3.783922 -17.455381 -120.032486 -69.412470 63.431564 
4.4407800000000002 -17.314503 -130.181902 -78.780418 0.931167 -17.311102 -130.079076 -86.720222 122.212842 
4.4707650000000001 -17.137896 -140.365919 -88.032762 24.529689 -17.131667 -140.375462 -67.385822 -24.147110 
4.5007500000000000 -16.946995 -150.834256 -77.064861 98.249377 -16.942961 -150.824456 -70.411796 -144.642010 
4.5307350000000000 -16.722234 -161.068389 -68.860337 177.190566 -16.694861 -161.224911 -80.696550 -26.788449 
4.5607199999999999 -16.507368 -171.045315 -70.751301 53.225486 -16.473166 -171.381382 -68.196537 -145.232978 
4.5907049999999998 -16.237283 178.639314 -70.584067 -51.154833 -16.253976 178.738940 -65.261881 175.184378 
4.6206899999999997 -16.014617 168.524262 -74.273106 177.022483 -16.023201 168.721524 -67.668135 -113.736348 
4.6506749999999997 -15.848184 158.889133 -73.108155 125.954699 -15.854359 159.010006 -67.787567 30.399549 
4.6806599999999996 -15.731829 149.741655 -73.667203 109.603819 -15.722412 150.034118 -69.657897 65.893085 
4.7106450000000004 -15.546172 141.334062 -72.968243 -103.232144 -15.561123 141.318904 -64.648886 -173.653045 
4.7406300000000003 -15.309520 133.304792 -74.490641 102.904008 -15.308583 133.162605 -77.982641 -116.282804 
4.7706150000000003 -14.990642 124.899685 -71.065642 87.459661 -14.991746 124.970697 -70.126643 -151.551550 
4.8006000000000002 -14.729931 116.243218 -71.063867 -10.278096 -14.709547 116.052586 -85.828961 -37.655794 
4.8305850000000001 -14.591557 107.513801 -73.364264 -67.436425 -14.582548 107.264297 -72.569132 -28.133865 
4.8605700000000001 -14.528624 99.949982 -72.096763 99.533518 -14.551008 99.890604 -67.253302 168.796198 
4.8905550000000000 -14.382568 93.601470 -73.051278 -169.557563 -14.390994 93.444244 -84.753146 -64.125443 
4.9205399999999999 -14.022405 87.209339 -69.014629 54.357525 -14.019145 87.219176 -66.856751 163.218102 
4.9505249999999998 -13.478848 79.404679 -65.565989 -57.397193 -13.500397 79.378055 -63.530469 -179.669259 
4.9805099999999998 -13.140593 69.889901 -69.792539 159.634014 -13.140573 69.843461 -75.206739 9.628041 
5.0104949999999997 -13.067079 60.104041 -74.465261 -63.001898 -13.081472 60.190327 -82.546853 -103.106155 
5.0404799999999996 -13.239035 51.804107 -70.313782 13.429969 -13.237481 51.960097 -71.013198 173.374360 
5.0704650000000004 -13.376726 46.029572 -64.097225 -163.893709 -13.398179 46.029219 -67.318808 -87.915600 
5.1004500000000004 -13.233623 40.917403 -67.654409 157.138057 -13.236877 41.082295 -74.410575 -127.500207 
5.1304350000000003 -12.758232 34.436918 -69.640120 147.793626 -12.752333 34.433258 -70.979692 139.612435 
5.1604200000000002 -12.317181 25.820782 -74.814335 22.205027 -12.334743 25.672046 -73.764500 -145.667133 
5.1904050000000002 -12.262935 15.715757 -69.265096 112.913552 -12.286373 15.763072 -72.347607 68.386800 
5.2203900000000001 -12.552668 7.267184 -71.592137 60.146707 -12.550376 7.239092 -68.736133 83.799777 
5.2503750000000000 -12.886339 1.231588 -73.418605 70.188017 -12.902467 1.307261 -66.209042 56.515626 
5.2803599999999999 -12.793114 -3.124623 -72.566426 -17.144742 -12.798651 -3.290951 -78.901680 67.756762 
5.3103449999999999 -12.358102 -9.285824 -70.465528 67.365455 -12.380624 -9.254878 -63.584082 -15.159412 
5.3403299999999998 -11.944524 -18.150606 -72.882236 31.136362 -11.935281 -18.203348 -65.556788 36.345740 
5.3703149999999997 -11.921958 -29.229314 -73.673570 48.319579 -11.873294 -29.211349 -69.450124 -127.113691 
5.4002999999999997 -12.341031 -38.874637 -72.508780 99.628220 -12.359310 -38.750726 -64.634618 117.914071 
5.4302849999999996 -12.933447 -45.389137 -66.029604 101.844290 -12.951246 -45.243015 -70.613076 86.201733 
5.4602700000000004 -13.204803 -49.159742 -66.965955 93.207817 -13.238754 -49.066514 -68.904815 74.715654 
