!
! C:\data\cal kit\Siglent Cal Kit\N_Load.S2P
!
! Touchstone 1.1 file saved by VNA.EXE V1.60 (www.ke5fx.com/gpib/readme.htm)
! 26/07/2019 10:48:47 a.m.
!
!    Source: HEWLETT PACKARD,8753C,0,4.12
!  Min freq: 3.000000E+006 Hz
!  Max freq: 6.000000E+009 Hz
!    Points: 201
!    Params: S11 S21 S12 S22
!
!!!!!
# GHZ S DB R 50
0.0030000000000000 -42.457049 -148.961323 -79.681068 89.654340 -42.330519 -148.880303 -85.168799 137.567775 
0.0329850000000000 -43.609846 123.664811 -76.599576 -46.426573 -43.548594 123.303566 -84.225454 -20.609272 
0.0629700000000000 -44.357857 90.162438 -76.525953 66.005557 -44.300244 90.170329 -89.799578 38.580746 
0.0929550000000000 -44.667185 67.850409 -84.656122 156.745606 -44.662325 68.321819 -86.025622 -11.915163 
0.1229400000000000 -44.575869 52.520272 -82.848959 -145.225108 -44.395197 52.493856 -84.538412 -85.081083 
0.1529250000000000 -44.046114 40.476644 -89.900588 77.550813 -44.190959 40.315631 -87.754066 -30.441767 
0.1829100000000000 -43.317849 32.530911 -83.994793 110.461867 -43.406663 31.987164 -87.587936 103.860766 
0.2128950000000000 -43.107354 23.402523 -88.522517 -27.477963 -42.958920 23.862066 -76.871552 158.956698 
0.2428800000000000 -42.676693 15.216313 -83.575276 146.299660 -42.916756 15.298533 -83.832356 34.125375 
0.2728650000000000 -42.308250 7.047217 -91.499813 -75.262367 -42.351104 7.457731 -91.872275 38.709827 
0.3028500000000000 -42.053466 0.134971 -77.225559 131.038131 -42.079235 0.010417 -77.172272 -106.500528 
0.3328350000000000 -41.866314 -7.677455 -83.885728 -19.625413 -41.830150 -6.989052 -77.673706 -66.334614 
0.3628200000000000 -41.661812 -13.040492 -82.228521 23.314869 -41.704989 -12.912135 -89.292936 114.167167 
0.3928050000000000 -41.442402 -18.880707 -83.546038 172.348923 -41.342212 -19.222483 -81.428793 -127.393254 
0.4227900000000000 -41.187510 -24.888024 -82.531508 -162.560600 -41.067338 -25.563361 -87.628298 16.787556 
0.4527750000000000 -41.013491 -30.942431 -82.887216 -151.257004 -41.053956 -30.750572 -75.854591 -12.997394 
0.4827600000000000 -40.972014 -37.330682 -82.406954 -14.539600 -40.969259 -36.636220 -92.161654 -47.767962 
0.5127450000000000 -40.758641 -42.188654 -86.549224 -54.568847 -40.773007 -42.337266 -85.557010 160.433021 
0.5427300000000001 -40.721470 -47.340195 -86.396308 -44.717900 -40.638495 -47.877823 -80.804409 173.996999 
0.5727150000000000 -40.559184 -52.788319 -92.253219 -167.168006 -40.573645 -52.089561 -86.065792 108.569285 
0.6027000000000000 -40.478334 -57.924235 -90.730783 156.203187 -40.489458 -57.306455 -83.103925 32.582241 
0.6326850000000001 -40.516358 -63.241748 -79.959681 113.068312 -40.437934 -63.375837 -76.865862 178.592308 
0.6626700000000000 -40.486507 -67.744657 -85.691859 121.659879 -40.526725 -67.943079 -88.248876 -98.394222 
0.6926550000000000 -40.537943 -72.367500 -83.756927 44.994181 -40.381569 -73.056573 -84.977619 115.437381 
0.7226400000000000 -40.451824 -77.585443 -89.502337 40.261150 -40.453442 -78.439423 -78.850394 100.653884 
0.7526250000000000 -40.580453 -81.917400 -86.069314 -51.997563 -40.526499 -81.474973 -81.633051 175.766457 
0.7826100000000000 -40.574134 -87.100429 -83.554800 -112.498480 -40.685595 -85.931446 -79.675938 -43.609838 
0.8125950000000000 -40.801014 -90.832920 -102.612066 -153.241530 -40.728131 -90.858644 -82.393938 -1.515720 
0.8425800000000000 -40.919730 -94.624663 -77.346112 49.678603 -40.958019 -94.030192 -76.535511 -110.291503 
0.8725650000000000 -41.145081 -97.873544 -81.382487 -105.092471 -40.983906 -98.308812 -84.788042 -168.433269 
0.9025500000000000 -41.129034 -101.755978 -82.954713 -47.649848 -41.293310 -101.883269 -84.319320 -114.506985 
0.9325350000000000 -41.498854 -104.571702 -84.160049 -114.074790 -41.560315 -104.144096 -82.174832 144.146792 
0.9625200000000000 -41.718537 -107.000645 -82.567085 -79.015782 -41.768027 -106.376875 -84.334289 -117.577616 
0.9925050000000000 -42.079939 -108.082034 -82.544055 -141.827192 -42.005801 -107.886935 -78.078553 -66.460847 
1.0224899999999999 -42.136994 -110.205357 -81.053725 142.601399 -42.195455 -110.008650 -88.211263 91.829633 
1.0524750000000000 -42.363779 -111.282908 -91.420724 163.229381 -42.374932 -111.063164 -87.191639 149.303492 
1.0824600000000000 -42.595292 -111.373905 -76.010302 14.904834 -42.531910 -110.019349 -91.717362 -160.012676 
1.1124449999999999 -42.709046 -111.142682 -86.705192 6.945413 -42.835445 -111.347853 -78.124376 125.600869 
1.1424300000000001 -42.856590 -110.597362 -84.785549 -63.633674 -42.726037 -110.527815 -93.069502 120.318863 
1.1724150000000000 -42.666993 -110.335004 -82.971126 -164.903280 -42.576863 -109.808974 -84.656344 156.468703 
1.2023999999999999 -42.404785 -108.872543 -87.966221 -9.090486 -42.473985 -108.795053 -94.532259 -132.172995 
1.2323850000000001 -42.165520 -107.902267 -79.060519 -11.713040 -42.173758 -107.442881 -82.758759 -177.832452 
1.2623700000000000 -41.785919 -107.507969 -83.938614 49.477037 -41.782927 -107.296090 -83.944167 -35.821155 
1.2923549999999999 -41.252413 -106.353747 -90.452498 26.980834 -41.272625 -107.341573 -85.081391 47.349517 
1.3223400000000001 -40.762261 -107.454913 -81.047988 -23.074634 -40.841029 -106.523384 -78.439858 -113.597416 
1.3523250000000000 -40.176066 -108.479912 -96.649311 -93.085441 -40.146114 -108.209146 -81.629926 -68.886694 
1.3823099999999999 -39.653742 -109.354843 -83.880465 143.726698 -39.623793 -109.141514 -81.523067 -105.687898 
1.4122950000000001 -39.041893 -111.175755 -83.681160 -105.782797 -38.993618 -110.909454 -79.013920 145.194828 
1.4422800000000000 -38.504448 -113.050308 -79.537549 -72.212077 -38.474865 -113.371337 -80.406989 -73.320255 
1.4722649999999999 -37.781654 -115.721740 -90.422917 -50.321681 -37.850235 -116.045149 -93.097837 -178.350962 
1.5022500000000001 -37.293350 -119.174887 -83.395741 -43.721369 -37.305979 -118.884532 -84.391156 49.415787 
1.5322350000000000 -36.766894 -122.035932 -78.884152 -114.886700 -36.766811 -122.333711 -96.535818 -179.808412 
1.5622199999999999 -36.322488 -125.237359 -84.025817 -154.234616 -36.274620 -125.457419 -82.308664 -92.777033 
1.5922050000000001 -35.812523 -129.214166 -81.311956 -90.307825 -35.874934 -128.970574 -85.064263 -74.435668 
1.6221900000000000 -35.458222 -132.726146 -90.652025 -31.424822 -35.402443 -132.724780 -81.886993 147.938112 
1.6521749999999999 -35.016110 -136.572917 -74.025438 178.381880 -35.023201 -136.797597 -71.861785 177.071612 
1.6821600000000001 -34.586653 -140.809853 -75.405158 -159.794268 -34.644824 -140.908786 -74.554302 139.694545 
1.7121450000000000 -34.245800 -145.231634 -74.517767 169.268610 -34.319233 -145.160208 -71.448564 170.317429 
1.7421300000000000 -33.983199 -149.313276 -74.234715 110.261990 -33.967978 -149.594503 -76.242129 124.357611 
1.7721150000000001 -33.681175 -153.757253 -75.670985 135.173297 -33.738169 -153.657173 -72.153956 119.131228 
1.8021000000000000 -33.550220 -157.907411 -74.685630 132.364949 -33.471483 -158.239261 -71.773070 114.605498 
1.8320850000000000 -33.266129 -162.394351 -93.513014 -123.138139 -33.267828 -162.826024 -75.583313 115.520188 
1.8620699999999999 -33.104326 -167.723049 -72.688879 84.366847 -33.101300 -166.957998 -76.670936 106.168020 
1.8920550000000000 -32.986874 -172.223858 -74.859033 71.473174 -32.938747 -171.432202 -76.325172 69.326466 
1.9220400000000000 -32.826502 -176.634242 -76.451231 100.216538 -32.817459 -176.180361 -78.608853 2.969202 
1.9520249999999999 -32.712727 178.951509 -75.320467 85.012121 -32.748581 178.821465 -74.129490 76.803888 
1.9820100000000000 -32.674646 174.041191 -74.282072 80.463567 -32.652376 174.266305 -69.846172 74.231677 
2.0119950000000002 -32.679472 169.535240 -75.630517 83.041795 -32.683112 169.705461 -80.114583 147.464113 
2.0419800000000001 -32.707841 164.859551 -76.311158 100.139296 -32.703108 164.933961 -73.145111 51.525211 
2.0719650000000001 -32.713553 160.534414 -81.428495 1.758949 -32.744276 160.761625 -78.081948 27.168978 
2.1019500000000000 -32.753835 156.201073 -76.245684 63.012414 -32.776635 155.837759 -72.584980 29.440940 
2.1319349999999999 -32.919902 151.373127 -87.185972 145.320129 -32.864225 151.134668 -79.244437 -12.979358 
2.1619199999999998 -33.011497 146.445511 -81.869639 22.210382 -33.058987 146.478957 -78.252212 -0.411916 
2.1919050000000002 -33.185533 142.063340 -76.656771 -17.247971 -33.211773 141.854997 -77.674440 4.754402 
2.2218900000000001 -33.420295 137.326525 -77.481320 18.468287 -33.412589 137.237513 -87.115497 78.618373 
2.2518750000000001 -33.697783 133.203350 -82.630418 -37.145259 -33.662639 132.700817 -81.982773 -48.427702 
2.2818600000000000 -33.973502 128.141741 -78.070854 12.195636 -33.987157 128.792609 -76.957671 -15.561622 
2.3118449999999999 -34.346818 124.005475 -87.514324 96.934791 -34.363198 123.906283 -87.749003 58.435500 
2.3418299999999999 -34.720037 119.637494 -78.411845 -32.103197 -34.810705 119.747856 -86.138763 156.486333 
2.3718149999999998 -35.308867 115.759094 -83.984158 -125.714314 -35.266016 115.500189 -78.710401 -119.934071 
2.4018000000000002 -35.763537 111.345362 -77.541479 128.313959 -35.836031 111.744246 -90.252543 -22.514022 
2.4317850000000001 -36.347722 107.715485 -79.361245 -16.248308 -36.350838 107.140735 -83.799577 18.299053 
2.4617700000000000 -37.066359 103.759236 -90.478219 11.909958 -37.096643 103.176691 -78.405781 -133.886941 
2.4917549999999999 -37.839224 99.640589 -81.171309 128.842914 -37.776854 99.281511 -107.233054 -145.735179 
2.5217399999999999 -38.966266 96.416795 -81.505287 -156.499105 -38.769121 96.885621 -77.423101 -36.041729 
2.5517249999999998 -39.950249 94.061810 -76.512118 2.226205 -39.874267 94.131661 -78.349138 -62.959785 
2.5817100000000002 -41.023878 91.521749 -81.915881 13.062233 -41.058321 92.364617 -77.620199 -113.468799 
2.6116950000000001 -42.860965 90.338013 -87.126527 93.777307 -42.781005 90.581405 -76.523356 -173.463311 
2.6416800000000000 -44.474560 90.208081 -80.862267 -62.421842 -44.678519 90.662498 -79.578446 119.397851 
2.6716650000000000 -46.796206 94.863122 -84.892441 153.884273 -46.572293 93.603574 -81.987808 -81.966663 
2.7016499999999999 -49.485482 106.867905 -81.775057 -28.059392 -49.413681 106.320612 -84.522183 7.861595 
2.7316349999999998 -51.217720 128.093578 -75.004518 -57.952870 -51.232985 126.244069 -83.733061 -90.807022 
2.7616200000000002 -50.995056 155.847903 -77.645359 121.899458 -51.424991 153.205046 -79.490952 -21.844396 
2.7916050000000001 -48.739077 175.898016 -78.013608 -27.110310 -48.947351 177.440963 -77.838439 -66.288097 
2.8215900000000000 -46.319195 -173.411249 -80.537284 -60.064731 -46.248068 -172.637393 -85.327790 35.310412 
2.8515750000000000 -44.108123 -169.765346 -82.899986 -9.557871 -44.070105 -168.748708 -80.394515 141.700885 
2.8815599999999999 -42.362023 -169.167225 -71.475353 -136.586253 -42.421205 -168.772200 -80.605509 -155.684079 
2.9115449999999998 -40.802941 -170.471660 -98.598689 13.178241 -40.816570 -169.285762 -84.517305 -126.390212 
2.9415300000000002 -39.483178 -170.882164 -90.446532 -58.264827 -39.419901 -170.791015 -89.950706 151.825950 
2.9715150000000001 -38.438165 -173.738199 -75.610760 144.528183 -38.349993 -173.872140 -88.796514 -144.418606 
3.0015000000000001 -37.479071 -175.966222 -89.424505 73.586040 -37.371650 -175.428815 -83.048120 111.867278 
3.0314850000000000 -36.576074 -178.644140 -92.758378 -107.830159 -36.568361 -178.087476 -81.799977 -97.632471 
3.0614699999999999 -36.448420 -179.179522 -81.557612 158.629174 -36.581402 -178.908784 -81.637447 140.746500 
3.0914549999999998 -35.812320 178.154129 -78.811267 -35.780900 -35.787201 177.762245 -84.772216 93.111021 
3.1214400000000002 -35.301945 174.446119 -89.901943 91.087912 -35.118804 174.953334 -74.146947 -72.615865 
3.1514250000000001 -34.602786 172.451914 -78.382482 101.275528 -34.629833 171.830752 -81.020180 124.103509 
3.1814100000000001 -34.195157 169.012487 -83.698350 15.140205 -34.104339 168.625381 -76.496732 -122.766918 
3.2113950000000000 -33.662011 166.209718 -71.729858 -133.069388 -33.682471 166.206457 -78.036027 -84.844712 
3.2413799999999999 -33.203602 163.147103 -93.858519 -125.829479 -33.258958 163.298829 -75.712523 161.048384 
3.2713649999999999 -32.840836 160.410822 -76.567898 62.987418 -32.872757 160.501674 -72.877902 34.806099 
3.3013499999999998 -32.456321 156.974501 -77.358207 137.967610 -32.445200 157.047953 -79.648237 150.708684 
3.3313350000000002 -32.115864 154.756162 -75.745072 -173.983602 -32.164306 154.403592 -79.680261 -100.587307 
3.3613200000000001 -31.838022 151.901265 -83.814386 34.117121 -31.819326 151.892180 -80.882164 -159.156371 
3.3913050000000000 -31.491244 149.064397 -86.923442 69.613041 -31.550034 148.714949 -76.557065 30.284555 
3.4212899999999999 -31.181654 146.044724 -81.292172 113.075984 -31.284294 145.926560 -73.539725 3.776827 
3.4512749999999999 -30.998833 142.890126 -76.304962 -55.259137 -30.967450 142.898704 -78.205242 -41.503070 
3.4812599999999998 -30.745546 140.279526 -88.725847 168.543178 -30.754919 140.039009 -72.881667 -50.944201 
3.5112450000000002 -30.548919 137.729034 -85.932068 164.239186 -30.482935 137.626903 -75.401785 -88.604465 
3.5412300000000001 -30.244849 134.791378 -80.177455 78.116280 -30.282997 135.270122 -71.811313 -84.680900 
3.5712150000000000 -30.088947 131.944653 -72.596306 30.354704 -30.038743 131.750870 -71.093317 -15.479367 
3.6012000000000000 -29.880319 128.577831 -75.001283 -47.858415 -29.896279 128.964333 -69.639999 12.835610 
3.6311849999999999 -29.769707 126.429693 -77.222780 110.959600 -29.824011 126.598300 -84.572032 163.271164 
3.6611699999999998 -29.611799 124.436190 -78.066389 177.176489 -29.648991 124.500139 -78.269679 34.034462 
3.6911550000000002 -29.392966 122.959824 -84.580190 1.542641 -29.391612 122.831255 -80.739965 -59.347557 
3.7211400000000001 -29.140048 121.008317 -85.469572 -114.506787 -29.132103 120.638210 -82.432390 147.400361 
3.7511250000000000 -28.827216 118.236962 -82.901754 -165.266755 -28.853570 118.213585 -76.253434 -54.980707 
3.7811100000000000 -28.560373 115.288243 -71.635410 176.301484 -28.588134 115.264445 -83.685631 82.987486 
3.8110949999999999 -28.428920 111.791240 -92.900012 24.967351 -28.346973 111.890013 -80.999411 168.231221 
3.8410799999999998 -28.287074 109.160834 -76.540166 -2.181779 -28.286937 108.557870 -74.183125 151.496789 
3.8710650000000002 -28.139034 106.102108 -73.512391 177.482953 -28.096192 106.306832 -72.559527 -53.783001 
3.9010500000000001 -27.933240 103.513639 -73.346642 -127.446984 -27.909580 103.300254 -78.964647 -80.898049 
3.9310350000000001 -27.702706 100.089884 -75.189620 -176.093387 -27.750217 99.920990 -74.170879 -15.921119 
3.9610200000000000 -27.653533 96.662067 -70.496455 -104.942465 -27.618381 96.180341 -70.662193 -59.770825 
3.9910049999999999 -27.665484 92.684599 -79.237098 112.591748 -27.670383 92.993063 -80.549715 -145.541129 
4.0209900000000003 -27.669320 90.264253 -77.166781 37.289192 -27.690322 90.752315 -76.101613 -80.138058 
4.0509750000000002 -27.651684 88.860677 -71.897186 -166.365385 -27.685648 88.490752 -75.008916 67.311002 
4.0809600000000001 -27.550246 86.076696 -73.377090 117.201844 -27.521910 86.407129 -76.854103 -32.734338 
4.1109450000000001 -27.375475 83.821175 -73.185399 111.755828 -27.297879 83.866153 -81.263970 162.714311 
4.1409300000000000 -27.232494 80.655836 -69.012227 -78.139509 -27.220598 80.673820 -69.609692 -18.287207 
4.1709149999999999 -27.161864 77.640971 -76.104593 177.070897 -27.159340 77.751736 -69.876575 -101.688918 
4.2008999999999999 -27.127547 74.348576 -73.180863 -78.176118 -27.094725 74.850309 -83.763156 89.651062 
4.2308849999999998 -27.072429 71.952788 -74.708278 29.504188 -27.028631 71.979562 -74.674676 9.383621 
4.2608699999999997 -26.992623 68.747853 -71.651789 27.580749 -26.893444 69.220498 -72.823102 28.392762 
4.2908549999999996 -26.986591 65.603960 -78.487323 -71.168658 -26.870394 66.178234 -76.217460 40.703586 
4.3208399999999996 -26.937866 62.232298 -77.342097 -2.443263 -26.966938 62.095254 -71.423778 -177.890676 
4.3508250000000004 -27.045663 59.202010 -73.501575 -27.504686 -27.121547 58.597129 -75.916132 -139.463668 
4.3808100000000003 -27.174527 56.295392 -78.180671 64.986565 -27.220488 56.448438 -87.736533 123.148380 
4.4107950000000002 -27.256959 53.378072 -86.691000 -3.195050 -27.289228 53.832775 -79.672592 176.281092 
4.4407800000000002 -27.280673 51.426228 -77.036281 154.041624 -27.397604 52.188582 -79.445619 -109.842129 
4.4707650000000001 -27.345418 49.071767 -72.271997 70.159226 -27.396848 49.284817 -78.210436 -135.530613 
4.5007500000000000 -27.409144 46.746583 -71.121943 -170.363434 -27.460444 47.025228 -78.156162 53.909677 
4.5307350000000000 -27.420058 45.025417 -74.058904 43.403533 -27.500172 44.754447 -67.063557 147.152098 
4.5607199999999999 -27.594805 43.072951 -86.412074 127.249478 -27.605111 43.053956 -75.856295 -172.542438 
4.5907049999999998 -27.589589 40.254811 -74.126425 -177.943744 -27.650201 39.980109 -71.729249 60.113524 
4.6206899999999997 -27.743901 38.690612 -69.725235 128.331764 -27.759463 37.915026 -61.690252 78.067217 
4.6506749999999997 -27.784104 35.537364 -67.377137 2.937666 -27.831489 36.531738 -75.205673 58.767711 
4.6806599999999996 -28.007235 34.149545 -74.507053 132.856817 -27.941818 34.567367 -74.449020 -78.486386 
4.7106450000000004 -28.092757 33.045968 -69.044450 -33.667924 -28.087906 33.150929 -75.068044 8.521199 
4.7406300000000003 -27.989009 32.010903 -81.462766 -139.518164 -27.969814 31.918978 -71.585477 103.821681 
4.7706150000000003 -27.950144 30.314989 -68.703382 -168.787211 -27.940867 29.964016 -77.147250 -78.751559 
4.8006000000000002 -27.837835 27.574831 -68.184585 -30.597838 -27.761354 28.257704 -69.068008 59.555731 
4.8305850000000001 -27.893891 24.646165 -69.313303 -152.303618 -27.842355 25.606589 -73.524697 10.704532 
4.8605700000000001 -28.030109 24.428448 -70.053600 -119.669399 -27.997257 24.005399 -69.032002 119.622062 
4.8905550000000000 -28.029757 23.393897 -71.752799 -150.704421 -27.922255 23.590114 -71.848369 173.395337 
4.9205399999999999 -27.669099 22.349521 -67.698184 179.792868 -27.674547 22.338566 -74.556655 -129.705100 
4.9505249999999998 -27.228411 19.960141 -72.762867 117.876252 -27.257866 20.044259 -79.035625 163.761258 
4.9805099999999998 -26.929291 15.884066 -85.395134 -10.198969 -26.928002 15.574114 -73.521251 -24.658610 
5.0104949999999997 -26.957830 11.021529 -72.606916 -116.571571 -26.975856 10.855851 -73.524027 -62.728419 
5.0404799999999996 -27.190745 7.526716 -75.042894 161.746603 -27.241420 7.170255 -67.207513 -135.207635 
5.0704650000000004 -27.407140 6.103484 -73.377537 -84.194680 -27.408108 6.421457 -69.039689 -47.362889 
5.1004500000000004 -27.306122 5.393364 -64.511747 79.191665 -27.278485 5.439614 -62.632592 -177.636387 
5.1304350000000003 -26.778242 3.610701 -69.637668 -156.515795 -26.736718 3.790868 -72.214755 175.745592 
5.1604200000000002 -26.325058 -1.390006 -71.860663 166.044880 -26.405003 -1.738818 -73.497103 -85.255646 
5.1904050000000002 -26.208288 -7.909006 -66.745648 -4.664215 -26.354933 -8.430132 -74.820612 64.379356 
5.2203900000000001 -26.585192 -12.675036 -78.590653 -170.819905 -26.527152 -12.829117 -73.093251 77.507995 
5.2503750000000000 -26.859906 -15.174881 -64.607505 -159.219415 -26.853610 -15.208486 -70.791911 39.410421 
5.2803599999999999 -26.800722 -16.166762 -68.180138 -160.822788 -26.790648 -16.266888 -77.620132 -9.583986 
5.3103449999999999 -26.310078 -19.505463 -65.684533 -16.359687 -26.243033 -19.392275 -69.383775 59.790636 
5.3403299999999998 -25.867412 -25.408692 -77.930042 -24.008432 -25.845860 -25.607016 -67.186029 120.102382 
5.3703149999999997 -25.837129 -34.383315 -69.335182 77.760096 -25.887784 -33.467385 -65.378305 33.408136 
5.4002999999999997 -26.362952 -41.233836 -71.392894 36.622991 -26.284523 -41.342769 -64.050735 33.754246 
5.4302849999999996 -26.996561 -44.626470 -72.640270 52.486847 -26.943893 -45.206258 -70.121915 72.882969 
