!
! C:\data\cal kit\Siglent Cal Kit\N_Open.S2P
!
! Touchstone 1.1 file saved by VNA.EXE V1.60 (www.ke5fx.com/gpib/readme.htm)
! 26/07/2019 10:46:42 a.m.
!
!    Source: HEWLETT PACKARD,8753C,0,4.12
!  Min freq: 3.000000E+006 Hz
!  Max freq: 6.000000E+009 Hz
!    Points: 201
!    Params: S11 S21 S12 S22
!
!!!!!
# GHZ S DB R 50
0.0030000000000000 -2.852661 -2.164147 -84.477273 -178.707913 -2.858847 -2.241077 -77.001288 57.954086 
0.0329850000000000 -3.313436 -12.946250 -87.678953 56.039806 -3.315582 -12.907457 -88.228073 -118.218182 
0.0629700000000000 -3.282373 -21.474962 -84.967944 -160.319469 -3.290245 -21.440523 -79.310646 -139.948306 
0.0929550000000000 -3.287551 -30.546056 -78.517939 154.265540 -3.287098 -30.556153 -84.986974 45.360446 
0.1229400000000000 -3.267386 -39.577935 -90.131348 -114.544325 -3.275803 -39.590780 -83.626128 116.805602 
0.1529250000000000 -3.247353 -48.624978 -88.897703 117.369359 -3.247759 -48.639556 -90.673483 162.499231 
0.1829100000000000 -2.824924 -55.455948 -80.965812 25.024387 -2.823645 -55.388267 -81.398163 -89.170085 
0.2128950000000000 -2.816079 -64.566177 -85.307045 -154.673936 -2.794104 -64.576265 -88.347756 53.160233 
0.2428800000000000 -2.819179 -73.752566 -88.112577 96.460752 -2.822020 -73.618515 -82.367534 -83.143755 
0.2728650000000000 -2.836900 -82.813649 -86.174502 -107.183074 -2.836585 -82.855441 -85.012096 -111.184872 
0.3028500000000000 -2.850689 -92.122354 -78.503066 -118.611027 -2.861422 -92.047144 -87.040777 5.573011 
0.3328350000000000 -2.907013 -101.276387 -84.267404 -147.240779 -2.888216 -101.274072 -85.001039 -44.249735 
0.3628200000000000 -2.934486 -110.362388 -75.649170 132.441936 -2.932237 -110.388253 -83.779860 30.481261 
0.3928050000000000 -2.978627 -119.496128 -91.920547 161.077126 -2.972720 -119.459953 -79.674918 49.765332 
0.4227900000000000 -3.027641 -128.508894 -91.646402 -98.180003 -3.030717 -128.439549 -90.918133 67.754522 
0.4527750000000000 -3.088641 -137.412611 -89.568614 -158.296393 -3.083508 -137.420004 -84.878251 -60.773440 
0.4827600000000000 -3.142862 -146.273721 -83.387663 21.402153 -3.136742 -146.285577 -92.024381 -163.283822 
0.5127450000000000 -3.188293 -155.115917 -88.459569 62.060855 -3.190823 -155.085912 -79.914947 6.545363 
0.5427300000000001 -3.206754 -163.965313 -84.652101 -140.964605 -3.211817 -163.989940 -80.116625 16.082378 
0.5727150000000000 -3.258921 -172.677091 -81.340342 78.762843 -3.244100 -172.674277 -79.409780 77.208819 
0.6027000000000000 -3.276803 178.638256 -85.334211 -44.846588 -3.268563 178.603878 -96.724111 -16.841204 
0.6326850000000001 -3.286189 169.911138 -79.715789 -20.931765 -3.277793 169.949478 -91.638743 -150.680761 
0.6626700000000000 -3.284081 161.265646 -82.595257 137.309152 -3.278158 161.206179 -91.810075 -0.315916 
0.6926550000000000 -3.253532 152.478458 -90.037329 -157.426942 -3.269223 152.407222 -88.181630 145.501345 
0.7226400000000000 -3.237375 143.606293 -100.591455 -78.379202 -3.244748 143.728136 -88.977797 -144.794516 
0.7526250000000000 -3.211356 134.788846 -80.345711 53.828433 -3.198779 134.849010 -96.825955 -78.456606 
0.7826100000000000 -3.170619 126.014966 -89.438538 -178.522441 -3.152432 125.850333 -88.451360 72.074925 
0.8125950000000000 -3.117610 116.842722 -78.760670 -34.053976 -3.117069 116.883004 -103.481602 26.844746 
0.8425800000000000 -3.079187 107.603376 -83.418421 104.901053 -3.077897 107.671282 -83.483692 161.434008 
0.8725650000000000 -3.023820 98.538849 -89.214683 15.534171 -3.039578 98.514327 -94.174549 61.832487 
0.9025500000000000 -2.984495 89.174042 -89.491104 -115.486064 -2.983080 89.211159 -80.709354 -139.574052 
0.9325350000000000 -2.947593 79.834589 -84.820776 -136.281792 -2.953860 79.814692 -87.647056 66.993050 
0.9625200000000000 -2.914083 70.465278 -85.564007 -81.657388 -2.915839 70.424821 -85.897020 78.760634 
0.9925050000000000 -2.909759 60.933047 -78.936942 -70.680548 -2.923407 60.888567 -79.392091 149.843124 
1.0224899999999999 -2.913010 51.501344 -73.026041 -45.739780 -2.906991 51.498565 -79.828546 138.378799 
1.0524750000000000 -2.921421 42.011411 -78.057010 -132.362314 -2.923116 42.094026 -83.120152 -10.463980 
1.0824600000000000 -2.954234 32.560885 -79.997711 -74.903772 -2.945973 32.596002 -85.946754 -32.786095 
1.1124449999999999 -2.994075 23.197615 -78.905668 -30.084955 -2.990929 23.239737 -91.627458 -59.966085 
1.1424300000000001 -3.027524 13.976152 -82.953670 -152.756304 -3.031977 13.919601 -86.619829 -143.550430 
1.1724150000000000 -3.080950 4.684556 -83.185470 -135.389852 -3.079381 4.688708 -80.302947 -125.307983 
1.2023999999999999 -3.121964 -4.435398 -102.176576 -33.613061 -3.117803 -4.400626 -94.813333 -178.172938 
1.2323850000000001 -3.160074 -13.501118 -83.745573 21.979233 -3.168579 -13.493870 -83.912807 179.936368 
1.2623700000000000 -3.188163 -22.485706 -106.405028 -84.875764 -3.198178 -22.491190 -84.788749 113.951583 
1.2923549999999999 -3.231322 -31.430531 -80.969781 -155.829605 -3.239473 -31.400922 -91.523701 124.466478 
1.3223400000000001 -3.263830 -40.292275 -83.756123 -167.177221 -3.259799 -40.276407 -83.729176 -76.931654 
1.3523250000000000 -3.299508 -49.268374 -78.624858 -70.129745 -3.293053 -49.328604 -91.550799 119.787416 
1.3823099999999999 -3.321405 -58.046775 -82.503876 27.864112 -3.319473 -57.973161 -85.001703 -171.694873 
1.4122950000000001 -3.343604 -66.825705 -75.632937 128.563443 -3.346920 -66.883431 -79.509063 69.119333 
1.4422800000000000 -3.359831 -75.669058 -80.719253 -85.438927 -3.365091 -75.617646 -76.466263 -94.127327 
1.4722649999999999 -3.368877 -84.313513 -76.328200 -143.110792 -3.370704 -84.304537 -82.378837 176.863142 
1.5022500000000001 -3.375058 -93.103871 -76.078242 -101.350438 -3.394386 -93.136676 -79.768134 -120.991556 
1.5322350000000000 -3.401498 -101.975520 -77.714813 -155.422301 -3.407728 -101.931316 -77.031305 -178.610732 
1.5622199999999999 -3.427471 -110.635906 -74.678103 -117.455798 -3.405273 -110.583607 -81.777630 -158.835747 
1.5922050000000001 -3.447205 -119.225594 -83.455833 -132.470437 -3.447874 -119.180393 -81.204665 -160.508143 
1.6221900000000000 -3.472608 -127.762904 -79.254158 -155.987593 -3.469327 -127.931005 -75.825677 -156.425639 
1.6521749999999999 -3.474564 -136.418588 -74.494215 132.262120 -3.474122 -136.387151 -73.114530 158.365432 
1.6821600000000001 -3.481861 -144.999209 -78.774249 179.942543 -3.475443 -144.984259 -77.846215 168.064164 
1.7121450000000000 -3.512981 -153.670471 -78.970921 121.027813 -3.517603 -153.667081 -72.187970 132.346577 
1.7421300000000000 -3.542731 -162.177808 -80.588444 99.895650 -3.548951 -162.228168 -79.615746 134.035387 
1.7721150000000001 -3.568947 -170.577565 -76.970356 116.525995 -3.562904 -170.498686 -74.122669 96.812267 
1.8021000000000000 -3.595632 -178.970972 -76.923825 86.912894 -3.593395 -178.889244 -76.442349 153.826619 
1.8320850000000000 -3.607125 172.731089 -79.397963 94.485461 -3.601059 172.752201 -71.949524 86.151537 
1.8620699999999999 -3.601049 164.433812 -73.523410 94.401191 -3.606076 164.424571 -81.205577 95.188656 
1.8920550000000000 -3.589328 156.050659 -72.031332 100.958711 -3.596939 156.013869 -77.497093 90.278412 
1.9220400000000000 -3.586411 147.605007 -76.391082 40.922331 -3.574932 147.584263 -72.624726 101.846805 
1.9520249999999999 -3.571954 139.217585 -86.109523 -170.931186 -3.576589 139.131891 -74.130968 98.177100 
1.9820100000000000 -3.540573 130.760382 -71.312245 70.262094 -3.550754 130.710613 -81.993301 48.845649 
2.0119950000000002 -3.500848 122.469381 -72.776791 60.937447 -3.502239 122.391513 -75.866023 81.746854 
2.0419800000000001 -3.455928 113.914649 -76.168492 58.009448 -3.458255 113.944250 -74.513087 75.456763 
2.0719650000000001 -3.387303 105.387396 -75.427903 73.220793 -3.360482 105.272050 -78.141165 15.350788 
2.1019500000000000 -3.329109 96.519510 -77.478623 35.434676 -3.317520 96.374141 -77.000520 -2.920815 
2.1319349999999999 -3.242819 87.560974 -81.718909 70.769498 -3.245262 87.463659 -81.245942 38.482814 
2.1619199999999998 -3.183784 78.546592 -79.590987 11.199310 -3.167397 78.445141 -79.307144 -39.251689 
2.1919050000000002 -3.115385 69.264378 -78.687047 -72.586978 -3.123819 69.248668 -80.456536 -11.564939 
2.2218900000000001 -3.067135 60.068032 -76.322151 -69.336993 -3.067014 60.111565 -83.232838 44.202875 
2.2518750000000001 -3.032386 50.720712 -79.109824 -6.981644 -3.015163 50.730434 -77.002521 -0.882752 
2.2818600000000000 -3.002162 41.290506 -80.253603 89.468156 -2.995620 41.246071 -78.466551 -38.838903 
2.3118449999999999 -2.968638 31.772435 -75.979886 75.273549 -2.966597 31.798829 -86.578892 8.137177 
2.3418299999999999 -2.942042 22.213725 -76.512365 -53.520678 -2.944902 22.186972 -85.977055 77.422127 
2.3718149999999998 -2.945091 12.530668 -76.973835 -75.105084 -2.939803 12.585744 -88.225533 -83.132964 
2.4018000000000002 -2.943981 2.955911 -80.185336 -141.007152 -2.949165 2.960134 -85.901665 146.412117 
2.4317850000000001 -2.962917 -6.660125 -74.062737 -2.593364 -2.964532 -6.696041 -77.970924 -49.728617 
2.4617700000000000 -2.995115 -16.326853 -80.004915 -34.428118 -2.994133 -16.278668 -84.264928 50.973894 
2.4917549999999999 -3.031634 -25.883259 -76.010962 -46.888257 -3.027115 -25.893580 -76.957591 49.811690 
2.5217399999999999 -3.067018 -35.391274 -84.951566 -52.491819 -3.064638 -35.361803 -90.828958 170.628010 
2.5517249999999998 -3.130249 -44.860833 -78.842964 -132.740435 -3.137221 -44.816367 -94.441439 163.109953 
2.5817100000000002 -3.180382 -54.146902 -80.756567 -13.110515 -3.175251 -54.121599 -77.296288 57.395815 
2.6116950000000001 -3.226124 -63.612936 -88.690790 133.391680 -3.228901 -63.541548 -76.768560 -36.796633 
2.6416800000000000 -3.284359 -72.914536 -76.029917 22.970415 -3.281329 -73.006057 -82.520576 106.780950 
2.6716650000000000 -3.355528 -82.265079 -72.054448 -118.651129 -3.351733 -82.195796 -80.436896 114.131135 
2.7016499999999999 -3.408935 -91.346365 -77.496841 -131.617464 -3.418992 -91.389407 -75.166466 -17.343803 
2.7316349999999998 -3.479248 -100.501170 -76.071742 -3.258015 -3.481582 -100.504025 -81.090667 -30.308001 
2.7616200000000002 -3.557783 -109.287809 -79.787961 142.968884 -3.552169 -109.258125 -81.951678 -115.678296 
2.7916050000000001 -3.622005 -118.062655 -85.629616 155.444756 -3.617076 -117.988252 -77.175875 -38.136276 
2.8215900000000000 -3.674860 -126.512731 -78.613801 -64.302438 -3.677208 -126.514228 -84.233388 -83.620668 
2.8515750000000000 -3.714266 -135.062574 -91.374480 87.429391 -3.726928 -134.975316 -82.640559 -28.846400 
2.8815599999999999 -3.723011 -143.461878 -76.062264 32.874441 -3.723496 -143.466197 -96.940019 -2.976407 
2.9115449999999998 -3.744357 -151.946192 -78.918200 -50.091643 -3.735958 -151.990929 -81.208750 -148.031540 
2.9415300000000002 -3.751044 -160.403420 -86.739320 -157.368905 -3.743526 -160.352506 -79.133910 34.435395 
2.9715150000000001 -3.723435 -168.626892 -93.080318 -62.267560 -3.732138 -168.626305 -81.593830 -127.081707 
3.0015000000000001 -3.728128 -176.931312 -78.021877 -111.005043 -3.715216 -176.997643 -85.775012 -2.980943 
3.0314850000000000 -3.687968 174.763455 -74.569477 -90.356381 -3.681221 174.775584 -83.649033 168.940468 
3.0614699999999999 -4.364751 168.928689 -72.984588 -154.461616 -4.361405 168.921229 -77.074075 -84.753159 
3.0914549999999998 -4.356262 160.525052 -77.217573 114.811714 -4.353520 160.586541 -82.197687 -119.268207 
3.1214400000000002 -4.360567 152.198542 -76.332453 -132.119509 -4.361094 152.304431 -76.197487 -108.459340 
3.1514250000000001 -4.363145 144.164038 -82.364388 38.277313 -4.359041 144.126581 -77.407380 156.359742 
3.1814100000000001 -4.323963 135.793297 -87.323112 113.574989 -4.369838 135.881336 -81.062120 20.804757 
3.2113950000000000 -4.337055 127.568244 -80.588814 -129.920216 -4.360308 127.704728 -79.574088 98.756670 
3.2413799999999999 -4.353347 119.396905 -77.661635 -152.975512 -4.346500 119.447617 -84.791848 -163.400494 
3.2713649999999999 -4.348925 111.128016 -94.421324 177.365826 -4.372970 111.158391 -76.424587 -100.866723 
3.3013499999999998 -4.328306 103.051994 -78.341541 -4.312145 -4.372401 103.315718 -87.004230 7.151400 
3.3313350000000002 -4.374627 95.165876 -76.581358 126.075022 -4.356848 95.274161 -74.623385 52.039533 
3.3613200000000001 -4.351163 87.182549 -85.379167 125.512559 -4.321181 87.267123 -86.619117 68.458460 
3.3913050000000000 -4.275645 79.069308 -76.032877 153.975435 -4.243884 79.219967 -81.602255 176.293496 
3.4212899999999999 -4.263291 71.042935 -75.008356 169.720734 -4.210622 71.065839 -82.650397 -139.626913 
3.4512749999999999 -4.161711 62.981659 -79.336708 -103.828094 -4.150840 62.748928 -72.629843 -138.024883 
3.4812599999999998 -4.060892 54.986259 -77.818476 6.813613 -4.077457 54.889097 -74.379986 43.623235 
3.5112450000000002 -3.913367 46.841481 -79.364459 179.732183 -3.911037 46.644996 -70.751823 -97.047969 
3.5412300000000001 -3.706130 38.190777 -75.833842 118.963486 -3.714783 38.031160 -83.401769 -120.831625 
3.5712150000000000 -3.533297 28.919404 -80.375384 -124.285951 -3.532818 28.881664 -86.496020 144.781539 
3.6012000000000000 -3.380902 19.446903 -75.694441 3.484030 -3.392669 19.397604 -75.412684 141.575677 
3.6311849999999999 -3.291009 9.804100 -86.655292 152.047454 -3.296352 9.810193 -74.799572 -130.325480 
3.6611699999999998 -3.217529 0.248184 -79.238757 -51.732292 -3.215852 0.410185 -82.533347 -166.394803 
3.6911550000000002 -3.122761 -9.202873 -91.883578 101.639612 -3.106788 -9.195953 -80.935109 152.472850 
3.7211400000000001 -2.954463 -19.033217 -80.149835 156.828215 -2.944366 -19.015445 -85.286438 116.526458 
3.7511250000000000 -2.813644 -29.555678 -73.747398 101.318491 -2.801438 -29.584990 -76.125887 -173.096667 
3.7811100000000000 -2.749480 -40.658818 -83.013663 11.454430 -2.735527 -40.633521 -78.765456 -159.129059 
3.8110949999999999 -2.834980 -51.870812 -71.209569 -158.778900 -2.826891 -51.983380 -72.439169 -54.556056 
3.8410799999999998 -3.018144 -62.201805 -85.148929 -172.162316 -3.006642 -62.392501 -79.981021 -7.550591 
3.8710650000000002 -3.135013 -72.516231 -83.481860 11.866829 -3.141358 -72.012789 -87.442310 50.355044 
3.9010500000000001 -3.230986 -81.430477 -75.874474 165.603178 -3.229174 -81.855192 -83.171614 -111.944742 
3.9310350000000001 -3.265974 -91.563845 -78.290667 -152.242350 -3.310383 -91.592348 -78.319338 -160.707873 
3.9610200000000000 -3.658645 -101.649060 -95.556802 -131.967099 -3.452140 -101.358405 -83.673598 44.045026 
3.9910049999999999 -3.629048 -110.867456 -90.986027 131.432917 -3.638798 -110.735569 -86.429765 32.491098 
4.0209900000000003 -3.787271 -119.074042 -81.599717 -12.884793 -3.772061 -119.154242 -75.823074 78.904358 
4.0509750000000002 -3.792819 -126.695638 -74.815992 107.091846 -3.824254 -126.898143 -73.578181 16.699050 
4.0809600000000001 -3.645315 -134.572974 -74.414984 42.838140 -3.638443 -134.546999 -74.056787 -23.167204 
4.1109450000000001 -3.378094 -143.036194 -71.840865 -35.091545 -3.363490 -143.156888 -74.436362 -44.406613 
4.1409300000000000 -3.100110 -152.434862 -73.957141 44.604075 -3.121639 -152.496236 -74.903120 -147.418114 
4.1709149999999999 -2.911507 -162.130987 -74.384274 -85.585701 -2.898787 -162.245191 -76.436909 93.627926 
4.2008999999999999 -2.746068 -172.039515 -71.892483 69.293654 -2.763016 -172.111220 -78.553578 -161.072469 
4.2308849999999998 -2.575370 178.339241 -76.674713 31.449019 -2.584744 178.361005 -71.307762 117.032450 
4.2608699999999997 -2.396129 168.443356 -80.155716 169.974650 -2.382691 168.264175 -69.136590 -158.960729 
4.2908549999999996 -2.230158 157.842652 -78.944379 -42.610882 -2.221835 157.684477 -72.818114 -164.594535 
4.3208399999999996 -2.210241 146.771544 -74.573827 -124.041888 -2.194476 146.801922 -83.437401 148.393227 
4.3508250000000004 -2.359955 136.533342 -67.956917 -35.247433 -2.324991 136.297656 -66.177335 -51.734181 
4.3808100000000003 -2.518726 126.934860 -79.407548 1.748748 -2.531374 126.678942 -77.242765 179.726493 
4.4107950000000002 -2.665753 118.096815 -72.445543 126.919263 -2.685380 118.071508 -83.826080 162.075703 
4.4407800000000002 -2.747352 109.519882 -80.930838 -49.552552 -2.773881 109.858110 -75.943743 145.600375 
4.4707650000000001 -2.793253 101.203981 -83.354451 121.288805 -2.800997 101.194421 -74.856153 -61.596238 
4.5007500000000000 -2.873849 92.659156 -72.472980 14.715247 -2.893361 92.723758 -76.476783 -131.070432 
4.5307350000000000 -2.930779 84.763867 -68.452903 123.338524 -2.953869 84.705481 -82.549828 -32.039972 
4.5607199999999999 -3.005410 76.876089 -68.405624 5.527475 -3.011393 77.201873 -69.860510 44.031487 
4.5907049999999998 -2.967602 69.527470 -74.905411 145.011105 -2.944409 69.511170 -70.558771 7.870728 
4.6206899999999997 -2.874618 61.688362 -70.144676 -89.401523 -2.856129 61.913795 -71.753742 147.200652 
4.6506749999999997 -2.793777 53.431593 -70.022631 71.097666 -2.781945 53.423473 -74.658393 33.417363 
4.6806599999999996 -2.790470 45.421095 -69.051073 125.463951 -2.763167 45.577834 -67.060524 73.653803 
4.7106450000000004 -2.710474 38.069212 -73.979274 121.720759 -2.729825 38.096310 -78.783241 105.998667 
4.7406300000000003 -2.528991 30.674072 -73.175597 126.100912 -2.504002 30.722919 -68.261723 165.291541 
4.7706150000000003 -2.222344 22.068129 -69.612766 96.040497 -2.210781 22.314876 -70.640429 -117.599752 
4.8006000000000002 -1.932610 12.635423 -62.225623 133.213450 -1.944715 12.738532 -68.654538 159.203890 
4.8305850000000001 -1.845872 2.515852 -70.373405 -11.480180 -1.833462 2.458223 -70.866029 -101.398267 
4.8605700000000001 -1.884834 -6.970629 -62.824055 -173.821378 -1.894055 -6.938637 -89.476913 -49.289959 
4.8905550000000000 -1.887011 -15.502478 -68.333591 52.775313 -1.891123 -15.631860 -69.218574 161.118708 
4.9205399999999999 -1.714270 -23.839646 -80.127459 10.459054 -1.713497 -24.196475 -73.028136 58.894193 
4.9505249999999998 -1.356980 -34.337547 -68.504585 74.131096 -1.380664 -34.275638 -63.199139 56.756897 
4.9805099999999998 -1.225769 -46.700256 -66.455501 -142.043927 -1.235678 -46.608084 -64.165492 28.951462 
5.0104949999999997 -1.535940 -59.459968 -80.637423 100.767104 -1.516742 -59.631157 -66.409243 -133.034901 
5.0404799999999996 -2.137221 -70.279982 -64.048738 64.411108 -2.134262 -70.324971 -64.993892 -149.763766 
5.0704650000000004 -2.678479 -78.199481 -66.574193 54.370292 -2.689199 -78.282066 -71.743399 -138.337546 
5.1004500000000004 -2.906786 -84.915743 -73.667145 14.064201 -2.885726 -84.629460 -63.897459 88.662616 
5.1304350000000003 -2.778193 -91.285761 -71.924070 143.564751 -2.757451 -92.397742 -72.112800 61.676864 
5.1604200000000002 -2.708074 -102.914785 -75.665478 -115.714273 -2.588487 -102.725542 -66.364506 97.961271 
5.1904050000000002 -2.819358 -114.117225 -75.794623 127.309720 -2.784443 -113.850936 -68.014934 120.019072 
5.2203900000000001 -3.312787 -123.635388 -71.299059 -63.225312 -3.327745 -123.556337 -67.715318 81.635377 
5.2503750000000000 -3.822266 -130.364226 -70.513570 41.752594 -3.791767 -130.591608 -70.446448 9.551573 
5.2803599999999999 -3.821856 -135.817853 -70.068620 120.313629 -3.783012 -135.628802 -69.152410 39.855419 
5.3103449999999999 -3.352207 -142.942339 -70.604526 19.083917 -3.363977 -142.806095 -76.729304 -28.504315 
5.3403299999999998 -2.857531 -153.532746 -73.662177 -129.043544 -2.828267 -153.493429 -66.973160 59.083961 
5.3703149999999997 -2.792805 -166.525279 -63.806378 27.457527 -2.735076 -166.320516 -70.320063 -160.721726 
5.4002999999999997 -3.112161 -178.278391 -83.916063 -161.580940 -3.110714 -178.133517 -68.101590 141.823756 
5.4302849999999996 -3.599332 172.937676 -69.631697 105.879281 -3.623104 172.846017 -65.123176 44.836671 
5.4602700000000004 -3.718901 166.348985 -68.590647 47.440335 -3.740519 166.447142 -75.469769 22.552415 
5.4902550000000003 -3.385746 158.463257 -63.143505 75.814478 -3.389889 158.738256 -66.828090 56.301614 
5.5202400000000003 -3.082232 146.143965 -76.565911 49.698981 -2.963739 147.661426 -63.552603 55.079365 
5.5502250000000002 -2.820444 133.817803 -66.170692 27.666058 -2.902026 134.925742 -61.706334 25.223801 
