!
! C:\data\cal kit\Siglent Cal Kit\N_Short.S2P
!
! Touchstone 1.1 file saved by VNA.EXE V1.60 (www.ke5fx.com/gpib/readme.htm)
! 26/07/2019 10:47:56 a.m.
!
!    Source: HEWLETT PACKARD,8753C,0,4.12
!  Min freq: 3.000000E+006 Hz
!  Max freq: 6.000000E+009 Hz
!    Points: 201
!    Params: S11 S21 S12 S22
!
!!!!!
# GHZ S DB R 50
0.0030000000000000 -2.674432 177.496496 -81.397502 -96.164112 -2.674635 177.527392 -86.694225 69.229607 
0.0329850000000000 -3.212624 166.311208 -85.766564 129.746656 -3.222594 166.303008 -84.627740 -18.298682 
0.0629700000000000 -3.242543 157.368021 -86.594140 33.841844 -3.246394 157.362931 -83.590557 -154.518133 
0.0929550000000000 -3.311885 148.100996 -88.518239 136.770933 -3.302848 148.053715 -81.497748 -107.349788 
0.1229400000000000 -3.361153 138.950196 -102.828902 -91.589140 -3.361997 138.948757 -80.985015 -17.085328 
0.1529250000000000 -3.392058 129.965369 -87.516931 -63.034645 -3.400948 129.943672 -77.842148 118.125856 
0.1829100000000000 -3.027004 123.434450 -74.065430 -178.141478 -3.017517 123.416877 -76.976006 -66.755105 
0.2128950000000000 -3.058662 114.542939 -78.876729 -76.250337 -3.046222 114.549170 -81.875932 12.762116 
0.2428800000000000 -3.081969 105.807716 -86.937010 -172.109740 -3.065180 105.732439 -86.958830 -152.072570 
0.2728650000000000 -3.090137 97.047940 -76.525798 124.247212 -3.077414 96.994888 -87.358803 -105.338976 
0.3028500000000000 -3.072261 88.166686 -83.886153 31.332226 -3.088844 88.155687 -90.735123 -11.443553 
0.3328350000000000 -3.064145 79.247828 -79.805419 3.550425 -3.072071 79.336746 -93.552920 45.430209 
0.3628200000000000 -3.056516 70.540657 -82.120261 -46.248506 -3.066971 70.616571 -89.163174 -170.370901 
0.3928050000000000 -3.047108 61.774424 -79.636327 -13.930994 -3.045806 61.784669 -81.748261 -148.072371 
0.4227900000000000 -2.989478 52.974695 -87.869910 12.771144 -3.002292 53.012996 -78.761233 -54.430910 
0.4527750000000000 -2.954881 44.028744 -85.628715 -10.183493 -2.959837 44.009064 -81.178134 -170.904993 
0.4827600000000000 -2.926975 34.987607 -86.683649 48.187968 -2.926579 34.982794 -85.630091 71.870276 
0.5127450000000000 -2.896713 25.880662 -88.180053 96.357117 -2.900821 25.863959 -86.321328 138.295450 
0.5427300000000001 -2.853269 16.675285 -100.740401 -95.540600 -2.859683 16.627084 -78.147468 73.205609 
0.5727150000000000 -2.847233 7.473888 -90.243929 167.851062 -2.846216 7.487692 -86.255769 158.359444 
0.6027000000000000 -2.838020 -1.719036 -84.512844 163.279447 -2.835936 -1.691952 -95.853909 -12.833319 
0.6326850000000001 -2.849478 -10.933844 -85.941386 41.220943 -2.849478 -10.933844 -79.227926 -145.383152 
0.6626700000000000 -2.849141 -20.077048 -81.349608 68.701860 -2.863794 -20.109821 -82.427100 111.025150 
0.6926550000000000 -2.897978 -29.261353 -78.514343 163.785275 -2.899718 -29.295771 -79.871437 -81.854725 
0.7226400000000000 -2.945022 -38.319053 -84.674805 -4.998801 -2.942823 -38.404597 -78.547317 59.196353 
0.7526250000000000 -2.990050 -47.212521 -82.086833 77.511523 -2.979492 -47.253428 -79.124529 162.544552 
0.7826100000000000 -3.033550 -56.281051 -78.656204 -51.032355 -3.040727 -56.186735 -106.303442 168.829535 
0.8125950000000000 -3.100707 -65.046500 -84.869589 -2.822261 -3.093793 -65.078730 -79.322860 -107.426584 
0.8425800000000000 -3.155846 -73.901932 -80.025955 -117.297481 -3.163156 -73.851336 -79.184248 146.046400 
0.8725650000000000 -3.220169 -82.620467 -89.058385 -1.589963 -3.206010 -82.530534 -91.808606 1.203281 
0.9025500000000000 -3.262831 -91.013258 -76.735452 105.080023 -3.272344 -91.065347 -81.517704 -146.630007 
0.9325350000000000 -3.295446 -99.648426 -98.089450 174.068883 -3.306803 -99.619644 -91.608065 -170.697582 
0.9625200000000000 -3.352222 -108.106349 -87.891194 24.861117 -3.331513 -108.086038 -86.528570 161.945042 
0.9925050000000000 -3.366677 -116.606532 -83.870641 1.546623 -3.359689 -116.635279 -85.390630 92.853781 
1.0224899999999999 -3.384899 -125.062875 -81.942868 -26.799040 -3.384040 -125.147252 -90.288892 96.619336 
1.0524750000000000 -3.399767 -133.504851 -81.786650 -125.525792 -3.381206 -133.539991 -87.077665 -146.751880 
1.0824600000000000 -3.392900 -141.988352 -97.055127 -82.295446 -3.391916 -142.026214 -82.679088 134.688731 
1.1124449999999999 -3.380381 -150.466680 -82.501902 28.082871 -3.377807 -150.473337 -85.305253 76.733260 
1.1424300000000001 -3.354544 -158.985945 -81.926309 -94.566272 -3.357037 -158.971361 -78.760296 53.388809 
1.1724150000000000 -3.316133 -167.587880 -81.867421 -89.121362 -3.317550 -167.630413 -99.360996 -56.537492 
1.2023999999999999 -3.285752 -176.283553 -85.884466 -99.379760 -3.284981 -176.283884 -96.993120 23.191154 
1.2323850000000001 -3.258036 174.963359 -83.254675 -39.405074 -3.258439 174.906935 -81.801561 24.143560 
1.2623700000000000 -3.235111 166.128697 -85.182199 154.111878 -3.237265 166.112124 -92.739213 55.486843 
1.2923549999999999 -3.204285 157.270237 -94.971790 -109.495285 -3.201892 157.252178 -79.396838 -96.409235 
1.3223400000000001 -3.182022 148.329873 -80.570114 -82.410781 -3.167136 148.357860 -77.093864 -97.275070 
1.3523250000000000 -3.154830 139.359982 -87.437812 -6.691486 -3.146850 139.325687 -88.943340 -96.534562 
1.3823099999999999 -3.147459 130.274861 -76.803231 -125.941566 -3.143432 130.298434 -87.074831 -79.602254 
1.4122950000000001 -3.130366 121.205405 -89.735260 -49.554390 -3.146097 121.353598 -91.991644 -163.215585 
1.4422800000000000 -3.146405 112.255261 -83.326753 -110.067620 -3.133790 112.226654 -86.089017 -154.487545 
1.4722649999999999 -3.129566 103.141181 -91.567266 -141.185852 -3.128998 103.135161 -82.191926 175.740779 
1.5022500000000001 -3.116797 94.118969 -100.992111 68.904511 -3.114308 94.032483 -91.895244 -157.089686 
1.5322350000000000 -3.113310 84.825734 -97.196983 -87.303651 -3.121782 84.916236 -87.241279 145.975414 
1.5622199999999999 -3.114717 75.737957 -79.331734 -140.725331 -3.115719 75.723362 -90.799188 16.575369 
1.5922050000000001 -3.110843 66.586915 -76.750144 -74.473680 -3.095697 66.551219 -80.946863 28.154537 
1.6221900000000000 -3.110943 57.241781 -79.400129 -142.089027 -3.091952 57.185732 -80.202761 -149.321767 
1.6521749999999999 -3.106380 48.199934 -77.712265 179.104420 -3.101384 47.991059 -72.512757 -169.459084 
1.6821600000000001 -3.089281 38.991459 -77.812063 -154.938395 -3.085766 38.956652 -72.098077 158.855137 
1.7121450000000000 -3.070245 29.605285 -70.734354 146.169780 -3.078944 29.488908 -73.932276 147.057120 
1.7421300000000000 -3.065135 20.116835 -72.004274 154.958971 -3.070473 20.150951 -71.423070 130.541434 
1.7721150000000001 -3.057567 10.619965 -76.758004 99.007156 -3.069846 10.754251 -75.979453 86.426523 
1.8021000000000000 -3.066882 1.197277 -75.494112 104.737610 -3.068239 1.244770 -71.744970 95.580209 
1.8320850000000000 -3.072470 -8.269935 -73.614189 73.432482 -3.074861 -8.299922 -81.779459 42.621729 
1.8620699999999999 -3.096598 -17.826026 -78.908631 39.203982 -3.091048 -17.874564 -78.205835 67.267819 
1.8920550000000000 -3.101249 -27.371918 -78.063133 22.852124 -3.116764 -27.484206 -80.503032 49.795381 
1.9220400000000000 -3.150955 -37.027222 -101.666200 143.789167 -3.168346 -37.025520 -80.113934 75.579285 
1.9520249999999999 -3.217152 -46.559865 -78.369325 153.375607 -3.233359 -46.376142 -78.759803 152.786147 
1.9820100000000000 -3.285221 -55.960235 -93.411592 127.729649 -3.301633 -55.760277 -81.281735 -2.650415 
2.0119950000000002 -3.378342 -65.150803 -74.131397 169.031273 -3.383406 -64.904664 -77.862944 38.427833 
2.0419800000000001 -3.467767 -74.284460 -75.415557 150.505621 -3.439507 -74.236966 -92.394584 110.431156 
2.0719650000000001 -3.547934 -83.390210 -77.319241 9.404065 -3.510029 -83.263539 -79.068602 123.608168 
2.1019500000000000 -3.612602 -92.149936 -73.588810 84.945064 -3.603398 -92.280134 -78.874187 19.220577 
2.1319349999999999 -3.681893 -100.977754 -79.385188 47.474159 -3.684529 -101.111820 -77.807375 106.435586 
2.1619199999999998 -3.739484 -109.737947 -79.630438 104.975430 -3.766964 -109.854722 -76.244308 6.228834 
2.1919050000000002 -3.801151 -118.303506 -82.436191 18.224975 -3.823147 -118.320070 -79.635976 -29.074884 
2.2218900000000001 -3.841481 -126.891668 -74.148225 24.142821 -3.868666 -126.893372 -90.937007 -22.778769 
2.2518750000000001 -3.898403 -135.386391 -86.387702 -64.018472 -3.923735 -135.340896 -77.975763 50.372158 
2.2818600000000000 -3.947883 -143.849083 -80.037275 -22.505595 -3.951823 -143.795941 -77.561095 -69.981645 
2.3118449999999999 -3.987340 -152.208467 -80.392931 26.692888 -3.971558 -152.088368 -78.052977 -31.454080 
2.3418299999999999 -4.013339 -160.446810 -80.699364 7.062176 -4.007596 -160.439649 -80.732760 45.784956 
2.3718149999999998 -4.022299 -168.679710 -75.980975 43.179119 -4.010158 -168.619335 -80.489066 -86.300982 
2.4018000000000002 -4.010017 -176.841101 -88.383705 -100.409849 -4.000085 -176.811408 -75.642235 -59.432104 
2.4317850000000001 -3.987639 175.004248 -79.097466 -178.381884 -3.984213 174.936805 -85.575568 -55.509025 
2.4617700000000000 -3.960969 166.696452 -77.892952 -28.904628 -3.958314 166.802589 -80.461341 146.011528 
2.4917549999999999 -3.929093 158.445636 -78.920436 115.818143 -3.926583 158.493527 -75.881361 -113.104040 
2.5217399999999999 -3.905154 150.237440 -78.623212 13.578978 -3.890421 150.188928 -76.188003 -46.259316 
2.5517249999999998 -3.869773 141.914072 -78.579778 -57.394803 -3.853939 141.878128 -75.825537 -52.683955 
2.5817100000000002 -3.849051 133.611364 -83.560826 -83.528404 -3.803611 133.571666 -79.259766 -2.199736 
2.6116950000000001 -3.786424 125.247872 -79.252839 31.876051 -3.775402 125.008393 -82.341964 126.783811 
2.6416800000000000 -3.729199 116.745243 -85.495880 -49.611193 -3.743996 116.652896 -81.390515 174.263985 
2.6716650000000000 -3.665302 108.272205 -79.013786 -25.232247 -3.694821 108.167587 -77.801066 -147.741684 
2.7016499999999999 -3.626795 99.658283 -78.561188 168.603167 -3.633707 99.722640 -74.467524 -151.342324 
2.7316349999999998 -3.555280 91.005824 -80.393958 167.436793 -3.590143 91.126205 -84.686208 18.658387 
2.7616200000000002 -3.504931 82.309696 -80.441550 153.760354 -3.529601 82.261197 -100.799526 -112.822162 
2.7916050000000001 -3.499113 73.357130 -75.232151 -29.959879 -3.485994 73.524668 -75.109143 -128.887981 
2.8215900000000000 -3.481155 64.586150 -83.711681 -147.507600 -3.434415 64.628754 -76.019726 -130.623389 
2.8515750000000000 -3.445116 55.799429 -84.564967 -6.992247 -3.418654 55.764326 -79.296687 -23.995466 
2.8815599999999999 -3.394956 46.774068 -75.759742 -20.174264 -3.382387 46.736812 -76.373481 148.456602 
2.9115449999999998 -3.373054 37.889907 -78.819684 -73.044125 -3.358117 37.705902 -79.041655 141.033911 
2.9415300000000002 -3.340092 28.725050 -82.263054 -97.781883 -3.362699 28.645400 -73.843890 -172.194421 
2.9715150000000001 -3.338766 19.591461 -79.234862 112.061635 -3.344107 19.492205 -82.128670 136.925882 
3.0015000000000001 -3.325958 10.406678 -81.725463 107.454356 -3.329479 10.478770 -83.269412 -133.528662 
3.0314850000000000 -3.316536 1.303928 -73.392169 -69.345203 -3.307303 1.279512 -84.422614 -25.286375 
3.0614699999999999 -3.995624 -5.275678 -94.126915 139.887632 -3.999739 -5.222528 -73.493684 66.975532 
3.0914549999999998 -4.006710 -14.346335 -75.960805 8.951861 -3.998111 -14.389030 -81.495485 -147.823420 
3.1214400000000002 -4.002764 -23.585887 -83.070878 16.045600 -4.015083 -23.524468 -77.587450 3.546265 
3.1514250000000001 -3.995431 -32.589944 -75.991149 75.270700 -3.980453 -32.523571 -78.409096 -173.989136 
3.1814100000000001 -3.953276 -41.781415 -77.420218 -93.783691 -3.953022 -41.700488 -83.155547 175.424730 
3.2113950000000000 -3.929189 -50.981741 -73.614276 -42.511588 -3.916007 -50.878985 -79.090852 103.099077 
3.2413799999999999 -3.900155 -60.218421 -86.539972 -118.128863 -3.876898 -60.192767 -85.057879 -125.786201 
3.2713649999999999 -3.834337 -69.587155 -80.878934 -30.788373 -3.837541 -69.364369 -75.223405 158.567255 
3.3013499999999998 -3.830532 -78.841437 -75.721834 166.109277 -3.803419 -78.860092 -82.857685 -85.237094 
3.3313350000000002 -3.766446 -88.019488 -78.633484 141.554943 -3.743372 -88.143197 -82.381124 -105.256596 
3.3613200000000001 -3.681907 -97.620418 -79.471558 171.931533 -3.684974 -97.690540 -87.474977 16.203979 
3.3913050000000000 -3.626250 -107.431780 -78.231223 -149.554946 -3.665236 -107.367382 -74.405815 -33.960556 
3.4212899999999999 -3.654076 -117.153389 -85.487780 -167.507340 -3.640482 -117.292791 -80.889511 -126.824502 
3.4512749999999999 -3.703467 -126.756338 -79.760051 15.699268 -3.708987 -126.743406 -76.661756 -15.766526 
3.4812599999999998 -3.762994 -136.093620 -77.248638 145.461594 -3.776511 -135.964486 -70.256207 -154.984623 
3.5112450000000002 -3.837129 -145.044073 -89.122348 123.021251 -3.831625 -144.973240 -74.548709 154.397134 
3.5412300000000001 -3.896655 -154.030145 -81.771306 -54.934218 -3.908202 -154.011327 -74.927979 -153.527583 
3.5712150000000000 -3.991298 -163.060510 -79.615463 -166.815134 -4.000555 -163.070876 -81.550549 90.931370 
3.6012000000000000 -4.133681 -171.657370 -77.655635 102.479675 -4.149036 -171.688093 -79.752851 -157.043575 
3.6311849999999999 -4.305691 -179.730172 -72.898352 116.369516 -4.298577 -179.564037 -79.538080 -140.715291 
3.6611699999999998 -4.390571 173.125222 -76.592779 82.416800 -4.395775 173.167825 -77.691169 140.509916 
3.6911550000000002 -4.388088 166.260358 -80.201483 87.817129 -4.380220 166.243235 -74.812180 -99.970964 
3.7211400000000001 -4.255531 159.172716 -81.518599 -105.144303 -4.263462 159.213931 -78.942803 -10.909654 
3.7511250000000000 -4.080988 151.575724 -83.798523 110.069376 -4.080604 151.653397 -73.406275 96.930462 
3.7811100000000000 -3.906609 143.442099 -77.278733 71.331153 -3.918602 143.516659 -96.702248 -167.021801 
3.8110949999999999 -3.790823 135.434240 -74.668362 17.445549 -3.808565 135.402540 -80.317562 133.379521 
3.8410799999999998 -3.679127 127.443047 -81.590570 -29.442508 -3.685202 127.443445 -83.086746 -165.143909 
3.8710650000000002 -3.490188 119.624951 -67.408250 -118.660183 -3.498752 119.663114 -72.648514 39.666541 
3.9010500000000001 -3.245914 111.159731 -77.893078 -103.946888 -3.255989 111.409346 -81.595173 147.241813 
3.9310350000000001 -3.035645 102.143601 -70.105437 167.328624 -3.009368 102.172122 -73.581529 -156.109343 
3.9610200000000000 -2.915026 92.701183 -74.473501 65.354092 -2.910372 92.729102 -76.185117 -68.966060 
3.9910049999999999 -2.870452 83.160802 -70.769480 -57.023814 -2.914523 83.229293 -70.814015 -38.519038 
4.0209900000000003 -2.916635 74.292168 -78.189112 -102.606804 -2.934345 74.264376 -72.649314 -137.540292 
4.0509750000000002 -2.942267 65.654122 -72.473870 -94.442892 -2.947421 65.711468 -79.132816 171.982714 
4.0809600000000001 -2.913449 57.102123 -76.242079 53.487381 -2.930423 57.198819 -74.558491 65.062655 
4.1109450000000001 -2.903012 48.307434 -77.383221 -115.725291 -2.893248 48.224235 -81.696216 160.758443 
4.1409300000000000 -2.915976 39.300079 -82.681041 -159.071830 -2.919934 39.213989 -87.449999 16.274095 
4.1709149999999999 -3.003944 30.309440 -76.658746 -145.405271 -2.995261 30.338886 -72.260624 -160.085717 
4.2008999999999999 -3.084148 21.956086 -77.137829 85.709626 -3.093171 21.807901 -69.697955 -91.943033 
4.2308849999999998 -3.138321 13.613842 -75.957672 -52.347396 -3.135268 13.696739 -83.683085 33.298367 
4.2608699999999997 -3.147793 5.356371 -67.951181 174.251639 -3.129893 5.325171 -75.415558 -15.614019 
4.2908549999999996 -3.127948 -3.159809 -84.337803 40.879389 -3.123503 -3.052816 -67.908779 -67.276802 
4.3208399999999996 -3.102585 -11.983395 -79.447186 48.151237 -3.099913 -11.982207 -71.951895 122.903489 
4.3508250000000004 -3.138938 -20.657680 -71.240625 -116.689010 -3.116602 -20.693163 -90.092230 110.158823 
4.3808100000000003 -3.121794 -29.097417 -74.456510 119.195002 -3.111621 -29.094458 -69.855685 -80.624546 
4.4107950000000002 -3.059852 -37.804527 -73.402733 61.329140 -3.044925 -37.521363 -76.611931 116.481031 
4.4407800000000002 -2.896425 -46.290971 -66.724722 29.023666 -2.892874 -46.475078 -72.233913 -92.105976 
4.4707650000000001 -2.714276 -55.786272 -71.402975 -120.279960 -2.712488 -55.730713 -81.776595 48.364831 
4.5007500000000000 -2.536374 -65.632393 -82.388253 31.282772 -2.554020 -65.491965 -71.228505 -120.426905 
4.5307350000000000 -2.364639 -75.801178 -79.015989 99.233598 -2.363487 -75.902518 -75.485776 152.564128 
4.5607199999999999 -2.235333 -86.591834 -72.766777 127.264919 -2.217473 -86.666678 -71.121714 -37.018277 
4.5907049999999998 -2.123332 -97.965276 -71.684176 -92.226028 -2.118677 -98.150301 -74.778313 -37.496120 
4.6206899999999997 -2.150964 -109.950190 -81.818039 -120.505700 -2.152607 -109.887403 -67.336819 -17.197682 
4.6506749999999997 -2.326975 -121.565878 -78.818307 7.634533 -2.299898 -121.354925 -65.522023 -121.100075 
4.6806599999999996 -2.532128 -132.516915 -71.643974 1.651022 -2.546252 -132.602464 -71.659932 -64.722085 
4.7106450000000004 -2.741404 -142.894197 -63.281324 95.494422 -2.752749 -142.659590 -67.797708 -139.826637 
4.7406300000000003 -2.906043 -152.783705 -72.373364 4.950614 -2.900219 -152.992710 -76.413461 113.577294 
4.7706150000000003 -3.047922 -163.202748 -70.002509 85.599015 -3.060667 -163.231909 -75.236070 45.432560 
4.8006000000000002 -3.257759 -173.754213 -67.907501 35.940478 -3.290963 -173.578581 -81.288375 168.694439 
4.8305850000000001 -3.563300 176.384541 -69.516480 163.913243 -3.578792 176.288132 -71.091284 -138.133844 
4.8605700000000001 -3.915869 167.852532 -70.833413 58.756951 -3.922317 167.815275 -82.217797 106.129711 
4.8905550000000000 -4.084958 160.444624 -67.865825 -2.928103 -4.091907 160.348064 -77.868948 -115.272859 
4.9205399999999999 -4.016617 153.094724 -69.358677 16.295705 -4.006847 152.809823 -77.607150 -178.667856 
4.9505249999999998 -3.772477 144.177055 -67.392344 110.379811 -3.782871 144.087482 -64.879816 70.548835 
4.9805099999999998 -3.631597 133.688913 -69.713988 -21.755314 -3.622036 133.904280 -69.978886 -9.830275 
5.0104949999999997 -3.755991 123.504731 -69.710171 -156.298408 -3.755666 123.361265 -65.270311 -150.912531 
5.0404799999999996 -3.980804 114.521763 -75.252492 111.497598 -3.992059 114.418752 -72.893921 102.454846 
5.0704650000000004 -4.180110 107.326344 -70.967342 -51.619453 -4.189030 107.460467 -68.202114 -66.318334 
5.1004500000000004 -4.079965 101.034578 -74.901088 -160.870792 -4.091380 100.955123 -67.764289 130.323743 
5.1304350000000003 -3.573368 93.114849 -63.889323 -86.417166 -3.594219 93.016402 -69.052077 -173.637352 
5.1604200000000002 -3.193739 82.574257 -71.821625 106.454932 -3.178201 82.607938 -64.568198 169.099742 
5.1904050000000002 -3.083554 70.884480 -65.485956 -59.424228 -3.081493 70.936686 -74.206605 76.066319 
5.2203900000000001 -3.341664 60.522460 -66.479647 132.455810 -3.328337 60.294888 -69.371600 -161.271996 
5.2503750000000000 -3.618417 52.250625 -67.634515 85.585050 -3.607970 52.092723 -61.758014 79.834463 
5.2803599999999999 -3.543886 45.358850 -75.687518 -50.900731 -3.531513 45.336059 -69.101349 -148.505572 
5.3103449999999999 -3.183211 37.096417 -64.790202 25.891653 -3.182116 36.980369 -67.802864 -33.632508 
5.3403299999999998 -2.856002 26.153303 -66.143596 63.403970 -2.848212 25.987596 -67.867346 1.607505 
5.3703149999999997 -2.895371 13.409453 -68.280355 -18.070722 -2.920685 13.509725 -68.007433 39.881423 
5.4002999999999997 -3.438805 1.977353 -74.666156 -14.535447 -3.448177 2.067966 -72.589000 71.617395 
5.4302849999999996 -4.114511 -6.017384 -71.301363 100.499243 -4.125725 -6.039323 -75.992196 26.100508 
5.4602700000000004 -4.523070 -11.277606 -64.001934 61.388681 -4.532523 -11.371185 -68.744109 40.695569 
5.4902550000000003 -4.457597 -16.729457 -68.838301 73.092627 -4.471171 -16.786954 -66.790347 -43.185653 
5.5202400000000003 -4.219764 -24.401144 -86.583619 -39.757459 -4.214582 -24.338867 -65.383208 98.507541 
5.5502250000000002 -4.143153 -33.713505 -68.215372 37.262975 -4.138373 -33.872030 -69.990855 74.998218 
