!
! C:\data\cal kit\Siglent Cal Kit\Open_Port_No_Adapter.S2P
!
! Touchstone 1.1 file saved by VNA.EXE V1.60 (www.ke5fx.com/gpib/readme.htm)
! 26/07/2019 10:50:25 a.m.
!
!    Source: HEWLETT PACKARD,8753C,0,4.12
!  Min freq: 3.000000E+006 Hz
!  Max freq: 6.000000E+009 Hz
!    Points: 201
!    Params: S11 S21 S12 S22
!
!!!!!
# GHZ S DB R 50
0.0030000000000000 -2.858022 -1.691399 -80.955828 58.391410 -2.854286 -1.702821 -78.540658 54.584188 
0.0329850000000000 -3.308588 -7.592276 -77.975933 33.776345 -3.309660 -7.655194 -85.200786 179.242525 
0.0629700000000000 -3.285160 -11.488128 -83.803641 169.190794 -3.281754 -11.470544 -86.405187 -117.842295 
0.0929550000000000 -3.277597 -15.784964 -83.794424 -61.861246 -3.274127 -15.744064 -77.912338 -163.630156 
0.1229400000000000 -3.268043 -20.018801 -87.441514 -154.440038 -3.273192 -20.014895 -78.839402 -164.674624 
0.1529250000000000 -3.243155 -24.219873 -98.003113 -80.012772 -3.243155 -24.219873 -86.720164 171.188051 
0.1829100000000000 -2.810766 -26.101405 -84.296587 -167.242822 -2.809464 -26.107955 -84.681410 -139.472723 
0.2128950000000000 -2.805931 -30.407870 -92.417537 59.860045 -2.808045 -30.393642 -85.680734 3.094671 
0.2428800000000000 -2.796870 -34.671809 -83.761593 -56.222751 -2.791920 -34.663893 -86.534360 -148.226495 
0.2728650000000000 -2.783750 -39.021755 -80.472852 -77.042889 -2.779924 -39.026113 -81.013159 17.662796 
0.3028500000000000 -2.768919 -43.384210 -88.297659 -66.304550 -2.760555 -43.418057 -88.592221 136.810448 
0.3328350000000000 -2.771041 -47.727769 -80.555910 58.101954 -2.779552 -47.657146 -86.434123 165.533766 
0.3628200000000000 -2.783298 -52.027196 -80.440186 -108.721102 -2.773451 -52.108341 -87.347686 151.567368 
0.3928050000000000 -2.785153 -56.417525 -96.092298 118.150945 -2.781374 -56.497639 -80.839605 -136.130539 
0.4227900000000000 -2.785822 -60.871439 -81.352656 114.709813 -2.782522 -60.867015 -90.506822 -172.950421 
0.4527750000000000 -2.795038 -65.289727 -84.852936 -73.100582 -2.811685 -65.199202 -80.561406 -32.076340 
0.4827600000000000 -2.834358 -69.581508 -85.441417 125.274691 -2.838002 -69.611360 -90.429835 -105.789282 
0.5127450000000000 -2.867937 -73.982768 -80.798810 102.952169 -2.866656 -73.926984 -84.120914 105.704150 
0.5427300000000001 -2.870701 -78.172754 -85.979671 148.252905 -2.900160 -78.329021 -77.076894 68.316910 
0.5727150000000000 -2.921489 -82.493666 -87.569320 -76.652404 -2.901260 -82.491527 -81.004288 -102.022797 
0.6027000000000000 -2.929963 -86.786333 -90.564877 -85.484317 -2.975259 -86.762109 -78.543868 -138.361216 
0.6326850000000001 -2.986221 -91.035754 -80.501340 158.048265 -2.991136 -91.016598 -84.563035 177.860941 
0.6626700000000000 -3.045810 -95.144075 -85.759349 57.542785 -3.037226 -95.136489 -83.710632 -113.582258 
0.6926550000000000 -3.089196 -99.394635 -80.957345 37.161601 -3.051369 -99.285461 -76.945829 -22.836570 
0.7226400000000000 -3.088950 -103.437694 -78.779440 -147.772470 -3.132273 -103.382395 -79.286045 57.153497 
0.7526250000000000 -3.143398 -107.516997 -86.256750 49.488155 -3.132605 -107.307948 -90.804147 -8.541110 
0.7826100000000000 -3.172424 -111.524450 -88.200141 15.962723 -3.172608 -111.411218 -79.620430 -110.498411 
0.8125950000000000 -3.204489 -115.529123 -95.071422 7.494290 -3.189602 -115.535411 -83.461950 -28.615287 
0.8425800000000000 -3.241909 -119.416967 -81.466549 -30.454528 -3.235900 -119.569543 -83.660751 151.773939 
0.8725650000000000 -3.260456 -123.467717 -82.927852 93.896019 -3.248800 -123.468717 -80.927352 77.506483 
0.9025500000000000 -3.263495 -127.509452 -87.380139 9.906336 -3.256151 -127.363399 -93.695922 -111.748177 
0.9325350000000000 -3.277902 -131.338745 -79.999246 118.738891 -3.275209 -131.343492 -82.573577 -99.522255 
0.9625200000000000 -3.293352 -135.281810 -87.839404 113.409375 -3.274441 -135.326259 -80.886646 174.856503 
0.9925050000000000 -3.286926 -139.215126 -78.659778 154.466584 -3.285323 -139.308454 -90.734131 -70.676580 
1.0224899999999999 -3.287590 -143.262344 -89.855178 140.435372 -3.283878 -143.255145 -86.009594 -27.042672 
1.0524750000000000 -3.289585 -147.204476 -93.059669 -15.248807 -3.287494 -147.225502 -86.187460 -45.184628 
1.0824600000000000 -3.290481 -151.142105 -90.065703 139.642134 -3.292452 -151.181591 -85.970414 -94.810167 
1.1124449999999999 -3.268583 -155.197642 -89.143811 -91.972826 -3.279961 -155.129187 -78.472505 103.534311 
1.1424300000000001 -3.265890 -159.119361 -88.054887 -6.477530 -3.263518 -159.092630 -91.918659 68.554229 
1.1724150000000000 -3.243835 -163.190291 -78.119879 168.054238 -3.236158 -163.163169 -88.477753 179.124779 
1.2023999999999999 -3.220425 -167.261532 -93.009631 -84.527313 -3.220171 -167.254124 -79.339502 -47.741217 
1.2323850000000001 -3.212264 -171.359478 -81.832152 -106.109760 -3.209033 -171.421569 -83.215998 145.150412 
1.2623700000000000 -3.200565 -175.514059 -76.102703 -34.470205 -3.192785 -175.538348 -78.301546 -120.604917 
1.2923549999999999 -3.184809 -179.583705 -85.503190 2.260948 -3.181017 -179.614150 -82.903176 -110.319096 
1.3223400000000001 -3.170772 176.264337 -83.118041 -38.950726 -3.165770 176.261448 -76.548868 -17.145549 
1.3523250000000000 -3.159539 172.070552 -95.448227 157.795525 -3.156965 172.039900 -99.295527 -78.480184 
1.3823099999999999 -3.153877 167.908580 -78.689274 -171.063637 -3.150842 167.887163 -76.709405 -122.247036 
1.4122950000000001 -3.159952 163.760522 -78.346760 163.159970 -3.159419 163.748453 -87.300294 79.267767 
1.4422800000000000 -3.163416 159.558244 -83.086213 -110.118388 -3.166452 159.561528 -80.696357 -40.280219 
1.4722649999999999 -3.172243 155.458888 -78.194334 -91.432269 -3.163445 155.410660 -84.955662 -46.886870 
1.5022500000000001 -3.170073 151.266119 -91.159102 116.616803 -3.175632 151.312104 -83.755538 -41.002455 
1.5322350000000000 -3.172169 147.103718 -83.998840 160.036397 -3.170924 147.091028 -97.971444 65.035427 
1.5622199999999999 -3.176134 142.967279 -81.788811 59.061882 -3.179200 142.989913 -80.228199 121.577065 
1.5922050000000001 -3.188779 138.852784 -90.435335 -159.365259 -3.189775 138.914052 -91.599876 -17.877451 
1.6221900000000000 -3.168386 134.964390 -87.947384 -34.146787 -3.176972 134.789674 -75.687344 -148.673528 
1.6521749999999999 -3.201363 130.727695 -82.506821 -157.204619 -3.191262 130.746990 -79.763090 -138.557921 
1.6821600000000001 -3.201508 126.640877 -80.097708 -171.771295 -3.210668 126.707944 -76.655006 -140.567246 
1.7121450000000000 -3.204072 122.446564 -74.817478 -164.570254 -3.207889 122.543564 -73.705801 -145.950258 
1.7421300000000000 -3.220791 118.447295 -76.712078 -162.512734 -3.242337 118.573570 -76.003076 -177.361222 
1.7721150000000001 -3.225995 114.494515 -71.691306 128.427232 -3.232375 114.561105 -76.203143 107.868198 
1.8021000000000000 -3.217006 110.563158 -73.380821 110.632996 -3.223631 110.698718 -85.631772 156.504206 
1.8320850000000000 -3.211012 106.728578 -75.251528 49.831841 -3.194746 106.646260 -71.369374 137.752459 
1.8620699999999999 -3.192363 102.593175 -71.747432 85.591430 -3.171605 102.673623 -70.462564 71.336324 
1.8920550000000000 -3.158298 98.479769 -72.743637 51.503260 -3.140381 98.454558 -80.645259 78.132776 
1.9220400000000000 -3.130052 94.296216 -75.088529 72.394113 -3.130166 94.286215 -75.674684 77.012780 
1.9520249999999999 -3.117600 90.030042 -79.387074 78.560960 -3.128595 90.120322 -80.480312 56.307433 
1.9820100000000000 -3.105660 85.976546 -75.052689 -1.422680 -3.115365 85.924369 -76.668505 61.613364 
2.0119950000000002 -3.089866 81.844483 -72.769237 49.874433 -3.103253 81.862125 -81.190417 72.751853 
2.0419800000000001 -3.084610 77.796893 -76.638703 78.181200 -3.076916 77.869047 -71.423521 64.459863 
2.0719650000000001 -3.064806 73.690922 -81.544897 39.528385 -3.039347 73.745156 -72.209202 25.380782 
2.1019500000000000 -3.017114 69.555753 -78.898893 50.471532 -3.006716 69.655139 -77.656271 82.189344 
2.1319349999999999 -2.956133 65.204607 -77.298452 -63.593009 -2.987539 65.165777 -84.225183 108.823586 
2.1619199999999998 -2.943488 60.809064 -72.977522 87.690463 -2.938769 60.848922 -77.509859 45.754655 
2.1919050000000002 -2.919469 56.514899 -77.186483 31.423937 -2.918170 56.426655 -84.599542 -22.943011 
2.2218900000000001 -2.899586 52.111958 -78.049425 75.782210 -2.906985 52.055365 -85.657241 -51.472220 
2.2518750000000001 -2.892182 47.691851 -80.447668 57.931967 -2.896189 47.717284 -82.675756 66.907816 
2.2818600000000000 -2.870187 43.346322 -77.621613 -54.126455 -2.875284 43.378073 -84.448590 78.109877 
2.3118449999999999 -2.854664 38.939753 -74.667240 52.077004 -2.862425 39.015557 -88.152431 109.490133 
2.3418299999999999 -2.855532 34.580081 -77.140913 -87.806379 -2.862528 34.603056 -82.765239 -64.881342 
2.3718149999999998 -2.847954 30.149172 -80.746346 72.168935 -2.836568 30.133608 -87.098451 121.775625 
2.4018000000000002 -2.836546 25.729287 -86.191988 -93.081897 -2.841951 25.649582 -76.165851 -63.989920 
2.4317850000000001 -2.817448 21.282693 -89.105511 86.130433 -2.827458 21.279845 -83.201846 92.988459 
2.4617700000000000 -2.824620 16.848782 -74.266770 97.907950 -2.818904 16.814621 -75.459452 74.446768 
2.4917549999999999 -2.818322 12.430425 -82.772255 84.629281 -2.825796 12.409074 -73.659533 33.864108 
2.5217399999999999 -2.818030 8.044250 -88.327985 96.786276 -2.821759 8.025731 -80.802371 30.353498 
2.5517249999999998 -2.822972 3.596109 -85.655822 34.939536 -2.820202 3.616781 -83.119264 -2.687782 
2.5817100000000002 -2.829951 -0.850146 -80.512319 -16.901143 -2.827376 -0.852315 -83.642401 -90.607089 
2.6116950000000001 -2.848562 -5.301225 -77.560556 -114.140215 -2.836225 -5.232830 -78.145935 -148.417338 
2.6416800000000000 -2.851715 -9.714998 -84.685420 -24.760691 -2.854493 -9.723062 -93.962459 -24.444832 
2.6716650000000000 -2.866762 -14.148326 -79.150786 62.994335 -2.868744 -14.066334 -78.967663 132.907569 
2.7016499999999999 -2.873086 -18.553487 -91.907784 174.252180 -2.881833 -18.580570 -73.407676 -38.478477 
2.7316349999999998 -2.895848 -23.046381 -78.234392 -145.783829 -2.905746 -23.005144 -75.397409 -102.286771 
2.7616200000000002 -2.933792 -27.368570 -79.230065 -15.724025 -2.927694 -27.345003 -78.077875 -72.790991 
2.7916050000000001 -2.961365 -31.667586 -78.395827 -96.865961 -2.959994 -31.532121 -80.472345 -40.678786 
2.8215900000000000 -2.981141 -35.862848 -78.133332 -108.546020 -2.979389 -35.878827 -80.332395 -89.580851 
2.8515750000000000 -3.002984 -39.963742 -82.403374 -114.249435 -3.004803 -40.122298 -83.231607 56.570146 
2.8815599999999999 -3.020610 -44.347013 -83.047749 -104.064920 -3.010432 -44.291818 -92.356112 -137.312138 
2.9115449999999998 -3.037404 -48.640233 -86.087873 -124.832012 -3.048591 -48.641413 -75.575078 -138.177324 
2.9415300000000002 -3.075280 -52.901396 -77.270540 177.370840 -3.094559 -52.895895 -79.403547 150.013384 
2.9715150000000001 -3.087770 -56.909192 -87.441412 68.909061 -3.090539 -56.882386 -95.022385 -62.662655 
3.0015000000000001 -3.100284 -60.961409 -88.212897 -68.858734 -3.096311 -60.924535 -82.935908 125.725376 
3.0314850000000000 -3.088384 -65.037524 -82.046297 65.191840 -3.067362 -64.928969 -82.014136 47.769222 
3.0614699999999999 -3.757210 -66.446853 -74.530950 168.271238 -3.754818 -66.471361 -73.837307 -164.135654 
3.0914549999999998 -3.780291 -70.543925 -85.044527 -113.244678 -3.746195 -70.660293 -80.132500 131.523749 
3.1214400000000002 -3.765180 -74.619265 -77.240970 82.960162 -3.759639 -74.802572 -83.267284 -153.376546 
3.1514250000000001 -3.734107 -78.527723 -82.998009 49.691157 -3.727426 -78.621595 -75.562285 -124.427394 
3.1814100000000001 -3.671172 -82.765769 -90.934030 -91.599228 -3.725139 -82.850339 -73.677595 19.496983 
3.2113950000000000 -3.626175 -86.669395 -72.756265 -175.214647 -3.684706 -86.796744 -76.637107 -79.845766 
3.2413799999999999 -3.638880 -91.222947 -78.023460 -177.547813 -3.612287 -90.954135 -76.245807 -3.718235 
3.2713649999999999 -3.578270 -95.329706 -80.367828 -89.637036 -3.574509 -95.078323 -76.280549 109.160734 
3.3013499999999998 -3.537483 -99.641155 -83.205241 163.265866 -3.542364 -99.545303 -72.477702 -85.398440 
3.3313350000000002 -3.494641 -103.659569 -79.294877 133.360479 -3.481811 -103.531581 -91.454805 85.766561 
3.3613200000000001 -3.432105 -108.274061 -74.873640 -169.385143 -3.392313 -108.027199 -79.392264 109.569753 
3.3913050000000000 -3.390231 -112.865485 -74.604040 168.657684 -3.343963 -112.859831 -78.322261 -5.720923 
3.4212899999999999 -3.373150 -117.653589 -83.294743 -54.955986 -3.343868 -117.755664 -97.004140 -176.499933 
3.4512749999999999 -3.370979 -122.432440 -96.920949 133.832595 -3.368335 -122.387795 -82.123815 -91.657440 
3.4812599999999998 -3.386134 -126.716517 -88.354439 -91.214777 -3.386243 -126.836325 -84.330984 50.691185 
3.5112450000000002 -3.400332 -131.220718 -78.469584 134.007832 -3.401388 -131.385217 -75.065506 155.991829 
3.5412300000000001 -3.412129 -135.739874 -76.541303 52.536969 -3.443617 -135.845498 -92.563430 69.374705 
3.5712150000000000 -3.448960 -140.666310 -76.581004 -41.295366 -3.470851 -140.702889 -81.409226 -25.807209 
3.6012000000000000 -3.582479 -145.211803 -83.109290 -48.368743 -3.603910 -145.239202 -77.228839 97.105007 
3.6311849999999999 -3.737291 -149.123855 -73.385575 -68.582077 -3.745799 -149.196866 -73.567534 49.449267 
3.6611699999999998 -3.864850 -152.507557 -80.592219 -149.831396 -3.874866 -152.516259 -79.666379 20.559409 
3.6911550000000002 -3.885831 -155.708153 -77.381364 -149.585937 -3.910393 -155.508380 -81.083068 -72.103343 
3.7211400000000001 -3.831334 -158.815356 -74.424013 -6.321088 -3.823620 -158.759334 -79.946332 39.611649 
3.7511250000000000 -3.722107 -162.568322 -81.376685 57.760531 -3.719933 -162.460293 -76.962578 41.525342 
3.7811100000000000 -3.645650 -166.810359 -77.996664 -81.412568 -3.629548 -166.753399 -76.468787 155.330884 
3.8110949999999999 -3.636457 -170.974599 -80.014470 -37.842732 -3.636240 -170.931768 -72.468128 100.402385 
3.8410799999999998 -3.668213 -174.630730 -82.909322 -10.990444 -3.676343 -174.631050 -80.010056 -13.831523 
3.8710650000000002 -3.613548 -177.947969 -73.787150 106.915009 -3.597471 -177.946470 -78.056322 47.294469 
3.9010500000000001 -3.463467 178.397576 -77.726314 76.512835 -3.464673 178.402563 -75.290045 -70.243158 
3.9310350000000001 -3.313022 174.167365 -85.867941 -151.303508 -3.313982 174.153847 -74.205224 -90.641875 
3.9610200000000000 -3.255604 169.667853 -70.680857 -71.752504 -3.254983 169.673768 -76.748953 -121.874675 
3.9910049999999999 -3.252931 165.393888 -76.346719 -90.465330 -3.250142 165.403940 -69.376609 -133.635226 
4.0209900000000003 -3.253712 161.807919 -80.614938 -55.802868 -3.253168 161.659137 -72.917163 120.144535 
4.0509750000000002 -3.156685 158.486723 -71.827769 53.953527 -3.168817 158.463278 -74.024455 -24.563103 
4.0809600000000001 -2.959618 154.939147 -70.965038 -19.180124 -2.963109 155.023372 -76.323062 -90.673741 
4.1109450000000001 -2.681902 150.681289 -84.566618 3.249735 -2.710993 150.608930 -88.980971 104.673905 
4.1409300000000000 -2.494635 145.527243 -72.672860 -21.614198 -2.494247 145.630689 -74.908517 -83.577693 
4.1709149999999999 -2.409093 140.357803 -79.661571 -140.709873 -2.395519 140.387050 -79.403323 4.594181 
4.2008999999999999 -2.315965 135.602103 -71.676655 -96.290287 -2.334531 135.465885 -77.041673 -26.402088 
4.2308849999999998 -2.262931 130.768643 -72.583355 23.236301 -2.274218 130.817899 -84.319967 65.808903 
4.2608699999999997 -2.176957 125.754177 -68.190018 64.453533 -2.159736 125.708402 -73.245372 152.431382 
4.2908549999999996 -2.123663 120.345317 -72.331727 -161.540482 -2.100166 120.301158 -76.999091 -95.669098 
4.3208399999999996 -2.171078 114.662087 -66.649555 34.391193 -2.127135 114.745652 -76.231268 -56.128878 
4.3508250000000004 -2.322700 109.457265 -75.215357 166.789223 -2.280555 109.402709 -70.505789 6.904943 
4.3808100000000003 -2.464467 104.932915 -73.198246 56.134625 -2.482897 104.982235 -69.078064 -75.360743 
4.4107950000000002 -2.609638 101.202498 -74.834748 128.616397 -2.622156 101.076658 -77.238943 -77.172334 
4.4407800000000002 -2.643449 97.321133 -79.711506 51.227337 -2.677755 97.386261 -71.637158 128.790645 
4.4707650000000001 -2.652970 93.402693 -70.107636 -165.308054 -2.702078 93.407663 -68.221734 -104.346258 
4.5007500000000000 -2.716218 89.189600 -75.541492 56.329059 -2.740301 89.252080 -80.151155 -159.004438 
4.5307350000000000 -2.782486 85.176743 -66.690875 82.253354 -2.816823 85.278933 -71.686396 -162.188132 
4.5607199999999999 -2.838317 81.562014 -73.537498 169.832321 -2.844157 81.928906 -76.361985 155.099156 
4.5907049999999998 -2.804496 78.051646 -69.217282 67.974557 -2.822919 78.159451 -75.848719 90.741172 
4.6206899999999997 -2.783505 74.104241 -76.482457 126.287904 -2.784072 74.223377 -71.929820 80.881897 
4.6506749999999997 -2.777447 69.938738 -75.572239 -84.161830 -2.774024 70.059659 -72.569779 -169.503303 
4.6806599999999996 -2.853773 66.142562 -72.232918 -57.909309 -2.816015 66.310534 -76.040291 -50.999987 
4.7106450000000004 -2.860254 62.995823 -78.464969 19.777877 -2.858480 62.898112 -82.031915 13.665356 
4.7406300000000003 -2.785637 59.759867 -79.236013 177.653686 -2.759581 59.837642 -69.528210 96.437051 
4.7706150000000003 -2.611642 56.248360 -69.146304 91.441515 -2.576366 56.324286 -70.847841 67.924420 
4.8006000000000002 -2.436586 51.620721 -71.727966 -173.314220 -2.413025 51.767054 -73.119924 -42.758785 
4.8305850000000001 -2.382285 46.880648 -66.905411 -107.929132 -2.361700 46.907047 -68.090957 176.100438 
4.8605700000000001 -2.415861 42.749332 -75.001770 96.182690 -2.398102 42.801217 -77.990083 -54.378643 
4.8905550000000000 -2.385191 39.532748 -76.867568 -56.793275 -2.410272 39.516889 -67.632423 41.915393 
4.9205399999999999 -2.136320 36.407468 -77.109481 -149.968703 -2.145832 36.231453 -70.172255 -47.841359 
4.9505249999999998 -1.763441 31.914560 -63.320273 -37.989117 -1.728565 31.806818 -65.239785 -5.326690 
4.9805099999999998 -1.492705 25.032696 -63.066457 -83.327788 -1.474800 25.206417 -69.576748 -152.042178 
5.0104949999999997 -1.517098 17.945048 -68.397244 136.849652 -1.512895 17.936072 -75.037532 161.956177 
5.0404799999999996 -1.803476 12.045159 -69.823744 -98.205680 -1.823689 12.060411 -65.419684 109.819749 
5.0704650000000004 -2.142823 8.109849 -65.369667 -107.169355 -2.155846 8.298718 -63.988752 -113.632625 
5.1004500000000004 -2.140911 5.633568 -77.095910 135.274408 -2.154090 5.709700 -66.004901 113.121374 
5.1304350000000003 -1.896074 1.857848 -63.716751 -2.064574 -1.893365 2.000864 -75.335981 100.684033 
5.1604200000000002 -1.631826 -4.160178 -67.184881 74.508392 -1.608871 -4.377079 -64.241743 124.857065 
5.1904050000000002 -1.731979 -11.705078 -66.065615 29.909873 -1.705753 -11.699717 -71.153307 -28.396498 
5.2203900000000001 -2.176451 -17.918487 -70.296229 26.645009 -2.180402 -17.823019 -69.626556 45.854067 
5.2503750000000000 -2.655914 -21.022002 -73.404047 47.250738 -2.647658 -21.268064 -76.897838 -30.662570 
5.2803599999999999 -2.783793 -22.721237 -71.410737 9.263395 -2.770245 -22.660385 -70.612233 -125.709277 
5.3103449999999999 -2.515430 -25.507837 -67.116004 -102.049976 -2.510853 -25.700529 -85.595291 40.654203 
5.3403299999999998 -2.191300 -31.269019 -70.178483 -20.777324 -2.209076 -31.414279 -72.244745 77.068666 
5.3703149999999997 -2.296737 -38.973204 -70.662234 23.579655 -2.262580 -39.013078 -60.304717 56.915706 
5.4002999999999997 -2.802562 -45.474609 -71.025278 115.540530 -2.791503 -45.610414 -74.387182 -84.148939 
5.4302849999999996 -3.486460 -48.931780 -69.119130 79.373756 -3.512104 -48.871006 -67.721807 76.456925 
5.4602700000000004 -3.837653 -49.298692 -73.337206 125.389747 -3.850429 -49.229703 -66.449612 75.506449 
5.4902550000000003 -3.731332 -50.315864 -65.813312 109.642943 -3.726239 -50.141136 -71.060829 142.899479 
5.5202400000000003 -3.395010 -53.622766 -70.982258 34.634647 -3.434098 -53.422459 -60.269139 54.555480 
5.5502250000000002 -3.299477 -58.724953 -68.321524 33.820919 -3.273654 -58.646314 -66.561782 100.506567 
