!
! C:\data\cal kit\Siglent Cal Kit\Open Port.S2P
!
! Touchstone 1.1 file saved by VNA.EXE V1.60 (www.ke5fx.com/gpib/readme.htm)
! 26/07/2019 10:47:15 a.m.
!
!    Source: HEWLETT PACKARD,8753C,0,4.12
!  Min freq: 3.000000E+006 Hz
!  Max freq: 6.000000E+009 Hz
!    Points: 201
!    Params: S11 S21 S12 S22
!
!!!!!
# GHZ S DB R 50
0.0030000000000000 -2.868751 -2.187638 -87.948756 68.335680 -2.856070 -2.147980 -77.473438 -51.291842 
0.0329850000000000 -3.314783 -12.861588 -82.319969 143.115602 -3.316265 -12.853316 -82.810428 158.009604 
0.0629700000000000 -3.285785 -21.368659 -92.914221 128.979381 -3.287948 -21.374244 -85.606429 -34.557043 
0.0929550000000000 -3.277589 -30.386031 -82.006377 -139.124973 -3.283767 -30.392187 -83.407482 -71.914776 
0.1229400000000000 -3.266892 -39.357503 -82.281703 -102.330106 -3.271348 -39.361843 -91.413974 -6.977236 
0.1529250000000000 -3.248754 -48.355485 -90.419995 -102.135206 -3.242738 -48.326172 -91.208584 -60.940689 
0.1829100000000000 -2.816768 -55.081084 -87.653448 -60.612645 -2.827381 -55.058763 -97.587488 -97.030514 
0.2128950000000000 -2.820245 -64.131733 -89.448073 45.760306 -2.821705 -64.140510 -90.205375 95.138428 
0.2428800000000000 -2.810734 -73.224369 -94.694053 6.788692 -2.825583 -73.197341 -84.216004 15.149114 
0.2728650000000000 -2.825490 -82.330014 -80.711190 -170.060864 -2.840876 -82.321225 -93.320803 136.967826 
0.3028500000000000 -2.846581 -91.524097 -81.662540 156.173195 -2.853462 -91.459712 -85.913761 114.438369 
0.3328350000000000 -2.878179 -100.549040 -79.842041 115.153267 -2.883086 -100.614564 -89.371196 -66.115919 
0.3628200000000000 -2.938474 -109.696056 -88.025185 36.464996 -2.937074 -109.619845 -83.768212 -132.339273 
0.3928050000000000 -2.978000 -118.749271 -80.793935 -176.032689 -2.979638 -118.755197 -90.510495 128.117320 
0.4227900000000000 -3.017930 -127.647064 -78.570761 -155.497748 -3.033800 -127.637071 -88.115765 -112.177251 
0.4527750000000000 -3.083213 -136.562451 -85.278013 -13.121812 -3.080440 -136.521395 -81.494600 -125.865396 
0.4827600000000000 -3.143712 -145.374564 -88.502203 51.317132 -3.137545 -145.399593 -79.365228 138.300058 
0.5127450000000000 -3.192699 -154.163392 -83.692511 -17.751387 -3.183301 -154.156962 -97.543153 172.585927 
0.5427300000000001 -3.209618 -162.893363 -83.390866 -89.249387 -3.205471 -162.933526 -88.994207 99.575978 
0.5727150000000000 -3.249741 -171.571166 -77.602168 169.241468 -3.245575 -171.611198 -81.162167 103.779407 
0.6027000000000000 -3.264877 179.745362 -83.733184 41.109235 -3.270223 179.668769 -80.771091 76.574763 
0.6326850000000001 -3.282959 171.115320 -91.752763 -114.341945 -3.280404 171.123124 -75.817953 -121.249646 
0.6626700000000000 -3.272642 162.452435 -84.949661 118.098456 -3.269677 162.466630 -82.017390 99.084750 
0.6926550000000000 -3.264079 153.775406 -90.070118 123.763204 -3.263445 153.703651 -78.242293 87.090749 
0.7226400000000000 -3.251517 144.941126 -85.172431 -114.728495 -3.251608 145.092753 -85.859379 33.662177 
0.7526250000000000 -3.212633 136.320939 -83.073995 -86.333383 -3.205843 136.323488 -87.195492 60.906471 
0.7826100000000000 -3.162073 127.325870 -78.577684 151.990718 -3.162218 127.332925 -81.520840 -167.304048 
0.8125950000000000 -3.129654 118.451196 -83.517379 110.645560 -3.127436 118.383425 -76.775789 -17.907815 
0.8425800000000000 -3.071221 109.303561 -87.561248 -32.108587 -3.076280 109.336373 -100.437614 -81.860770 
0.8725650000000000 -3.036518 100.319041 -87.813772 -174.813410 -3.023638 100.218010 -82.526778 -37.094305 
0.9025500000000000 -2.987436 90.848436 -89.370912 2.367511 -2.989144 91.060775 -75.981310 -51.247860 
0.9325350000000000 -2.930277 81.632547 -77.855021 -61.417479 -2.968031 81.570957 -81.171364 -59.837631 
0.9625200000000000 -2.928197 72.476031 -87.967540 -35.048687 -2.919713 72.331964 -78.550098 -144.054960 
0.9925050000000000 -2.894828 62.917685 -80.291471 42.267601 -2.907535 62.888514 -84.857823 -173.883303 
1.0224899999999999 -2.909162 53.484021 -95.029865 -1.258714 -2.901798 53.434875 -84.652374 -16.787966 
1.0524750000000000 -2.930197 44.045360 -84.681268 -175.515144 -2.919002 44.082926 -77.369182 -159.907514 
1.0824600000000000 -2.943610 34.666754 -83.391368 75.501730 -2.948083 34.693135 -93.655786 0.943417 
1.1124449999999999 -2.987370 25.348401 -83.925349 -83.195720 -2.981981 25.388848 -91.642729 178.495237 
1.1424300000000001 -3.026612 16.152981 -79.852168 8.839975 -3.029164 16.103680 -79.444385 -58.638959 
1.1724150000000000 -3.065989 6.995678 -88.378754 54.907971 -3.067846 6.957055 -87.691368 109.172105 
1.2023999999999999 -3.106562 -2.148304 -77.898248 -23.560096 -3.108005 -2.161174 -89.418790 133.512266 
1.2323850000000001 -3.152036 -11.152194 -87.158394 167.765723 -3.144346 -11.162672 -84.488431 169.433656 
1.2623700000000000 -3.185958 -20.134015 -81.481565 -52.881007 -3.190686 -20.158902 -78.102443 -110.853622 
1.2923549999999999 -3.236734 -29.103908 -79.625850 140.500437 -3.231424 -29.125068 -80.293294 -67.704164 
1.3223400000000001 -3.250442 -37.928492 -78.873810 76.683152 -3.253075 -37.951706 -78.443787 -34.362128 
1.3523250000000000 -3.301426 -46.757776 -82.897851 -123.806180 -3.285744 -46.800651 -80.473883 -170.628467 
1.3823099999999999 -3.322253 -55.546394 -84.663491 -99.019608 -3.324176 -55.537691 -80.826246 -75.752532 
1.4122950000000001 -3.346765 -64.258048 -81.957444 -106.844210 -3.344381 -64.231391 -81.234178 -112.953714 
1.4422800000000000 -3.359476 -73.133092 -85.200442 -19.780678 -3.347354 -72.985346 -81.882518 -73.454123 
1.4722649999999999 -3.355900 -81.872448 -75.394214 -94.937207 -3.373499 -81.756860 -79.126655 -42.592978 
1.5022500000000001 -3.387011 -90.555224 -82.745487 -82.291007 -3.379254 -90.505705 -76.880260 -130.378039 
1.5322350000000000 -3.394306 -99.220126 -80.694474 -138.784278 -3.403549 -99.167125 -74.657045 -147.117678 
1.5622199999999999 -3.412255 -107.906688 -75.384528 179.854476 -3.415268 -107.845051 -77.896782 -130.218943 
1.5922050000000001 -3.426965 -116.487313 -70.291888 -160.247561 -3.431541 -116.496560 -79.846130 155.423455 
1.6221900000000000 -3.414220 -125.075421 -74.985800 172.208509 -3.423174 -125.158148 -72.525630 -160.733723 
1.6521749999999999 -3.458504 -133.700050 -76.421153 151.402642 -3.461490 -133.636048 -73.084341 175.462767 
1.6821600000000001 -3.493141 -142.151840 -75.658467 127.742103 -3.488939 -142.282453 -76.611696 115.528450 
1.7121450000000000 -3.512754 -150.825786 -75.109990 123.568015 -3.520822 -150.835101 -78.824054 122.482198 
1.7421300000000000 -3.561334 -159.304877 -70.062028 119.217023 -3.566698 -159.271777 -75.089029 122.668921 
1.7721150000000001 -3.584031 -167.631071 -73.351756 94.527999 -3.581795 -167.564005 -87.322487 80.511991 
1.8021000000000000 -3.601475 -175.880438 -73.066151 128.970082 -3.597069 -175.845395 -84.315663 -51.342104 
1.8320850000000000 -3.602838 175.821397 -72.713024 147.195161 -3.604584 175.833831 -74.566049 135.182462 
1.8620699999999999 -3.599800 167.513387 -76.453700 116.634857 -3.617488 167.476654 -73.072813 121.778320 
1.8920550000000000 -3.603982 159.212464 -78.970373 22.132339 -3.599756 159.146599 -76.013061 121.531868 
1.9220400000000000 -3.593931 150.888881 -77.702933 59.306837 -3.601102 150.914029 -85.532722 72.619249 
1.9520249999999999 -3.590381 142.639976 -72.361650 37.683850 -3.594504 142.605885 -78.664560 100.496539 
1.9820100000000000 -3.562001 134.212775 -72.959322 81.839846 -3.564085 134.342121 -73.549463 65.735753 
2.0119950000000002 -3.535927 125.904147 -72.880880 48.855826 -3.518702 125.922319 -75.557407 48.994181 
2.0419800000000001 -3.454537 117.498538 -72.295519 8.586152 -3.452353 117.452920 -71.183038 58.199749 
2.0719650000000001 -3.398868 108.853639 -73.233510 -11.946867 -3.373413 108.810007 -76.851124 55.413440 
2.1019500000000000 -3.325774 100.169294 -72.602843 1.062061 -3.325763 100.140633 -77.241829 6.680610 
2.1319349999999999 -3.264370 91.270654 -80.554965 -22.584333 -3.298507 91.242420 -76.817814 50.597216 
2.1619199999999998 -3.224273 82.284606 -83.206926 31.419686 -3.232716 82.318011 -74.295243 -8.569290 
2.1919050000000002 -3.162091 73.354991 -77.954223 63.138535 -3.185839 73.342327 -71.905749 -2.313858 
2.2218900000000001 -3.117788 64.198564 -79.826859 5.858206 -3.114784 64.330386 -86.329386 -122.614703 
2.2518750000000001 -3.054099 55.049107 -75.638907 11.289169 -3.067724 55.025721 -85.153614 142.096217 
2.2818600000000000 -3.007252 45.707922 -81.104658 -0.470243 -3.000908 45.700417 -83.581086 -20.659802 
2.3118449999999999 -2.969773 36.329389 -75.632152 -141.562756 -2.972608 36.278988 -74.257099 37.911897 
2.3418299999999999 -2.938733 26.793183 -88.867138 -134.523482 -2.944567 26.771391 -83.708077 90.130842 
2.3718149999999998 -2.932511 17.219672 -85.607588 110.748760 -2.937746 17.132838 -85.790472 -100.112979 
2.4018000000000002 -2.946890 7.585400 -77.377618 96.373304 -2.942194 7.576321 -81.829932 91.125214 
2.4317850000000001 -2.947781 -1.974257 -93.512381 31.903012 -2.953016 -1.970532 -80.750210 -28.938431 
2.4617700000000000 -2.978443 -11.521569 -75.744423 45.739752 -2.971877 -11.475057 -88.470548 14.043798 
2.4917549999999999 -2.993934 -21.036448 -76.143518 -94.058887 -2.998556 -21.019074 -79.487857 -110.618693 
2.5217399999999999 -3.035330 -30.514204 -88.177097 55.806833 -3.024764 -30.573797 -100.073853 -142.341667 
2.5517249999999998 -3.077392 -40.058272 -81.493306 124.316479 -3.086775 -40.182159 -82.174342 -38.718037 
2.5817100000000002 -3.131122 -49.493894 -76.525399 -130.572588 -3.125596 -49.505247 -87.203275 61.733861 
2.6116950000000001 -3.177591 -58.852938 -80.618197 -137.674973 -3.182085 -58.955790 -86.811566 89.855053 
2.6416800000000000 -3.250894 -68.229278 -87.693167 168.614456 -3.267798 -68.247784 -77.673689 -84.038841 
2.6716650000000000 -3.327859 -77.392184 -79.303273 -137.622424 -3.332086 -77.293895 -80.011220 32.529379 
2.7016499999999999 -3.410787 -86.452738 -79.053254 -53.948560 -3.405961 -86.483233 -94.684468 -51.854472 
2.7316349999999998 -3.469590 -95.525113 -74.839243 -19.315066 -3.466508 -95.436750 -78.731129 -114.041140 
2.7616200000000002 -3.518387 -104.181222 -82.893379 -139.458461 -3.532325 -104.277626 -76.468671 32.749408 
2.7916050000000001 -3.584502 -113.007804 -80.457911 12.493907 -3.577345 -112.990631 -80.471146 -108.707157 
2.8215900000000000 -3.609845 -121.512209 -78.651251 -51.829948 -3.617857 -121.547739 -75.278729 -175.839324 
2.8515750000000000 -3.664989 -130.037038 -81.739906 -22.508933 -3.657915 -130.154540 -74.948046 -133.109859 
2.8815599999999999 -3.678377 -138.681933 -77.721099 150.947946 -3.681369 -138.639669 -92.211153 -140.713364 
2.9115449999999998 -3.707977 -147.154968 -84.877388 110.673429 -3.732302 -147.175973 -74.465138 155.944220 
2.9415300000000002 -3.729283 -155.459565 -87.206860 -84.604214 -3.730070 -155.548707 -76.187993 -112.035497 
2.9715150000000001 -3.716128 -163.743659 -81.806929 -117.003437 -3.718273 -163.773063 -76.954870 -120.449690 
3.0015000000000001 -3.703667 -172.027844 -87.733823 1.575688 -3.699767 -172.017929 -85.653517 -16.565976 
3.0314850000000000 -3.671034 179.711829 -82.233950 169.034920 -3.675420 179.636933 -75.489459 -5.884710 
3.0614699999999999 -4.355421 173.902741 -81.114360 -139.513987 -4.343817 173.838424 -77.319541 -135.762687 
3.0914549999999998 -4.348209 165.649633 -74.190637 -91.286051 -4.338878 165.537444 -75.485155 -79.867016 
3.1214400000000002 -4.335761 157.319204 -72.951038 -176.527986 -4.344318 157.267464 -81.054958 14.578696 
3.1514250000000001 -4.334458 149.158736 -73.240745 -31.124457 -4.332228 149.100437 -85.766062 -70.886622 
3.1814100000000001 -4.337015 140.967208 -85.822625 -13.060613 -4.327659 140.950531 -81.361916 130.023908 
3.2113950000000000 -4.325696 132.731019 -75.175666 106.914164 -4.332045 132.812893 -81.970387 7.887341 
3.2413799999999999 -4.328552 124.619248 -79.670928 -51.223044 -4.351001 124.500798 -85.242405 -47.473608 
3.2713649999999999 -4.331659 116.401527 -81.800963 -59.484390 -4.353750 116.419189 -75.360687 -0.490466 
3.3013499999999998 -4.336952 108.424928 -86.119789 130.891436 -4.347593 108.414882 -79.340410 2.832173 
3.3313350000000002 -4.328317 100.514643 -75.521382 41.239175 -4.345982 100.565620 -78.696215 -25.689292 
3.3613200000000001 -4.297733 92.467130 -85.629759 43.668109 -4.302967 92.658201 -82.280343 -42.256516 
3.3913050000000000 -4.278316 84.468787 -73.546708 -156.441439 -4.270219 84.755359 -72.455597 98.569554 
3.4212899999999999 -4.220583 76.404982 -73.998757 87.297188 -4.212051 76.535412 -78.099852 -20.343268 
3.4512749999999999 -4.182540 68.542290 -77.510882 -161.949203 -4.177677 68.445456 -75.310645 144.829626 
3.4812599999999998 -4.109791 60.609838 -69.160689 26.022419 -4.097356 60.652784 -83.070793 161.050795 
3.5112450000000002 -3.952012 52.642296 -79.148208 -171.001820 -3.960196 52.635761 -80.699602 50.758123 
3.5412300000000001 -3.779195 44.191889 -74.691967 -31.282826 -3.757896 44.243417 -80.747369 -12.559586 
3.5712150000000000 -3.581915 35.207949 -84.750640 44.417114 -3.603184 35.229297 -78.567213 -179.254319 
3.6012000000000000 -3.450573 25.834435 -80.803896 -123.608894 -3.449606 25.883375 -79.581103 -93.828688 
3.6311849999999999 -3.341041 16.556537 -70.590727 106.831834 -3.340269 16.501444 -71.969814 -92.619174 
3.6611699999999998 -3.244224 7.259243 -75.839744 24.704603 -3.245194 7.208834 -78.502359 -49.994557 
3.6911550000000002 -3.125098 -2.160418 -81.284434 90.405837 -3.119170 -2.133886 -76.536227 -119.886674 
3.7211400000000001 -2.942166 -11.936422 -74.832832 -28.916224 -2.939296 -11.907351 -85.615296 -96.373036 
3.7511250000000000 -2.768602 -22.340891 -75.055917 134.318322 -2.768858 -22.248015 -88.204848 55.202254 
3.7811100000000000 -2.693008 -33.350191 -76.752821 -153.084201 -2.695806 -33.339502 -71.114210 130.515733 
3.8110949999999999 -2.766401 -44.523959 -87.378450 136.457759 -2.738499 -44.659373 -72.082372 12.876048 
3.8410799999999998 -2.927974 -55.064567 -79.395379 -61.266397 -2.916465 -55.135432 -79.860769 2.956704 
3.8710650000000002 -3.098790 -64.848333 -76.747848 39.895028 -3.061227 -64.901209 -81.506191 26.910182 
3.9010500000000001 -3.168654 -74.657198 -74.280824 -87.535307 -3.152977 -74.471714 -71.829112 -14.846190 
3.9310350000000001 -3.208648 -84.471156 -78.445681 161.580289 -3.234256 -84.587337 -82.894337 -100.256093 
3.9610200000000000 -3.395164 -94.463333 -82.200856 149.645583 -3.350651 -94.448211 -81.393667 -136.183744 
3.9910049999999999 -3.548570 -103.684022 -74.134979 129.631139 -3.541071 -103.896623 -76.782701 -122.525903 
4.0209900000000003 -3.752441 -112.171517 -79.991494 8.638838 -3.732619 -112.150216 -70.996557 -172.260883 
4.0509750000000002 -3.807513 -119.795978 -68.590551 92.142165 -3.802741 -120.002936 -88.220752 11.993735 
4.0809600000000001 -3.645359 -127.658455 -73.320062 -170.616061 -3.683411 -127.778430 -71.419792 107.682903 
4.1109450000000001 -3.404944 -136.167502 -82.862212 -139.682436 -3.412430 -136.170333 -80.134873 166.633614 
4.1409300000000000 -3.134093 -145.326898 -70.868619 -140.941534 -3.129958 -145.318321 -68.209927 -6.439910 
4.1709149999999999 -2.933285 -155.141837 -69.489988 156.299627 -2.937732 -155.222806 -70.441373 -106.833109 
4.2008999999999999 -2.771943 -164.800163 -78.164686 175.793989 -2.787113 -164.837886 -69.567642 -28.304587 
4.2308849999999998 -2.601231 -174.402548 -74.842015 -118.348009 -2.611726 -174.431357 -79.841079 9.803420 
4.2608699999999997 -2.389543 175.462156 -65.492981 59.168803 -2.383225 175.638524 -75.372279 98.049663 
4.2908549999999996 -2.204210 164.970012 -68.333946 -54.171377 -2.207016 164.934695 -70.814782 -118.741808 
4.3208399999999996 -2.179587 153.981680 -76.009201 62.490754 -2.183060 154.003010 -72.821040 90.153172 
4.3508250000000004 -2.295626 143.339176 -75.924943 170.755403 -2.272725 143.349525 -85.168694 -123.877368 
4.3808100000000003 -2.457548 133.693871 -71.502362 -163.154723 -2.458658 133.655953 -69.862217 175.653674 
4.4107950000000002 -2.610056 124.715763 -77.286499 27.896381 -2.617996 124.789480 -72.027167 137.346510 
4.4407800000000002 -2.693497 116.357128 -75.071003 75.740705 -2.728009 116.171105 -74.302314 164.251170 
4.4707650000000001 -2.757177 107.702763 -75.956203 -46.733222 -2.749838 107.506053 -78.296499 -144.406645 
4.5007500000000000 -2.841114 99.113075 -77.612077 -66.685163 -2.838704 99.120341 -69.630913 10.315260 
4.5307350000000000 -2.940074 91.133305 -74.352970 -23.099117 -2.932761 90.794090 -69.312767 -38.281920 
4.5607199999999999 -2.984319 83.402798 -71.710704 76.010797 -2.979294 83.163486 -65.691550 37.197403 
4.5907049999999998 -2.940401 75.840013 -70.878907 -14.777472 -2.940202 75.556828 -68.530486 91.956315 
4.6206899999999997 -2.855770 67.531869 -70.524677 6.533065 -2.882956 67.763280 -71.233186 112.768756 
4.6506749999999997 -2.854038 59.548984 -65.242622 21.563681 -2.843055 59.636533 -82.179711 15.988733 
4.6806599999999996 -2.824860 51.633538 -68.036191 133.289664 -2.804136 51.756920 -69.854582 38.762232 
4.7106450000000004 -2.757751 44.269657 -71.782783 152.171749 -2.766616 44.326721 -64.546291 50.581328 
4.7406300000000003 -2.574129 37.045804 -74.425162 6.767460 -2.578273 37.025183 -85.187657 156.525636 
4.7706150000000003 -2.295385 28.820571 -70.767724 112.343079 -2.290949 28.939638 -76.224621 53.041645 
4.8006000000000002 -2.033004 19.543241 -70.738073 44.010635 -1.991202 19.725717 -73.835356 -15.701435 
4.8305850000000001 -1.927217 9.730040 -70.702820 159.916099 -1.887472 9.865992 -75.474618 -145.370420 
4.8605700000000001 -1.913010 0.366133 -68.579608 68.363346 -1.898969 0.130552 -70.022973 34.452891 
4.8905550000000000 -1.879908 -8.125193 -73.465693 -8.940726 -1.864652 -8.093321 -65.842943 102.684134 
4.9205399999999999 -1.705014 -16.415960 -64.233518 -131.863023 -1.653609 -16.634007 -67.074902 111.605579 
4.9505249999999998 -1.335907 -26.612470 -69.769429 -118.663121 -1.320703 -26.667012 -67.961249 79.422841 
4.9805099999999998 -1.200856 -38.889337 -74.912575 107.799898 -1.143786 -38.648598 -77.269659 -176.824839 
5.0104949999999997 -1.383842 -51.626488 -73.239648 83.211709 -1.394396 -51.529363 -69.147491 151.437007 
5.0404799999999996 -1.937945 -62.694038 -68.384327 85.028605 -1.974706 -62.410133 -69.923877 23.113552 
5.0704650000000004 -2.506936 -70.551811 -64.480414 -151.622145 -2.535555 -70.566980 -75.522430 96.055846 
5.1004500000000004 -2.735022 -77.132875 -87.257009 15.865961 -2.716339 -77.141374 -72.780373 21.032167 
5.1304350000000003 -2.587500 -84.849071 -79.263111 -80.577003 -2.597311 -84.937928 -103.812974 34.778257 
5.1604200000000002 -2.441967 -94.976763 -66.120521 -91.451091 -2.446474 -95.267860 -67.819062 -171.026282 
5.1904050000000002 -2.659653 -106.361666 -68.441809 -125.417019 -2.627062 -106.520658 -67.449189 21.295319 
5.2203900000000001 -3.167508 -116.131515 -76.263590 131.043850 -3.211077 -116.072742 -73.310968 -17.954961 
5.2503750000000000 -3.665851 -122.856513 -66.924408 121.148332 -3.685760 -122.776018 -69.917760 -19.150460 
5.2803599999999999 -3.692554 -128.049060 -66.574899 -12.879610 -3.688473 -128.031391 -68.964512 -2.946536 
5.3103449999999999 -3.220367 -135.062696 -72.007675 -161.151944 -3.262556 -135.082802 -69.871397 -166.798016 
5.3403299999999998 -2.733770 -145.588444 -71.842956 139.006415 -2.736610 -145.598837 -82.489995 92.553893 
5.3703149999999997 -2.662440 -158.466815 -63.132838 68.028045 -2.677297 -158.469045 -71.284766 157.512090 
5.4002999999999997 -3.050768 -170.284456 -67.703796 -175.341700 -3.036375 -170.230236 -68.340181 100.768440 
5.4302849999999996 -3.552641 -178.775974 -61.178010 106.209987 -3.538833 -178.701690 -74.609915 127.095734 
5.4602700000000004 -3.696652 175.013452 -69.511437 87.669192 -3.698268 175.012522 -73.347041 92.851007 
5.4902550000000003 -3.357687 167.400841 -79.018317 1.363155 -3.345851 167.499908 -68.011833 113.960530 
5.5202400000000003 -2.897164 156.657830 -70.249549 19.398890 -2.899362 156.691456 -79.928810 -1.151732 
5.5502250000000002 -2.811914 143.748370 -75.035160 54.464564 -2.795264 143.766005 -63.413893 -1.242175 
