# Hz S RI R 50.000000
! FREQ                re:S1  1             im:S1  1    
1.000000e+05  -4.027463e-03   1.168299e-02
3.759950e+07  -2.133399e-03   -4.307341e-04
7.509900e+07  -9.134613e-04   -4.859216e-03
1.125985e+08  -2.710265e-03   -3.875588e-03
1.500980e+08  -2.321497e-04   -4.925674e-03
1.875975e+08  1.037023e-03   -4.331331e-03
2.250970e+08  2.317433e-03   -3.056046e-03
2.625965e+08  3.341595e-03   -2.170374e-03
3.000960e+08  5.829543e-03   2.678956e-04
3.375955e+08  4.643682e-03   -1.076672e-03
3.750950e+08  4.170249e-03   -2.067402e-03
4.125945e+08  3.620077e-03   3.232734e-03
4.500940e+08  2.092264e-03   2.202968e-03
4.875935e+08  4.450992e-04   1.667638e-03
5.250930e+08  -1.053622e-03   2.353798e-03
5.625925e+08  -4.049157e-03   2.975573e-03
6.000920e+08  -3.873061e-04   2.646450e-03
6.375915e+08  -3.810521e-03   1.339909e-03
6.750910e+08  -2.823484e-03   -2.728322e-04
7.125905e+08  -4.528470e-03   -5.187902e-03
7.500900e+08  -4.604413e-03   -9.259689e-03
7.875895e+08  -4.269106e-03   -1.217937e-02
8.250890e+08  -3.515679e-03   -9.403069e-03
8.625885e+08  -1.218304e-03   -1.083573e-02
9.000880e+08  9.210350e-04   -1.096325e-02
9.375875e+08  1.660276e-03   -1.029063e-02
9.750870e+08  3.114444e-03   -9.683328e-03
1.012586e+09  1.113098e-02   -8.386183e-03
1.050086e+09  3.785335e-03   -1.027988e-02
1.087586e+09  9.653821e-03   -5.962868e-03
1.125085e+09  1.067443e-02   -2.891054e-03
1.162584e+09  9.775324e-03   -4.067497e-03
1.200084e+09  9.110190e-03   1.669579e-03
1.237584e+09  6.257368e-03   4.517890e-03
1.275083e+09  6.537007e-03   1.516814e-03
1.312582e+09  6.203441e-03   1.740337e-03
1.350082e+09  -3.036479e-03   5.039031e-03
1.387582e+09  -2.264124e-04   2.904098e-03
1.425081e+09  -2.205829e-03   9.553876e-04
1.462580e+09  -2.977041e-03   -1.376437e-03
1.500080e+09  -4.375427e-03   -4.073725e-03
1.537580e+09  -3.858737e-03   -5.522666e-03
1.575079e+09  -3.778067e-03   -9.079864e-03
1.612578e+09  -2.570632e-03   -9.368885e-03
1.650078e+09  -1.035226e-03   -1.067561e-02
1.687578e+09  2.803727e-03   -1.318863e-02
1.725077e+09  4.902881e-03   -1.264549e-02
1.762576e+09  8.563401e-03   -1.226659e-02
1.800076e+09  1.045392e-02   -1.090458e-02
1.837576e+09  1.412094e-02   -8.091240e-03
1.875075e+09  1.730419e-02   -3.319772e-03
1.912574e+09  1.388666e-02   -4.328130e-03
1.950074e+09  1.442936e-02   1.667466e-03
1.987574e+09  1.224290e-02   7.575581e-03
2.025073e+09  1.104599e-02   2.215113e-03
2.062572e+09  9.720517e-03   3.014188e-03
2.100072e+09  7.773228e-03   4.089634e-03
2.137572e+09  2.728077e-03   5.646313e-03
2.175071e+09  2.618746e-03   4.295782e-03
2.212570e+09  3.586578e-03   3.657062e-03
2.250070e+09  -6.116169e-04   1.557250e-03
2.287570e+09  -3.154906e-04   7.776329e-04
2.325069e+09  -2.168911e-03   -3.046173e-03
2.362568e+09  -2.622820e-03   -7.820383e-03
2.400068e+09  -9.124494e-04   -8.468191e-03
2.437568e+09  3.404564e-03   -1.638149e-02
2.475067e+09  5.386316e-03   -1.420424e-02
2.512566e+09  7.968941e-03   -1.357883e-02
2.550066e+09  7.664917e-03   -1.134666e-02
2.587566e+09  1.007260e-02   -9.843038e-03
2.625065e+09  1.271380e-02   -7.641694e-03
2.662564e+09  1.440095e-02   -4.784691e-03
2.700064e+09  1.941580e-02   3.379172e-03
2.737564e+09  1.429540e-02   -1.216130e-03
2.775063e+09  1.385440e-02   5.713658e-03
2.812562e+09  1.139142e-02   6.002919e-03
2.850062e+09  9.631219e-03   5.821415e-03
2.887562e+09  4.401968e-03   9.692942e-03
2.925061e+09  2.080167e-04   9.889323e-03
2.962560e+09  3.938327e-04   8.073733e-03
3.000060e+09  -3.041127e-03   6.423644e-03
3.037560e+09  -3.273730e-03   2.546435e-03
3.075059e+09  -6.369841e-03   -3.630428e-03
3.112558e+09  -4.921371e-03   -6.586704e-03
3.150058e+09  -2.437518e-03   -5.902966e-03
3.187558e+09  -2.004997e-03   -1.053012e-02
3.225057e+09  -4.719619e-05   -1.308070e-02
3.262556e+09  5.547648e-03   -1.857913e-02
3.300056e+09  6.372759e-03   -1.527152e-02
3.337556e+09  2.965730e-03   -1.186888e-02
3.375055e+09  1.554288e-02   -1.183867e-02
3.412554e+09  1.574480e-02   -8.615559e-03
3.450054e+09  2.151898e-02   -2.364098e-03
3.487554e+09  2.077446e-02   5.510066e-04
3.525053e+09  1.974328e-02   1.981277e-03
3.562552e+09  1.621300e-02   3.535904e-03
3.600052e+09  1.264644e-02   8.630932e-03
3.637552e+09  6.851573e-03   1.426092e-02
3.675051e+09  3.442996e-03   1.462608e-02
3.712550e+09  9.397311e-04   1.431853e-02
3.750050e+09  1.063233e-03   1.298133e-02
3.787550e+09  -6.446308e-03   1.018869e-02
3.825049e+09  -7.132686e-03   7.528059e-03
3.862548e+09  -8.304496e-03   3.140147e-03
3.900048e+09  -1.171059e-02   -5.879127e-03
3.937548e+09  -1.144301e-02   -1.015133e-02
3.975047e+09  -1.062157e-02   -1.120379e-02
4.012546e+09  -9.237552e-03   -1.336360e-02
4.050046e+09  -4.690245e-03   -1.690177e-02
4.087546e+09  1.243312e-03   -1.935206e-02
4.125045e+09  9.483245e-04   -1.607001e-02
4.162544e+09  1.194048e-02   -1.656492e-02
4.200044e+09  9.756892e-03   -1.557941e-02
4.237544e+09  1.365462e-02   -1.427266e-02
4.275043e+09  1.996062e-02   -7.293732e-03
4.312542e+09  1.846170e-02   -6.212211e-03
4.350042e+09  1.751680e-02   -9.153057e-04
4.387542e+09  1.524976e-02   8.354411e-03
4.425041e+09  1.500474e-02   8.502862e-03
4.462540e+09  1.253265e-02   1.245336e-02
4.500040e+09  1.385926e-03   1.846794e-02
4.537540e+09  4.464118e-03   1.385377e-02
4.575039e+09  1.219394e-03   1.204964e-02
4.612538e+09  -6.771290e-03   8.639953e-03
4.650038e+09  -9.632213e-03   6.255184e-03
4.687538e+09  -1.442671e-02   2.022770e-03
4.725037e+09  -1.616363e-02   -2.325917e-03
4.762536e+09  -1.486550e-02   -2.722091e-03
4.800036e+09  -1.363257e-02   -1.300696e-03
4.837536e+09  -7.841871e-03   -1.152473e-02
4.875035e+09  -5.767770e-03   -1.473005e-02
4.912534e+09  2.802256e-03   -2.292906e-02
4.950034e+09  1.969257e-03   -2.338326e-02
4.987534e+09  4.230288e-03   -2.180930e-02
5.025033e+09  5.091421e-03   -1.715647e-02
5.062532e+09  8.632491e-03   -1.069627e-02
5.100032e+09  1.145785e-02   -5.231774e-03
5.137532e+09  1.510864e-02   4.296816e-03
5.175031e+09  1.674609e-02   5.108900e-03
5.212530e+09  1.786757e-02   5.409244e-03
5.250030e+09  1.347160e-02   6.470208e-03
5.287530e+09  1.012829e-02   5.230716e-03
5.325029e+09  1.171551e-03   6.999894e-03
5.362528e+09  5.557151e-04   7.548898e-03
5.400028e+09  -1.035791e-02   7.556894e-03
5.437528e+09  -1.411781e-02   5.509740e-03
5.475027e+09  -1.436845e-02   2.444452e-03
5.512526e+09  -1.056326e-02   2.584559e-03
5.550026e+09  -8.738089e-03   -2.179784e-03
5.587526e+09  -8.132595e-03   -5.668496e-03
5.625025e+09  -4.728209e-03   -1.571089e-02
5.662524e+09  -4.656547e-03   -1.683751e-02
5.700024e+09  2.102445e-04   -2.129001e-02
5.737524e+09  4.488424e-03   -2.025805e-02
5.775023e+09  9.576252e-03   -1.867319e-02
5.812522e+09  1.433311e-02   -1.587550e-02
5.850022e+09  1.837557e-02   -1.289760e-02
5.887522e+09  1.909990e-02   -1.187515e-02
5.925021e+09  2.074403e-02   -9.630884e-03
5.962520e+09  2.092879e-02   -1.148686e-03
6.000020e+09  1.819619e-02   3.106568e-03
6.037520e+09  1.675661e-02   1.613635e-03
6.075019e+09  1.120046e-02   7.547417e-03
6.112518e+09  1.174921e-02   7.303117e-03
6.150018e+09  6.118774e-03   7.973849e-03
6.187518e+09  5.913011e-03   6.475422e-03
6.225017e+09  5.476376e-03   5.032905e-03
6.262516e+09  4.963540e-03   2.970202e-03
6.300016e+09  5.835743e-03   1.300433e-03
6.337516e+09  5.262406e-03   -3.063556e-03
6.375015e+09  5.297759e-03   -3.969702e-03
6.412514e+09  5.845673e-03   -7.265469e-03
6.450014e+09  7.881977e-03   -9.148604e-03
6.487514e+09  1.256568e-02   -9.814919e-03
6.525013e+09  7.886807e-03   -6.284307e-03
6.562512e+09  8.344042e-03   -4.464849e-03
6.600012e+09  1.467179e-02   -4.377250e-04
6.637512e+09  1.776793e-02   4.138401e-03
6.675011e+09  1.331203e-02   -1.725687e-04
6.712510e+09  1.507872e-02   3.886860e-03
6.750010e+09  1.346966e-02   1.253221e-02
6.787510e+09  1.250172e-02   8.382069e-03
6.825009e+09  9.973847e-03   1.043866e-02
6.862508e+09  8.652133e-04   1.654662e-02
6.900008e+09  2.703033e-03   1.426669e-02
6.937508e+09  6.019918e-03   1.270364e-02
6.975007e+09  2.707976e-03   9.310352e-03
7.012506e+09  1.364151e-03   3.558171e-03
7.050006e+09  2.548760e-03   -1.336813e-03
7.087506e+09  4.445770e-03   1.744037e-04
7.125005e+09  4.050054e-03   -4.967569e-03
7.162504e+09  6.836582e-03   -8.554314e-03
7.200004e+09  6.896816e-03   -1.987956e-03
7.237504e+09  1.769409e-02   -6.086057e-03
7.275003e+09  2.122650e-02   -4.009887e-03
7.312502e+09  2.932383e-02   -2.027549e-03
7.350002e+09  2.658052e-02   2.063102e-03
7.387502e+09  2.687243e-02   7.380769e-03
7.425001e+09  2.968126e-02   1.639134e-02
7.462500e+09  2.604386e-02   1.849700e-02
7.500000e+09  2.582164e-02   2.789434e-02
