# Hz S RI R 50.000000
! FREQ                re:S1  1             im:S1  1    
1.000000e+05  7.967995e-04   -4.033648e-03
3.759900e+07  6.100039e-04   -2.178311e-03
7.509800e+07  -2.325891e-03   3.516958e-03
1.125970e+08  -4.657250e-03   4.607607e-03
1.500960e+08  -2.180737e-03   1.039263e-03
1.875950e+08  -6.425125e-04   -4.579184e-05
2.250940e+08  8.729923e-04   -2.035951e-04
2.625930e+08  1.536156e-03   -2.636279e-05
3.000920e+08  -2.145423e-03   -1.099460e-03
3.375910e+08  8.201587e-04   5.451123e-04
3.750900e+08  -1.299269e-03   -1.730283e-03
4.125890e+08  2.469121e-04   2.776419e-04
4.500880e+08  3.092407e-04   1.581288e-03
4.875870e+08  1.677557e-04   -4.052756e-04
5.250860e+08  -1.548320e-04   1.162893e-03
5.625850e+08  -1.890672e-03   3.007952e-03
6.000840e+08  3.750070e-05   3.030116e-04
6.375830e+08  -1.472271e-03   1.143327e-03
6.750820e+08  -2.548949e-03   1.045617e-03
7.125810e+08  6.712490e-04   2.009352e-04
7.500800e+08  3.396514e-03   8.468741e-04
7.875790e+08  6.471708e-04   6.383296e-04
8.250780e+08  2.458191e-03   2.472549e-03
8.625770e+08  3.659312e-03   5.361727e-03
9.000760e+08  -1.019210e-03   -1.456725e-03
9.375750e+08  9.417138e-05   2.953638e-03
9.750740e+08  -4.975439e-04   1.215668e-03
1.012573e+09  9.214057e-04   -3.589524e-03
1.050072e+09  1.141896e-03   -2.832354e-03
1.087571e+09  -1.285391e-03   8.543936e-04
1.125070e+09  1.819810e-03   -1.298690e-03
1.162569e+09  8.071009e-03   -2.986117e-03
1.200068e+09  -1.397288e-03   -3.278200e-05
1.237567e+09  7.573411e-04   -9.270738e-05
1.275066e+09  1.316615e-03   4.841854e-04
1.312565e+09  -3.760151e-04   -5.488200e-04
1.350064e+09  -5.896574e-04   -1.069147e-03
1.387563e+09  -7.741696e-04   -2.841274e-03
1.425062e+09  -7.307721e-05   -2.040241e-03
1.462561e+09  1.680784e-04   2.285335e-03
1.500060e+09  -2.411293e-04   2.042143e-03
1.537559e+09  -1.374497e-03   3.138825e-03
1.575058e+09  -2.494476e-03   2.900527e-03
1.612557e+09  6.538764e-03   -3.260852e-03
1.650056e+09  -3.092522e-03   1.255737e-03
1.687555e+09  -2.500373e-03   5.078922e-04
1.725054e+09  1.744741e-03   8.819553e-04
1.762553e+09  4.208304e-03   2.448450e-03
1.800052e+09  -1.595373e-03   -9.101113e-04
1.837551e+09  1.170238e-03   2.163221e-03
1.875050e+09  -1.011073e-03   -1.117298e-03
1.912549e+09  -3.223336e-04   -4.030736e-04
1.950048e+09  -3.797001e-04   1.091382e-03
1.987547e+09  -6.046817e-05   -8.298824e-04
2.025046e+09  -7.914711e-04   9.383560e-04
2.062545e+09  -4.237408e-03   4.086667e-03
2.100044e+09  -3.123928e-03   1.645906e-03
2.137543e+09  -4.107680e-04   -7.455506e-05
2.175042e+09  2.824970e-03   -3.788822e-04
2.212541e+09  1.152899e-03   1.802348e-04
2.250040e+09  -2.980406e-05   -4.515124e-04
2.287539e+09  3.190888e-03   2.163535e-03
2.325038e+09  1.785706e-03   1.766276e-03
2.362537e+09  -2.925136e-04   -1.546139e-03
2.400036e+09  -1.363810e-04   -2.552090e-03
2.437535e+09  7.006843e-04   -2.041793e-03
2.475034e+09  1.396962e-03   -1.847785e-03
2.512533e+09  -2.988651e-05   1.098745e-03
2.550032e+09  -6.657201e-04   1.255450e-03
2.587531e+09  3.042369e-03   -1.316688e-03
2.625030e+09  -4.623974e-04   5.897000e-04
2.662529e+09  3.746987e-03   1.909726e-04
2.700028e+09  3.342662e-03   9.796974e-04
2.737527e+09  -4.227443e-03   -1.452462e-03
2.775026e+09  -1.088788e-03   -7.037620e-04
2.812525e+09  9.596533e-04   1.484516e-03
2.850024e+09  2.522334e-04   9.615622e-04
2.887523e+09  -1.695172e-05   1.222616e-03
2.925022e+09  -7.195894e-05   6.675326e-04
2.962521e+09  1.570882e-04   -6.759150e-04
3.000020e+09  -1.271264e-03   1.821928e-03
3.037519e+09  1.243317e-03   -5.445578e-04
3.075018e+09  3.801511e-03   -1.743009e-03
3.112517e+09  -4.034056e-03   1.129881e-03
3.150016e+09  9.613358e-04   1.411609e-04
3.187515e+09  -4.707008e-03   -1.221420e-03
3.225014e+09  5.618013e-04   -3.218635e-04
3.262513e+09  6.998552e-04   9.708391e-05
3.300012e+09  1.473927e-03   1.211769e-04
3.337511e+09  -5.109809e-04   -5.049105e-03
3.375010e+09  9.329855e-04   -2.412271e-03
3.412509e+09  1.650543e-03   -1.687864e-03
3.450008e+09  2.039081e-03   -7.051450e-04
3.487507e+09  -2.197378e-03   5.527407e-03
3.525006e+09  -1.031717e-03   2.787078e-03
3.562505e+09  7.293591e-03   -1.992889e-03
3.600004e+09  3.532948e-03   5.963749e-04
3.637503e+09  4.365631e-03   8.513634e-04
3.675002e+09  3.661762e-04   9.519849e-04
3.712501e+09  -2.786186e-04   5.273849e-04
3.750000e+09  7.086136e-04   1.005890e-03
3.787499e+09  -1.532749e-03   -2.103590e-03
3.824998e+09  7.761394e-04   3.404539e-03
3.862497e+09  3.653850e-04   3.173819e-03
3.899996e+09  -3.280705e-04   9.087919e-04
3.937495e+09  4.702375e-03   -9.317231e-03
3.974994e+09  -1.824827e-03   2.312999e-03
4.012493e+09  -2.844766e-03   1.936241e-03
4.049992e+09  4.155713e-03   -2.087385e-03
4.087491e+09  1.568255e-03   -5.857104e-04
4.124990e+09  -3.968964e-03   -7.505229e-04
4.162489e+09  7.147868e-03   1.062234e-03
4.199988e+09  2.349997e-03   5.862323e-04
4.237487e+09  2.316025e-03   5.003285e-04
4.274986e+09  2.082596e-03   8.089213e-04
4.312485e+09  8.053782e-04   -1.609347e-03
4.349984e+09  1.115691e-03   8.390573e-05
4.387483e+09  1.147224e-03   4.010370e-04
4.424982e+09  1.593424e-03   -7.301613e-04
4.462481e+09  -8.953164e-04   3.189684e-03
4.499980e+09  2.333106e-03   -1.167743e-03
4.537479e+09  2.416356e-03   -7.093389e-04
4.574978e+09  1.320470e-03   1.840961e-04
4.612477e+09  1.217189e-03   7.003211e-04
4.649976e+09  2.451253e-03   9.097841e-04
4.687475e+09  -5.051397e-03   -2.158606e-03
4.724974e+09  -4.798226e-03   -3.686147e-03
4.762473e+09  -1.085001e-03   -8.482584e-04
4.799972e+09  -1.561925e-03   -2.273867e-03
4.837471e+09  -8.134527e-04   -2.913489e-03
4.874970e+09  -1.359834e-03   2.479811e-03
4.912469e+09  1.288250e-03   -5.943973e-03
4.949968e+09  -3.876028e-03   2.543253e-03
4.987467e+09  -9.288408e-04   -9.584838e-04
5.024966e+09  2.050739e-03   -2.415718e-03
5.062465e+09  5.769035e-03   -2.864174e-03
5.099964e+09  -4.756455e-05   -1.132308e-03
5.137463e+09  -5.920432e-04   -7.519684e-04
5.174962e+09  5.519107e-03   1.958510e-03
5.212461e+09  5.771161e-04   -3.174622e-05
5.249960e+09  -8.766824e-04   -1.392444e-03
5.287459e+09  1.204407e-03   3.333230e-03
5.324958e+09  1.451543e-04   4.091440e-03
5.362457e+09  2.837210e-04   -9.960333e-04
5.399956e+09  1.000594e-03   -2.938420e-03
5.437455e+09  -2.077122e-04   5.877815e-04
5.474954e+09  2.593552e-04   -3.082820e-04
5.512453e+09  -2.437325e-03   1.165925e-03
5.549952e+09  -7.977750e-04   1.524738e-04
5.587451e+09  9.959495e-04   2.915933e-05
5.624950e+09  -5.052884e-03   -8.858589e-04
5.662449e+09  -2.675433e-03   -8.391875e-04
5.699948e+09  -6.612279e-04   -2.052745e-04
5.737447e+09  -1.056024e-03   -2.047302e-04
5.774946e+09  -1.861391e-03   -1.944090e-03
5.812445e+09  -1.261598e-03   -3.137511e-04
5.849944e+09  -1.831167e-03   2.591568e-03
5.887443e+09  -8.393670e-04   -2.745199e-03
5.924942e+09  -1.728059e-03   3.989505e-04
5.962441e+09  -4.013736e-04   -1.672984e-03
5.999940e+09  1.050116e-03   -1.964531e-03
6.037439e+09  3.325993e-04   -1.193670e-03
6.074938e+09  -6.230584e-03   -7.235493e-04
6.112437e+09  2.068534e-03   4.943272e-04
6.149936e+09  -2.495854e-03   -1.364198e-03
6.187435e+09  -2.628480e-03   -2.395331e-03
6.224934e+09  -2.642753e-03   -2.973233e-03
6.262433e+09  -1.213497e-03   -4.347898e-04
6.299932e+09  -1.302107e-03   -2.936088e-04
6.337431e+09  -9.369280e-04   -7.440564e-04
6.374930e+09  -2.826002e-03   2.117521e-03
6.412429e+09  -2.089688e-03   9.159522e-04
6.449928e+09  -4.719226e-03   1.948944e-03
6.487427e+09  2.476127e-03   -6.893299e-04
6.524926e+09  -1.663975e-03   -7.098289e-05
6.562425e+09  -2.399742e-03   -9.999800e-05
6.599924e+09  -4.416836e-03   -1.361982e-03
6.637423e+09  -9.550601e-04   5.295569e-04
6.674922e+09  -6.139925e-04   6.913268e-04
6.712421e+09  7.135609e-04   4.985883e-03
6.749920e+09  -1.530468e-03   -3.941827e-03
6.787419e+09  -1.003843e-03   3.679652e-03
6.824918e+09  -2.863741e-03   5.884342e-03
6.862417e+09  7.687210e-04   -1.499167e-03
6.899916e+09  1.042979e-04   -1.659385e-04
6.937415e+09  -5.865125e-03   3.580100e-03
6.974914e+09  -4.239443e-03   1.790962e-03
7.012413e+09  3.211426e-03   1.177114e-03
7.049912e+09  -2.232600e-04   9.962284e-04
7.087411e+09  3.047987e-04   1.376689e-03
7.124910e+09  2.299200e-03   3.843582e-03
7.162409e+09  -1.278265e-03   2.495540e-05
7.199908e+09  -1.930307e-03   -3.059140e-03
7.237407e+09  -4.809184e-04   3.148803e-03
7.274906e+09  -8.839997e-04   4.164820e-03
7.312405e+09  1.011710e-03   -2.017688e-03
7.349904e+09  -1.968325e-03   3.229436e-03
7.387403e+09  2.732088e-03   -1.364225e-03
7.424902e+09  -6.599828e-03   3.904111e-03
7.462401e+09  1.129223e-03   9.971020e-04
7.499900e+09  -6.792569e-03   8.829194e-04
