# Hz S RI R 50.000000
! FREQ                re:S1  1             im:S1  1    
1.000000e+05  -5.376022e-03   9.106043e-03
3.759950e+07  -2.117080e-03   -7.091611e-04
7.509900e+07  -9.276868e-04   -4.994430e-03
1.125985e+08  -2.597870e-03   -4.059718e-03
1.500980e+08  2.668322e-04   -5.156081e-03
1.875975e+08  1.521748e-03   -4.391974e-03
2.250970e+08  2.660938e-03   -2.958235e-03
2.625965e+08  3.255034e-03   -2.203913e-03
3.000960e+08  5.539464e-03   -1.023853e-05
3.375955e+08  4.599152e-03   -1.041916e-03
3.750950e+08  4.177430e-03   -1.683833e-03
4.125945e+08  3.453740e-03   4.047067e-03
4.500940e+08  2.101585e-03   2.116896e-03
4.875935e+08  2.030297e-04   1.881372e-03
5.250930e+08  -1.296909e-03   2.486145e-03
5.625925e+08  -4.708462e-03   3.128229e-03
6.000920e+08  -1.288711e-03   2.628316e-03
6.375915e+08  -3.779540e-03   1.426089e-03
6.750910e+08  -3.300818e-03   -5.207659e-04
7.125905e+08  -4.378686e-03   -4.814978e-03
7.500900e+08  -4.900937e-03   -9.791537e-03
7.875895e+08  -4.327808e-03   -1.176692e-02
8.250890e+08  -3.688652e-03   -8.987338e-03
8.625885e+08  -1.500985e-03   -1.047529e-02
9.000880e+08  1.291666e-03   -1.132758e-02
9.375875e+08  1.504767e-03   -1.022429e-02
9.750870e+08  3.652749e-03   -9.752911e-03
1.012586e+09  1.022931e-02   -8.509089e-03
1.050086e+09  3.612288e-03   -1.032042e-02
1.087586e+09  9.748181e-03   -5.763371e-03
1.125085e+09  1.081163e-02   -2.533332e-03
1.162584e+09  9.746764e-03   -3.964206e-03
1.200084e+09  9.024042e-03   2.301278e-03
1.237584e+09  6.121951e-03   4.797931e-03
1.275083e+09  6.294242e-03   1.881293e-03
1.312582e+09  6.543083e-03   1.533905e-03
1.350082e+09  -3.600576e-03   5.278553e-03
1.387582e+09  -5.709902e-04   2.975320e-03
1.425081e+09  -1.826148e-03   1.170890e-03
1.462580e+09  -2.609849e-03   -1.015171e-03
1.500080e+09  -3.867560e-03   -3.307042e-03
1.537580e+09  -3.582682e-03   -4.607337e-03
1.575079e+09  -3.892762e-03   -9.485458e-03
1.612578e+09  -2.658600e-03   -9.281357e-03
1.650078e+09  -1.066396e-03   -1.070280e-02
1.687578e+09  2.715579e-03   -1.313706e-02
1.725077e+09  4.656763e-03   -1.254911e-02
1.762576e+09  8.029647e-03   -1.215794e-02
1.800076e+09  1.023780e-02   -1.090516e-02
1.837576e+09  1.389476e-02   -8.122087e-03
1.875075e+09  1.693370e-02   -3.529554e-03
1.912574e+09  1.377542e-02   -4.373620e-03
1.950074e+09  1.403220e-02   4.540190e-04
1.987574e+09  1.223143e-02   6.936002e-03
2.025073e+09  1.124957e-02   1.639705e-03
2.062572e+09  1.005264e-02   2.627814e-03
2.100072e+09  7.544577e-03   4.337682e-03
2.137572e+09  3.320192e-03   5.479102e-03
2.175071e+09  3.945309e-03   4.275504e-03
2.212570e+09  4.267326e-03   3.903877e-03
2.250070e+09  -1.332418e-03   1.285802e-03
2.287570e+09  -7.210224e-04   5.572655e-04
2.325069e+09  -2.394437e-03   -3.257469e-03
2.362568e+09  -2.666325e-03   -7.627457e-03
2.400068e+09  -9.654677e-04   -8.307621e-03
2.437568e+09  3.328867e-03   -1.627326e-02
2.475067e+09  5.367283e-03   -1.420308e-02
2.512566e+09  7.835456e-03   -1.346379e-02
2.550066e+09  7.691223e-03   -1.131946e-02
2.587566e+09  1.036471e-02   -9.784099e-03
2.625065e+09  1.268912e-02   -7.567915e-03
2.662564e+09  1.439826e-02   -4.744973e-03
2.700064e+09  1.923173e-02   3.199487e-03
2.737564e+09  1.433204e-02   -1.067078e-03
2.775063e+09  1.388193e-02   6.122676e-03
2.812562e+09  1.133725e-02   6.332227e-03
2.850062e+09  9.829924e-03   5.590322e-03
2.887562e+09  4.676395e-03   9.597098e-03
2.925061e+09  6.666305e-04   9.805577e-03
2.962560e+09  5.199343e-04   8.184064e-03
3.000060e+09  -3.475685e-03   6.495480e-03
3.037560e+09  -3.520202e-03   2.504186e-03
3.075059e+09  -5.888139e-03   -3.016491e-03
3.112558e+09  -5.141833e-03   -6.830496e-03
3.150058e+09  -2.338534e-03   -5.077722e-03
3.187558e+09  -2.106609e-03   -9.911315e-03
3.225057e+09  -9.193186e-05   -1.293581e-02
3.262556e+09  5.139564e-03   -1.804038e-02
3.300056e+09  6.703294e-03   -1.541539e-02
3.337556e+09  2.988276e-03   -1.185794e-02
3.375055e+09  1.560609e-02   -1.174722e-02
3.412554e+09  1.564349e-02   -8.647007e-03
3.450054e+09  2.090307e-02   -2.754550e-03
3.487554e+09  2.073666e-02   5.049087e-04
3.525053e+09  1.989891e-02   2.286807e-03
3.562552e+09  1.621909e-02   2.784954e-03
3.600052e+09  1.272327e-02   8.597686e-03
3.637552e+09  7.165696e-03   1.395839e-02
3.675051e+09  3.636498e-03   1.463847e-02
3.712550e+09  5.379359e-04   1.463981e-02
3.750050e+09  1.404995e-03   1.314011e-02
3.787550e+09  -6.001416e-03   1.046377e-02
3.825049e+09  -7.032389e-03   7.700314e-03
3.862548e+09  -8.254484e-03   3.338002e-03
3.900048e+09  -1.170509e-02   -5.747584e-03
3.937548e+09  -1.152177e-02   -1.030234e-02
3.975047e+09  -1.059186e-02   -1.135786e-02
4.012546e+09  -9.242258e-03   -1.321651e-02
4.050046e+09  -4.409572e-03   -1.713872e-02
4.087546e+09  1.207832e-03   -1.928325e-02
4.125045e+09  9.149354e-04   -1.602505e-02
4.162544e+09  1.152004e-02   -1.650614e-02
4.200044e+09  1.041761e-02   -1.536875e-02
4.237544e+09  1.393333e-02   -1.410416e-02
4.275043e+09  2.059710e-02   -6.600638e-03
4.312542e+09  1.870809e-02   -5.843761e-03
4.350042e+09  1.761012e-02   -8.428274e-04
4.387542e+09  1.521135e-02   9.081498e-03
4.425041e+09  1.507048e-02   8.570018e-03
4.462540e+09  1.277443e-02   1.246453e-02
4.500040e+09  1.252053e-03   1.878035e-02
4.537540e+09  4.422628e-03   1.400318e-02
4.575039e+09  2.051860e-03   1.228541e-02
4.612538e+09  -6.493107e-03   8.933565e-03
4.650038e+09  -9.534997e-03   6.550821e-03
4.687538e+09  -1.385377e-02   3.101901e-03
4.725037e+09  -1.602756e-02   -1.698283e-03
4.762536e+09  -1.490859e-02   -3.059085e-03
4.800036e+09  -1.373769e-02   -9.612053e-04
4.837536e+09  -8.276866e-03   -1.075472e-02
4.875035e+09  -5.955861e-03   -1.459863e-02
4.912534e+09  2.509815e-03   -2.274180e-02
4.950034e+09  2.312587e-03   -2.343729e-02
4.987534e+09  4.491873e-03   -2.169438e-02
5.025033e+09  4.078877e-03   -1.759121e-02
5.062532e+09  8.953468e-03   -1.043342e-02
5.100032e+09  1.144070e-02   -5.377066e-03
5.137532e+09  1.514105e-02   4.100326e-03
5.175031e+09  1.678242e-02   5.194223e-03
5.212530e+09  1.811008e-02   4.875149e-03
5.250030e+09  1.373702e-02   6.245690e-03
5.287530e+09  1.034374e-02   5.211430e-03
5.325029e+09  1.623247e-03   7.012674e-03
5.362528e+09  9.878195e-04   7.644155e-03
5.400028e+09  -1.062733e-02   7.565026e-03
5.437528e+09  -1.314718e-02   6.198884e-03
5.475027e+09  -1.419311e-02   2.667196e-03
5.512526e+09  -1.060847e-02   2.517847e-03
5.550026e+09  -8.768909e-03   -2.727261e-03
5.587526e+09  -8.107755e-03   -5.658474e-03
5.625025e+09  -4.792907e-03   -1.548841e-02
5.662524e+09  -4.747883e-03   -1.667807e-02
5.700024e+09  6.343513e-04   -2.149865e-02
5.737524e+09  3.326373e-03   -1.999076e-02
5.775023e+09  9.584774e-03   -1.866142e-02
5.812522e+09  1.384829e-02   -1.606849e-02
5.850022e+09  1.789481e-02   -1.336041e-02
5.887522e+09  1.868523e-02   -1.256781e-02
5.925021e+09  2.074356e-02   -9.967707e-03
5.962520e+09  2.104989e-02   -1.605566e-03
6.000020e+09  1.821497e-02   3.372171e-03
6.037520e+09  1.672549e-02   2.017998e-03
6.075019e+09  1.185972e-02   7.156372e-03
6.112518e+09  1.124076e-02   7.538049e-03
6.150018e+09  5.954245e-03   7.985339e-03
6.187518e+09  6.211132e-03   6.546166e-03
6.225017e+09  5.987048e-03   5.321068e-03
6.262516e+09  5.213795e-03   3.052821e-03
6.300016e+09  5.830354e-03   8.718080e-04
6.337516e+09  5.460262e-03   -2.977076e-03
6.375015e+09  5.363643e-03   -3.666660e-03
6.412514e+09  5.886611e-03   -7.133906e-03
6.450014e+09  7.928400e-03   -8.982202e-03
6.487514e+09  1.212592e-02   -9.573223e-03
6.525013e+09  8.460426e-03   -6.229623e-03
6.562512e+09  8.706546e-03   -4.393185e-03
6.600012e+09  1.495756e-02   -2.787075e-04
6.637512e+09  1.806669e-02   4.301287e-03
6.675011e+09  1.338021e-02   -2.898860e-04
6.712510e+09  1.528822e-02   4.482239e-03
6.750010e+09  1.356679e-02   1.262805e-02
6.787510e+09  1.264230e-02   8.323880e-03
6.825009e+09  9.974700e-03   1.061277e-02
6.862508e+09  1.508958e-03   1.626868e-02
6.900008e+09  2.838804e-03   1.429848e-02
6.937508e+09  6.025382e-03   1.275207e-02
6.975007e+09  3.003190e-03   9.398376e-03
7.012506e+09  1.467426e-03   3.576091e-03
7.050006e+09  2.087218e-03   -2.138642e-03
7.087506e+09  4.381320e-03   -5.191422e-04
7.125005e+09  4.213560e-03   -4.117406e-03
7.162504e+09  7.052984e-03   -8.760520e-03
7.200004e+09  7.173188e-03   -2.062487e-03
7.237504e+09  1.790753e-02   -6.068687e-03
7.275003e+09  2.168863e-02   -4.049121e-03
7.312502e+09  2.955122e-02   -1.957619e-03
7.350002e+09  2.702567e-02   2.140066e-03
7.387502e+09  2.653277e-02   7.246666e-03
7.425001e+09  3.088846e-02   1.748497e-02
7.462500e+09  2.606047e-02   1.850603e-02
7.500000e+09  2.575660e-02   2.722488e-02
