# Hz S RI R 50.000000
! FREQ                re:S1  1             im:S1  1    
1.000000e+05  -2.566895e-03   1.048178e-02
3.759950e+07  -1.593729e-03   7.460992e-04
7.509900e+07  8.143085e-05   -3.931698e-03
1.125985e+08  -1.639050e-03   -2.599763e-03
1.500980e+08  4.200124e-04   -3.399292e-03
1.875975e+08  1.485743e-03   -2.927806e-03
2.250970e+08  2.299969e-03   -1.912970e-03
2.625965e+08  2.943833e-03   -1.328931e-03
3.000960e+08  4.167278e-03   4.311951e-05
3.375955e+08  3.184018e-03   -1.116185e-03
3.750950e+08  2.663919e-03   -2.259692e-03
4.125945e+08  2.124711e-03   3.567640e-03
4.500940e+08  1.428629e-03   9.842072e-04
4.875935e+08  1.311874e-04   8.194530e-04
5.250930e+08  -8.205360e-04   1.039372e-03
5.625925e+08  -3.670495e-03   1.502012e-03
6.000920e+08  5.607680e-04   1.062484e-03
6.375915e+08  -2.556028e-03   1.248867e-05
6.750910e+08  -1.876245e-03   -1.341323e-03
7.125905e+08  -3.294038e-03   -5.519570e-03
7.500900e+08  -3.477177e-03   -9.259871e-03
7.875895e+08  -2.976816e-03   -1.107985e-02
8.250890e+08  -2.041591e-03   -8.693314e-03
8.625885e+08  -1.695787e-04   -9.088357e-03
9.000880e+08  1.684543e-03   -9.046441e-03
9.375875e+08  2.145529e-03   -8.582779e-03
9.750870e+08  3.525296e-03   -8.144031e-03
1.012586e+09  9.021139e-03   -7.284668e-03
1.050086e+09  2.048002e-03   -9.561588e-03
1.087586e+09  8.627053e-03   -4.744167e-03
1.125085e+09  8.840229e-03   -2.865819e-03
1.162584e+09  8.049012e-03   -4.202030e-03
1.200084e+09  7.501416e-03   1.257480e-03
1.237584e+09  4.908208e-03   3.543345e-03
1.275083e+09  5.563019e-03   2.625750e-04
1.312582e+09  6.023186e-03   -1.299810e-04
1.350082e+09  -3.043532e-03   3.120489e-03
1.387582e+09  -1.407263e-04   9.185051e-04
1.425081e+09  -4.990287e-04   -5.223200e-04
1.462580e+09  -2.063843e-03   -2.797721e-03
1.500080e+09  -2.285020e-03   -3.998554e-03
1.537580e+09  -2.086331e-03   -5.369084e-03
1.575079e+09  -1.887860e-03   -8.146639e-03
1.612578e+09  -7.058830e-04   -8.526569e-03
1.650078e+09  9.055004e-04   -9.797635e-03
1.687578e+09  3.616870e-03   -1.118121e-02
1.725077e+09  5.753240e-03   -1.102267e-02
1.762576e+09  8.376128e-03   -1.061043e-02
1.800076e+09  1.000640e-02   -9.452632e-03
1.837576e+09  1.290296e-02   -6.978972e-03
1.875075e+09  1.595234e-02   -2.444553e-03
1.912574e+09  1.274947e-02   -3.207283e-03
1.950074e+09  1.269464e-02   9.882622e-04
1.987574e+09  1.080056e-02   6.568340e-03
2.025073e+09  9.958412e-03   1.041285e-03
2.062572e+09  8.823226e-03   1.809355e-03
2.100072e+09  7.285455e-03   2.576053e-03
2.137572e+09  2.606378e-03   3.937436e-03
2.175071e+09  4.558060e-03   2.402669e-03
2.212570e+09  6.463574e-03   2.454674e-03
2.250070e+09  8.738279e-04   3.486721e-04
2.287570e+09  1.425071e-03   -1.366709e-04
2.325069e+09  -2.799002e-04   -3.731451e-03
2.362568e+09  -2.859932e-04   -6.583705e-03
2.400068e+09  1.191995e-03   -7.469900e-03
2.437568e+09  5.258951e-03   -1.499744e-02
2.475067e+09  7.061489e-03   -1.276133e-02
2.512566e+09  8.488389e-03   -1.126733e-02
2.550066e+09  7.827575e-03   -9.201677e-03
2.587566e+09  9.803934e-03   -7.956624e-03
2.625065e+09  1.187631e-02   -5.978534e-03
2.662564e+09  1.268582e-02   -3.859827e-03
2.700064e+09  1.737797e-02   3.594165e-03
2.737564e+09  1.250538e-02   -1.166587e-03
2.775063e+09  1.222747e-02   5.189997e-03
2.812562e+09  1.008392e-02   4.868112e-03
2.850062e+09  8.990947e-03   3.883938e-03
2.887562e+09  4.261092e-03   7.655167e-03
2.925061e+09  1.547371e-03   7.375223e-03
2.962560e+09  1.554173e-03   5.964992e-03
3.000060e+09  -1.955384e-03   4.440956e-03
3.037560e+09  -1.902020e-03   1.576776e-03
3.075059e+09  -4.125959e-03   -3.732323e-03
3.112558e+09  -2.985328e-03   -6.584080e-03
3.150058e+09  -2.712713e-04   -4.501804e-03
3.187558e+09  -1.017742e-04   -7.964525e-03
3.225057e+09  1.693700e-03   -1.053006e-02
3.262556e+09  6.127848e-03   -1.453989e-02
3.300056e+09  7.129210e-03   -1.191631e-02
3.337556e+09  3.190274e-03   -8.530425e-03
3.375055e+09  1.399984e-02   -8.563131e-03
3.412554e+09  1.312435e-02   -6.115555e-03
3.450054e+09  1.887024e-02   -3.079872e-04
3.487554e+09  1.716619e-02   1.349095e-03
3.525053e+09  1.645569e-02   3.183119e-03
3.562552e+09  1.294318e-02   2.797003e-03
3.600052e+09  1.007273e-02   7.302466e-03
3.637552e+09  4.848432e-03   1.238871e-02
3.675051e+09  2.088773e-03   1.219610e-02
3.712550e+09  1.175483e-04   1.147577e-02
3.750050e+09  1.975849e-03   9.731528e-03
3.787550e+09  -4.688601e-03   7.148523e-03
3.825049e+09  -4.628277e-03   4.956047e-03
3.862548e+09  -5.191295e-03   1.347787e-03
3.900048e+09  -8.397095e-03   -7.091880e-03
3.937548e+09  -7.551152e-03   -9.832556e-03
3.975047e+09  -6.609861e-03   -1.013956e-02
4.012546e+09  -5.655515e-03   -1.118546e-02
4.050046e+09  -1.290493e-03   -1.443025e-02
4.087546e+09  3.496560e-03   -1.577290e-02
4.125045e+09  2.816060e-03   -1.238576e-02
4.162544e+09  1.155441e-02   -1.227130e-02
4.200044e+09  8.514980e-03   -1.134415e-02
4.237544e+09  1.120557e-02   -1.044510e-02
4.275043e+09  1.738742e-02   -3.345769e-03
4.312542e+09  1.492338e-02   -3.179472e-03
4.350042e+09  1.336298e-02   1.057027e-04
4.387542e+09  1.104724e-02   8.572265e-03
4.425041e+09  1.147854e-02   6.287100e-03
4.462540e+09  9.677375e-03   9.318469e-03
4.500040e+09  -1.127272e-03   1.498039e-02
4.537540e+09  3.153043e-03   9.611263e-03
4.575039e+09  1.951074e-03   7.490584e-03
4.612538e+09  -4.670665e-03   4.202119e-03
4.650038e+09  -6.467237e-03   1.968704e-03
4.687538e+09  -9.743945e-03   -1.447325e-03
4.725037e+09  -1.087606e-02   -5.269230e-03
4.762536e+09  -9.346568e-03   -5.384497e-03
4.800036e+09  -7.909018e-03   -1.602010e-03
4.837536e+09  -2.036952e-03   -1.077311e-02
4.875035e+09  -4.247164e-05   -1.274744e-02
4.912534e+09  7.366784e-03   -1.915446e-02
4.950034e+09  7.118489e-03   -1.881524e-02
4.987534e+09  8.029240e-03   -1.661410e-02
5.025033e+09  7.289915e-03   -1.192191e-02
5.062532e+09  9.419936e-03   -5.502964e-03
5.100032e+09  1.048929e-02   -8.702175e-04
5.137532e+09  1.318576e-02   9.050529e-03
5.175031e+09  1.394875e-02   7.408824e-03
5.212530e+09  1.480507e-02   7.965182e-03
5.250030e+09  1.065053e-02   7.717640e-03
5.287530e+09  8.683645e-03   4.748392e-03
5.325029e+09  -5.251770e-04   5.761461e-03
5.362528e+09  -1.006369e-04   4.909294e-03
5.400028e+09  -1.011479e-02   4.060873e-03
5.437528e+09  -1.309429e-02   1.677945e-03
5.475027e+09  -1.270446e-02   -1.257489e-03
5.512526e+09  -8.433139e-03   -1.326100e-03
5.550026e+09  -5.581722e-03   -5.220546e-03
5.587526e+09  -4.188465e-03   -6.766110e-03
5.625025e+09  -8.851781e-05   -1.627339e-02
5.662524e+09  1.452494e-04   -1.614806e-02
5.700024e+09  4.687898e-03   -1.955996e-02
5.737524e+09  7.388365e-03   -1.732211e-02
5.775023e+09  1.287444e-02   -1.513031e-02
5.812522e+09  1.618640e-02   -1.170736e-02
5.850022e+09  1.950809e-02   -8.134431e-03
5.887522e+09  1.882646e-02   -7.510308e-03
5.925021e+09  1.980812e-02   -4.898732e-03
5.962520e+09  1.902277e-02   2.908107e-03
6.000020e+09  1.519793e-02   6.989200e-03
6.037520e+09  1.369811e-02   3.775538e-03
6.075019e+09  7.385471e-03   9.017760e-03
6.112518e+09  7.320047e-03   8.030964e-03
6.150018e+09  2.076556e-03   7.801361e-03
6.187518e+09  1.686608e-03   5.531798e-03
6.225017e+09  2.430557e-03   3.642609e-03
6.262516e+09  2.515844e-03   1.055516e-03
6.300016e+09  4.034176e-03   -1.034614e-03
6.337516e+09  4.135319e-03   -6.437557e-03
6.375015e+09  4.616770e-03   -5.936291e-03
6.412514e+09  6.532843e-03   -1.000118e-02
6.450014e+09  9.371050e-03   -1.124173e-02
6.487514e+09  1.385428e-02   -1.087080e-02
6.525013e+09  1.015299e-02   -6.970830e-03
6.562512e+09  1.079615e-02   -4.715848e-03
6.600012e+09  1.633372e-02   -5.908502e-04
6.637512e+09  1.973375e-02   4.697199e-03
6.675011e+09  1.455156e-02   1.633456e-04
6.712510e+09  1.599002e-02   5.347121e-03
6.750010e+09  1.385654e-02   1.257570e-02
6.787510e+09  1.234482e-02   8.961396e-03
6.825009e+09  9.676403e-03   1.077406e-02
6.862508e+09  9.798045e-05   1.697204e-02
6.900008e+09  1.218599e-03   1.430419e-02
6.937508e+09  4.376658e-03   1.247944e-02
6.975007e+09  4.087679e-04   8.993389e-03
7.012506e+09  -2.908742e-04   3.926400e-03
7.050006e+09  7.609519e-06   -1.643460e-03
7.087506e+09  2.407384e-03   -9.633930e-05
7.125005e+09  1.963323e-03   -5.001203e-03
7.162504e+09  4.661097e-03   -9.685452e-03
7.200004e+09  5.156092e-03   -3.770288e-03
7.237504e+09  1.533802e-02   -7.382567e-03
7.275003e+09  1.968375e-02   -5.621256e-03
7.312502e+09  2.835833e-02   -3.376148e-03
7.350002e+09  2.487704e-02   8.497012e-04
7.387502e+09  2.581967e-02   6.074784e-03
7.425001e+09  2.981784e-02   1.604299e-02
7.462500e+09  2.549977e-02   1.712945e-02
7.500000e+09  2.598861e-02   2.722793e-02
