# Hz S RI R 50.000000
! FREQ                re:S1  1             im:S1  1    
1.000000e+05  1.028950e+00   6.611043e-03
3.759950e+07  9.973635e-01   -8.960684e-03
7.509900e+07  9.983234e-01   -2.944866e-02
1.125985e+08  9.973941e-01   -3.740476e-02
1.500980e+08  9.969685e-01   -4.609611e-02
1.875975e+08  9.969972e-01   -5.505098e-02
2.250970e+08  9.992579e-01   -6.612553e-02
2.625965e+08  9.994860e-01   -7.543100e-02
3.000960e+08  9.976930e-01   -8.472005e-02
3.375955e+08  9.966881e-01   -9.413254e-02
3.750950e+08  9.942774e-01   -1.092338e-01
4.125945e+08  9.928293e-01   -1.126654e-01
4.500940e+08  9.895955e-01   -1.227219e-01
4.875935e+08  9.865279e-01   -1.334196e-01
5.250930e+08  9.865269e-01   -1.427654e-01
5.625925e+08  9.827328e-01   -1.528245e-01
6.000920e+08  9.776134e-01   -1.639046e-01
6.375915e+08  9.774100e-01   -1.717806e-01
6.750910e+08  9.775821e-01   -1.816563e-01
7.125905e+08  9.743126e-01   -1.997393e-01
7.500900e+08  9.710749e-01   -2.163241e-01
7.875895e+08  9.662716e-01   -2.364289e-01
8.250890e+08  9.652579e-01   -2.291175e-01
8.625885e+08  9.636159e-01   -2.357297e-01
9.000880e+08  9.656921e-01   -2.591959e-01
9.375875e+08  9.612950e-01   -2.595361e-01
9.750870e+08  9.594033e-01   -2.680214e-01
1.012586e+09  9.596389e-01   -2.790356e-01
1.050086e+09  9.598679e-01   -2.890805e-01
1.087586e+09  9.560820e-01   -2.951726e-01
1.125085e+09  9.534957e-01   -3.024319e-01
1.162584e+09  9.500500e-01   -3.103276e-01
1.200084e+09  9.462741e-01   -3.176474e-01
1.237584e+09  9.410391e-01   -3.258073e-01
1.275083e+09  9.367760e-01   -3.343584e-01
1.312582e+09  9.284689e-01   -3.438613e-01
1.350082e+09  9.202215e-01   -3.547546e-01
1.387582e+09  9.223531e-01   -3.613935e-01
1.425081e+09  9.159649e-01   -3.735191e-01
1.462580e+09  9.139236e-01   -3.818680e-01
1.500080e+09  9.103320e-01   -3.890426e-01
1.537580e+09  9.012393e-01   -4.088232e-01
1.575079e+09  8.981607e-01   -4.160203e-01
1.612578e+09  8.940587e-01   -4.268951e-01
1.650078e+09  8.900098e-01   -4.298205e-01
1.687578e+09  8.889887e-01   -4.493971e-01
1.725077e+09  8.878962e-01   -4.615041e-01
1.762576e+09  8.854761e-01   -4.686831e-01
1.800076e+09  8.826037e-01   -4.753266e-01
1.837576e+09  8.771993e-01   -4.784471e-01
1.875075e+09  8.741404e-01   -4.852753e-01
1.912574e+09  8.695602e-01   -4.910528e-01
1.950074e+09  8.644212e-01   -4.969110e-01
1.987574e+09  8.589295e-01   -5.031006e-01
2.025073e+09  8.528879e-01   -5.094178e-01
2.062572e+09  8.459046e-01   -5.163093e-01
2.100072e+09  8.374754e-01   -5.239335e-01
2.137572e+09  8.319562e-01   -5.317197e-01
2.175071e+09  8.254829e-01   -5.400460e-01
2.212570e+09  8.258076e-01   -5.446887e-01
2.250070e+09  8.135199e-01   -5.587060e-01
2.287570e+09  8.031956e-01   -5.735649e-01
2.325069e+09  7.967839e-01   -5.862212e-01
2.362568e+09  7.945217e-01   -5.925262e-01
2.400068e+09  7.892995e-01   -6.027006e-01
2.437568e+09  7.847437e-01   -6.113868e-01
2.475067e+09  7.801945e-01   -6.230859e-01
2.512566e+09  7.757713e-01   -6.291289e-01
2.550066e+09  7.735222e-01   -6.398612e-01
2.587566e+09  7.668275e-01   -6.392186e-01
2.625065e+09  7.655681e-01   -6.485494e-01
2.662564e+09  7.590958e-01   -6.514167e-01
2.700064e+09  7.525616e-01   -6.550599e-01
2.737564e+09  7.458549e-01   -6.602665e-01
2.775063e+09  7.387292e-01   -6.651726e-01
2.812562e+09  7.314974e-01   -6.709835e-01
2.850062e+09  7.186864e-01   -6.752918e-01
2.887562e+09  7.148057e-01   -6.828622e-01
2.925061e+09  7.042408e-01   -6.892411e-01
2.962560e+09  6.947368e-01   -6.963139e-01
3.000060e+09  6.822613e-01   -7.058694e-01
3.037560e+09  6.793261e-01   -7.137432e-01
3.075059e+09  6.706861e-01   -7.277047e-01
3.112558e+09  6.686773e-01   -7.319469e-01
3.150058e+09  6.577377e-01   -7.464104e-01
3.187558e+09  6.465101e-01   -7.645526e-01
3.225057e+09  6.385195e-01   -7.755858e-01
3.262556e+09  6.133801e-01   -7.856226e-01
3.300056e+09  6.278918e-01   -7.817766e-01
3.337556e+09  6.223160e-01   -7.814624e-01
3.375055e+09  6.182648e-01   -7.862395e-01
3.412554e+09  6.129870e-01   -7.890789e-01
3.450054e+09  6.069136e-01   -7.908462e-01
3.487554e+09  5.999146e-01   -7.931092e-01
3.525053e+09  5.923506e-01   -7.946832e-01
3.562552e+09  5.827894e-01   -7.977656e-01
3.600052e+09  5.722512e-01   -8.014180e-01
3.637552e+09  5.571064e-01   -8.023917e-01
3.675051e+09  5.474683e-01   -8.063570e-01
3.712550e+09  5.383796e-01   -8.097483e-01
3.750050e+09  5.294018e-01   -8.137424e-01
3.787550e+09  5.231061e-01   -8.197112e-01
3.825049e+09  5.107795e-01   -8.283326e-01
3.862548e+09  4.949083e-01   -8.434681e-01
3.900048e+09  4.926465e-01   -8.493150e-01
3.937548e+09  4.813368e-01   -8.596732e-01
3.975047e+09  4.704415e-01   -8.674971e-01
4.012546e+09  4.628277e-01   -8.737387e-01
4.050046e+09  4.543069e-01   -8.913301e-01
4.087546e+09  4.507288e-01   -8.881005e-01
4.125045e+09  4.466668e-01   -8.910546e-01
4.162544e+09  4.406912e-01   -8.946474e-01
4.200044e+09  4.350884e-01   -8.966811e-01
4.237544e+09  4.284012e-01   -8.976568e-01
4.275043e+09  4.224708e-01   -8.985322e-01
4.312542e+09  4.151158e-01   -8.994736e-01
4.350042e+09  4.051414e-01   -8.997684e-01
4.387542e+09  3.930965e-01   -8.981229e-01
4.425041e+09  3.841428e-01   -8.995627e-01
4.462540e+09  3.778529e-01   -9.006945e-01
4.500040e+09  3.597941e-01   -9.006636e-01
4.537540e+09  3.620569e-01   -9.055569e-01
4.575039e+09  3.452097e-01   -9.118855e-01
4.612538e+09  3.241031e-01   -9.199615e-01
4.650038e+09  3.118893e-01   -9.269394e-01
4.687538e+09  3.013614e-01   -9.304097e-01
4.725037e+09  2.911135e-01   -9.361039e-01
4.762536e+09  2.562262e-01   -9.550335e-01
4.800036e+09  2.793671e-01   -9.506569e-01
4.837536e+09  2.707826e-01   -9.642614e-01
4.875035e+09  2.654306e-01   -9.617018e-01
4.912534e+09  2.560350e-01   -9.653977e-01
4.950034e+09  2.489866e-01   -9.704345e-01
4.987534e+09  2.431191e-01   -9.717087e-01
5.025033e+09  2.373978e-01   -9.733699e-01
5.062532e+09  2.299798e-01   -9.729847e-01
5.100032e+09  2.198682e-01   -9.740303e-01
5.137532e+09  2.095697e-01   -9.712073e-01
5.175031e+09  1.994615e-01   -9.694224e-01
5.212530e+09  1.898302e-01   -9.666742e-01
5.250030e+09  1.824712e-01   -9.726891e-01
5.287530e+09  1.711003e-01   -9.762934e-01
5.325029e+09  1.452150e-01   -9.793733e-01
5.362528e+09  1.384049e-01   -9.801274e-01
5.400028e+09  1.134214e-01   -9.825309e-01
5.437528e+09  1.003647e-01   -9.821979e-01
5.475027e+09  9.204913e-02   -9.831865e-01
5.512526e+09  6.900374e-02   -9.834484e-01
5.550026e+09  7.627745e-02   -9.984291e-01
5.587526e+09  6.904921e-02   -1.002725e+00
5.625025e+09  5.970447e-02   -1.006705e+00
5.662524e+09  5.291030e-02   -1.002564e+00
5.700024e+09  4.595807e-02   -1.008323e+00
5.737524e+09  4.153791e-02   -1.011259e+00
5.775023e+09  3.550748e-02   -1.007523e+00
5.812522e+09  2.910550e-02   -1.007259e+00
5.850022e+09  2.333790e-02   -1.005522e+00
5.887522e+09  1.663300e-02   -1.003262e+00
5.925021e+09  8.681711e-03   -1.000067e+00
5.962520e+09  -1.729141e-03   -9.984247e-01
6.000020e+09  -1.128587e-02   -1.001708e+00
6.037520e+09  -2.941754e-02   -9.946580e-01
6.075019e+09  -3.940919e-02   -9.963988e-01
6.112518e+09  -4.845096e-02   -9.956484e-01
6.150018e+09  -5.832489e-02   -9.936758e-01
6.187518e+09  -7.506838e-02   -9.912887e-01
6.225017e+09  -9.037283e-02   -9.913461e-01
6.262516e+09  -1.049195e-01   -9.944388e-01
6.300016e+09  -1.197293e-01   -9.976495e-01
6.337516e+09  -1.236666e-01   -9.933079e-01
6.375015e+09  -1.408814e-01   -1.001432e+00
6.412514e+09  -1.437335e-01   -9.897260e-01
6.450014e+09  -1.544166e-01   -9.921928e-01
6.487514e+09  -1.615995e-01   -9.887810e-01
6.525013e+09  -1.696185e-01   -9.868346e-01
6.562512e+09  -1.756031e-01   -9.831745e-01
6.600012e+09  -1.852499e-01   -9.779190e-01
6.637512e+09  -1.948069e-01   -9.744137e-01
6.675011e+09  -2.037117e-01   -9.700926e-01
6.712510e+09  -2.150808e-01   -9.621645e-01
6.750010e+09  -2.263019e-01   -9.602298e-01
6.787510e+09  -2.344369e-01   -9.607069e-01
6.825009e+09  -2.513244e-01   -9.516821e-01
6.862508e+09  -2.643445e-01   -9.487075e-01
6.900008e+09  -2.803794e-01   -9.407831e-01
6.937508e+09  -2.948301e-01   -9.385005e-01
6.975007e+09  -2.930963e-01   -9.440199e-01
7.012506e+09  -3.322834e-01   -9.442599e-01
7.050006e+09  -3.265954e-01   -9.463397e-01
7.087506e+09  -3.353239e-01   -9.413057e-01
7.125005e+09  -3.482072e-01   -9.378976e-01
7.162504e+09  -3.598002e-01   -9.390970e-01
7.200004e+09  -3.659959e-01   -9.390837e-01
7.237504e+09  -3.664922e-01   -9.313149e-01
7.275003e+09  -3.716014e-01   -9.238554e-01
7.312502e+09  -3.780539e-01   -9.165807e-01
7.350002e+09  -3.872970e-01   -9.095626e-01
7.387502e+09  -3.954892e-01   -8.990188e-01
7.425001e+09  -4.055742e-01   -8.858759e-01
7.462500e+09  -4.157997e-01   -8.745332e-01
7.500000e+09  -4.240025e-01   -8.647425e-01
