# Hz S RI R 50.000000
! FREQ                re:S1  1             im:S1  1    
1.000000e+05  -1.003109e+00   7.183333e-03
3.759950e+07  -9.996104e-01   7.851246e-03
7.509900e+07  -9.969233e-01   1.550640e-02
1.125985e+08  -9.996100e-01   2.255372e-02
1.500980e+08  -9.953907e-01   3.288120e-02
1.875975e+08  -9.929112e-01   4.363814e-02
2.250970e+08  -9.958685e-01   5.117529e-02
2.625965e+08  -9.892273e-01   6.749905e-02
3.000960e+08  -9.956149e-01   6.208167e-02
3.375955e+08  -9.937354e-01   7.188359e-02
3.750950e+08  -9.903045e-01   8.615526e-02
4.125945e+08  -9.885898e-01   9.519193e-02
4.500940e+08  -9.889596e-01   1.032302e-01
4.875935e+08  -9.899101e-01   1.116940e-01
5.250930e+08  -9.899467e-01   1.208864e-01
5.625925e+08  -9.903612e-01   1.310660e-01
6.000920e+08  -9.916079e-01   1.410249e-01
6.375915e+08  -9.858967e-01   1.437141e-01
6.750910e+08  -9.866711e-01   1.510662e-01
7.125905e+08  -9.871801e-01   1.584330e-01
7.500900e+08  -9.861246e-01   1.657916e-01
7.875895e+08  -9.835031e-01   1.723743e-01
8.250890e+08  -9.817162e-01   1.794935e-01
8.625885e+08  -9.800595e-01   1.874335e-01
9.000880e+08  -9.773653e-01   1.955623e-01
9.375875e+08  -9.739998e-01   2.043495e-01
9.750870e+08  -9.696910e-01   2.146541e-01
1.012586e+09  -9.643220e-01   2.262364e-01
1.050086e+09  -9.640557e-01   2.331558e-01
1.087586e+09  -9.600407e-01   2.437531e-01
1.125085e+09  -9.574069e-01   2.513932e-01
1.162584e+09  -9.540744e-01   2.653787e-01
1.200084e+09  -9.518806e-01   2.863112e-01
1.237584e+09  -9.523227e-01   2.864238e-01
1.275083e+09  -9.510393e-01   2.948221e-01
1.312582e+09  -9.494537e-01   3.025291e-01
1.350082e+09  -9.492457e-01   3.111521e-01
1.387582e+09  -9.461782e-01   3.155199e-01
1.425081e+09  -9.452801e-01   3.232397e-01
1.462580e+09  -9.461334e-01   3.315485e-01
1.500080e+09  -9.406052e-01   3.364569e-01
1.537580e+09  -9.386759e-01   3.432460e-01
1.575079e+09  -9.349597e-01   3.493996e-01
1.612578e+09  -9.285342e-01   3.557971e-01
1.650078e+09  -9.230477e-01   3.633404e-01
1.687578e+09  -9.225938e-01   3.709061e-01
1.725077e+09  -9.154559e-01   3.800666e-01
1.762576e+09  -9.122398e-01   3.878265e-01
1.800076e+09  -9.042905e-01   3.987384e-01
1.837576e+09  -9.010009e-01   4.054435e-01
1.875075e+09  -8.945340e-01   4.188026e-01
1.912574e+09  -8.900711e-01   4.294450e-01
1.950074e+09  -8.874030e-01   4.358139e-01
1.987574e+09  -8.840673e-01   4.424998e-01
2.025073e+09  -8.808905e-01   4.597765e-01
2.062572e+09  -8.790758e-01   4.700218e-01
2.100072e+09  -8.785398e-01   4.806450e-01
2.137572e+09  -8.754285e-01   4.846398e-01
2.175071e+09  -8.710616e-01   4.879154e-01
2.212570e+09  -8.675620e-01   4.941015e-01
2.250070e+09  -8.648521e-01   5.004242e-01
2.287570e+09  -8.619724e-01   5.067061e-01
2.325069e+09  -8.575436e-01   5.124240e-01
2.362568e+09  -8.511138e-01   5.171192e-01
2.400068e+09  -8.478054e-01   5.244039e-01
2.437568e+09  -8.415796e-01   5.301159e-01
2.475067e+09  -8.328303e-01   5.368605e-01
2.512566e+09  -8.279244e-01   5.441590e-01
2.550066e+09  -8.216818e-01   5.519410e-01
2.587566e+09  -8.097095e-01   5.642675e-01
2.625065e+09  -8.100743e-01   5.683192e-01
2.662564e+09  -7.999774e-01   5.816351e-01
2.700064e+09  -7.885455e-01   6.020112e-01
2.737564e+09  -7.886841e-01   5.973240e-01
2.775063e+09  -7.839738e-01   6.100823e-01
2.812562e+09  -7.807405e-01   6.225467e-01
2.850062e+09  -7.788463e-01   6.367762e-01
2.887562e+09  -7.739640e-01   6.310820e-01
2.925061e+09  -7.703967e-01   6.377338e-01
2.962560e+09  -7.673740e-01   6.441211e-01
3.000060e+09  -7.674436e-01   6.522487e-01
3.037560e+09  -7.578892e-01   6.506195e-01
3.075059e+09  -7.544972e-01   6.557398e-01
3.112558e+09  -7.478281e-01   6.595745e-01
3.150058e+09  -7.414385e-01   6.639807e-01
3.187558e+09  -7.335812e-01   6.679601e-01
3.225057e+09  -7.242374e-01   6.722493e-01
3.262556e+09  -6.983533e-01   6.907137e-01
3.300056e+09  -7.105766e-01   6.847040e-01
3.337556e+09  -6.978259e-01   6.927266e-01
3.375055e+09  -6.851198e-01   7.030218e-01
3.412554e+09  -6.780261e-01   7.120761e-01
3.450054e+09  -6.692139e-01   7.221377e-01
3.487554e+09  -6.626976e-01   7.278130e-01
3.525053e+09  -6.561065e-01   7.324811e-01
3.562552e+09  -6.553395e-01   7.357520e-01
3.600052e+09  -6.530797e-01   7.467280e-01
3.637552e+09  -6.501508e-01   7.483729e-01
3.675051e+09  -6.481152e-01   7.632922e-01
3.712550e+09  -6.429226e-01   7.619242e-01
3.750050e+09  -6.382728e-01   7.643621e-01
3.787550e+09  -6.359302e-01   7.694635e-01
3.825049e+09  -6.323156e-01   7.730879e-01
3.862548e+09  -6.271590e-01   7.759696e-01
3.900048e+09  -6.195992e-01   7.775647e-01
3.937548e+09  -6.120088e-01   7.800637e-01
3.975047e+09  -6.000874e-01   7.779615e-01
4.012546e+09  -5.911169e-01   7.811402e-01
4.050046e+09  -5.838730e-01   7.865775e-01
4.087546e+09  -5.720879e-01   7.921545e-01
4.125045e+09  -5.682867e-01   7.987233e-01
4.162544e+09  -5.526078e-01   8.080596e-01
4.200044e+09  -5.367549e-01   8.191763e-01
4.237544e+09  -5.344572e-01   8.207462e-01
4.275043e+09  -5.208090e-01   8.361689e-01
4.312542e+09  -5.208584e-01   8.335947e-01
4.350042e+09  -5.127087e-01   8.529523e-01
4.387542e+09  -5.116437e-01   8.467214e-01
4.425041e+09  -5.041415e-01   8.581074e-01
4.462540e+09  -4.986763e-01   8.648456e-01
4.500040e+09  -4.977187e-01   8.708434e-01
4.537540e+09  -4.931466e-01   8.687296e-01
4.575039e+09  -4.919507e-01   8.734909e-01
4.612538e+09  -4.869736e-01   8.751406e-01
4.650038e+09  -4.819592e-01   8.745095e-01
4.687538e+09  -4.752288e-01   8.758235e-01
4.725037e+09  -4.694763e-01   8.771508e-01
4.762536e+09  -4.378238e-01   8.835067e-01
4.800036e+09  -4.507887e-01   8.803599e-01
4.837536e+09  -4.375793e-01   8.831685e-01
4.875035e+09  -4.264627e-01   8.851023e-01
4.912534e+09  -4.142151e-01   8.843136e-01
4.950034e+09  -4.058124e-01   8.851747e-01
4.987534e+09  -3.959827e-01   8.906080e-01
5.025033e+09  -3.937089e-01   9.003290e-01
5.062532e+09  -3.818050e-01   9.177028e-01
5.100032e+09  -3.713985e-01   9.285123e-01
5.137532e+09  -3.592039e-01   9.379625e-01
5.175031e+09  -3.468352e-01   9.418617e-01
5.212530e+09  -3.377982e-01   9.425459e-01
5.250030e+09  -3.362245e-01   9.395791e-01
5.287530e+09  -3.360507e-01   9.510262e-01
5.325029e+09  -3.334653e-01   9.531589e-01
5.362528e+09  -3.258677e-01   9.545516e-01
5.400028e+09  -3.195841e-01   9.556307e-01
5.437528e+09  -3.139651e-01   9.549177e-01
5.475027e+09  -3.062517e-01   9.515374e-01
5.512526e+09  -2.786839e-01   9.560523e-01
5.550026e+09  -2.870522e-01   9.557792e-01
5.587526e+09  -2.732166e-01   9.543518e-01
5.625025e+09  -2.612017e-01   9.532756e-01
5.662524e+09  -2.548994e-01   9.527058e-01
5.700024e+09  -2.355823e-01   9.513195e-01
5.737524e+09  -2.376381e-01   9.521676e-01
5.775023e+09  -2.158821e-01   9.587626e-01
5.812522e+09  -2.069179e-01   9.636415e-01
5.850022e+09  -1.869129e-01   9.740956e-01
5.887522e+09  -1.840884e-01   9.708535e-01
5.925021e+09  -1.716950e-01   9.798244e-01
5.962520e+09  -1.704438e-01   9.777065e-01
6.000020e+09  -1.623893e-01   9.900986e-01
6.037520e+09  -1.588275e-01   9.914364e-01
6.075019e+09  -1.536150e-01   9.980984e-01
6.112518e+09  -1.478730e-01   9.982224e-01
6.150018e+09  -1.442490e-01   9.996675e-01
6.187518e+09  -1.361754e-01   9.988920e-01
6.225017e+09  -1.270771e-01   9.996310e-01
6.262516e+09  -1.159748e-01   9.992344e-01
6.300016e+09  -1.043370e-01   9.993009e-01
6.337516e+09  -9.273492e-02   9.993748e-01
6.375015e+09  -8.030247e-02   9.899788e-01
6.412514e+09  -7.082604e-02   9.933874e-01
6.450014e+09  -5.061543e-02   9.865287e-01
6.487514e+09  -5.200986e-02   9.890682e-01
6.525013e+09  -4.961737e-02   9.889419e-01
6.562512e+09  -3.169431e-02   9.928112e-01
6.600012e+09  -1.986310e-02   9.966629e-01
6.637512e+09  -1.268248e-02   9.987154e-01
6.675011e+09  -2.338518e-03   9.999633e-01
6.712510e+09  3.597253e-03   1.003159e+00
6.750010e+09  1.119489e-02   1.010704e+00
6.787510e+09  1.343119e-02   1.005840e+00
6.825009e+09  1.864892e-02   1.011682e+00
6.862508e+09  2.362564e-02   1.012150e+00
6.900008e+09  2.843807e-02   1.013107e+00
6.937508e+09  3.678127e-02   1.009323e+00
6.975007e+09  4.550254e-02   1.007472e+00
7.012506e+09  5.605126e-02   1.004738e+00
7.050006e+09  7.150059e-02   9.976262e-01
7.087506e+09  8.216558e-02   9.990499e-01
7.125005e+09  9.991332e-02   9.903771e-01
7.162504e+09  1.148350e-01   9.877373e-01
7.200004e+09  1.362409e-01   9.815967e-01
7.237504e+09  1.459982e-01   9.883737e-01
7.275003e+09  1.641953e-01   9.845026e-01
7.312502e+09  1.730730e-01   9.821896e-01
7.350002e+09  1.829289e-01   9.794934e-01
7.387502e+09  1.903277e-01   9.816820e-01
7.425001e+09  1.881188e-01   9.825064e-01
7.462500e+09  1.996871e-01   9.848792e-01
7.500000e+09  1.971583e-01   9.826243e-01
